File Format: MDS
Revision:  2.01
Title: ads_noise_test.ckt
Date: Tue Aug 25 18:17:14 2020
Plotname: AC AC1[1] <ads_noise_test.ckt>   freq=(1 GHz->1 THz)
Flags: complex 
No. Sweep Variables: 0
Sweep Variables:	
No. Variables: 9
Variables:	0	freq	frequency type=real indep=yes mixop=neg
		1	SRC4.i	current type=complex indep=no
		2	SRC3.i	current type=complex indep=no
		3	SRC2.i	current type=complex indep=no
		4	SRC1.i	current type=complex indep=no
		5	N__B.noise	v-noise type=real indep=no
		6	N__C.noise	v-noise type=real indep=no
		7	N__Bcono.noise	v-noise type=real indep=no
		8	N__Ccono.noise	v-noise type=real indep=no
Values:
0	1.000000000000000e+09,0.000000000000000e+00
	-1.681041011478396e-01,2.348966228025980e-03
	-8.352170972527884e-04,-5.613587763319916e-04
	-1.681041011478396e-01,2.348966228025980e-03
	-8.352170972527884e-04,-5.613587763319916e-04
	4.071383760068224e-12,0.000000000000000e+00
	4.072200615488619e-12,0.000000000000000e+00
	4.071383760210169e-12,0.000000000000000e+00
	4.072200601156247e-12,0.000000000000000e+00

1	2.154434690036160e+09,0.000000000000000e+00
	-1.680613031431108e-01,2.822338317541842e-03
	-8.437074478757078e-04,-1.222967910312658e-03
	-1.680613031431108e-01,2.822338317541842e-03
	-8.437074478757078e-04,-1.222967910312658e-03
	4.071383745761322e-12,0.000000000000000e+00
	4.072200384959757e-12,0.000000000000000e+00
	4.071383746357358e-12,0.000000000000000e+00
	4.072200357740062e-12,0.000000000000000e+00

2	4.641588833631203e+09,0.000000000000000e+00
	-1.679801067651877e-01,5.039478710868316e-03
	-8.838158460484080e-04,-2.640323294114656e-03
	-1.679801067651877e-01,5.039478710868316e-03
	-8.838158460484080e-04,-2.640323294114656e-03
	4.071383676480514e-12,0.000000000000000e+00
	4.072200183643009e-12,0.000000000000000e+00
	4.071383679183335e-12,0.000000000000000e+00
	4.072200096654196e-12,0.000000000000000e+00

3	1.000000000005954e+10,0.000000000000000e+00
	-1.676291839776693e-01,1.035931173009889e-02
	-1.069795861041445e-03,-5.683203153660917e-03
	-1.676291839776693e-01,1.035931173009889e-02
	-1.069795861041445e-03,-5.683203153660917e-03
	4.071383354870960e-12,0.000000000000000e+00
	4.072199437820826e-12,0.000000000000000e+00
	4.071383367333607e-12,0.000000000000000e+00
	4.072199073931753e-12,0.000000000000000e+00

4	2.154434690048987e+10,0.000000000000000e+00
	-1.660195250962820e-01,2.194230931345918e-02
	-1.925791201576543e-03,-1.216472877079564e-02
	-1.660195250962820e-01,2.194230931345918e-02
	-1.925791201576543e-03,-1.216472877079564e-02
	4.071381874534170e-12,0.000000000000000e+00
	4.072196045062307e-12,0.000000000000000e+00
	4.071381931892280e-12,0.000000000000000e+00
	4.072194406982057e-12,0.000000000000000e+00

5	4.641588833658839e+10,0.000000000000000e+00
	-1.588333501397094e-01,4.570566742614630e-02
	-5.748319496677257e-03,-2.543220707728137e-02
	-1.588333501397094e-01,4.570566742614630e-02
	-5.748319496677257e-03,-2.543220707728137e-02
	4.071375263650685e-12,0.000000000000000e+00
	4.072180899665770e-12,0.000000000000000e+00
	4.071375521001639e-12,0.000000000000000e+00
	4.072173576276806e-12,0.000000000000000e+00

6	1.000000000011908e+11,0.000000000000000e+00
	-1.306173349677474e-01,8.604301700244070e-02
	-2.076499517609734e-02,-4.822449217383631e-02
	-1.306173349677474e-01,8.604301700244070e-02
	-2.076499517609734e-02,-4.822449217383631e-02
	4.071349287710206e-12,0.000000000000000e+00
	4.072121345188320e-12,0.000000000000000e+00
	4.071350321504550e-12,0.000000000000000e+00
	4.072091775665662e-12,0.000000000000000e+00

7	2.154434690061815e+11,0.000000000000000e+00
	-5.857134601318108e-02,1.173342985602358e-01
	-5.921143222105135e-02,-6.779961390337294e-02
	-5.857134601318108e-02,1.173342985602358e-01
	-5.921143222105135e-02,-6.779961390337294e-02
	4.071282712135688e-12,0.000000000000000e+00
	4.071968096020729e-12,0.000000000000000e+00
	4.071285610564330e-12,0.000000000000000e+00
	4.071882764409540e-12,0.000000000000000e+00

8	4.641588833686475e+11,0.000000000000000e+00
	1.947010362096872e-02,9.527832810728766e-02
	-1.016492582102882e-01,-6.234518445817057e-02
	1.947010362096872e-02,9.527832810728766e-02
	-1.016492582102882e-01,-6.234518445817057e-02
	4.071208688658664e-12,0.000000000000000e+00
	4.071793031910835e-12,0.000000000000000e+00
	4.071212734372519e-12,0.000000000000000e+00
	4.071655329482930e-12,0.000000000000000e+00

9	1.000000000000000e+12,0.000000000000000e+00
	5.609572508432083e-02,5.652012539505580e-02
	-1.253495144064081e-01,-5.382464873862258e-02
	5.609572508432083e-02,5.652012539505580e-02
	-1.253495144064081e-01,-5.382464873862258e-02
	4.071164844814621e-12,0.000000000000000e+00
	4.071667047298105e-12,0.000000000000000e+00
	4.071166070089450e-12,0.000000000000000e+00
	4.071543419567056e-12,0.000000000000000e+00

#

Plotname: NC AC1[1].N__B[1]
Flags: real 
No. Sweep Variables: 1
Sweep Variables:	freq	1.000000000000000e+09
No. Variables: 4
Variables:	0	index	none type=real indep=yes
		1	name	none type=string indep=no table_format=no
		2	type	none type=string indep=no table_format=no
		3	vnc	v-noise type=real indep=no table_format=no
Values:
0	0.000000000000000e+00	"_total"
	"_total"
	4.071383760068224e-12

1	1.000000000000000e+00	"R_B1"
	"R"
	4.071382106680604e-12

2	2.000000000000000e+00	"X1.X1"
	"hic2_full"
	3.669216276166599e-15

3	3.000000000000000e+00	"X1.X1.ibei"
	"hic2_full"
	2.953175557965224e-15

4	4.000000000000000e+00	"X1.X1.ibep"
	"hic2_full"
	2.138799158816287e-15

5	5.000000000000000e+00	"X1.X1.rbx"
	"hic2_full"
	2.963799728570504e-16

6	6.000000000000000e+00	"X1.X1.re"
	"hic2_full"
	1.950658367096514e-16

7	7.000000000000000e+00	"X1.X1.it"
	"hic2_full"
	1.425766166778492e-16

8	8.000000000000000e+00	"X1.X1.rbi"
	"hic2_full"
	1.182520534799860e-16

9	9.000000000000000e+00	"X1.X1.iavl"
	"hic2_full"
	8.173121233867421e-17

10	1.000000000000000e+01	"X1.X1.rcx"
	"hic2_full"
	2.360007241309277e-17

11	1.100000000000000e+01	"X1.X1.ijbcx"
	"hic2_full"
	1.180627098488437e-20

12	1.200000000000000e+01	"X1.X1.ibci"
	"hic2_full"
	2.062946752056530e-21

13	1.300000000000000e+01	"X1.X1.ijsc"
	"hic2_full"
	2.957014387400670e-23

14	1.400000000000000e+01	"X1.X1.rsu"
	"hic2_full"
	0.000000000000000e+00

15	1.500000000000000e+01	"X1.X1.flicker"
	"hic2_full"
	0.000000000000000e+00

16	1.600000000000000e+01	"X1.X1.flicker"
	"hic2_full"
	0.000000000000000e+00

17	1.700000000000000e+01	"X1.X1.flicker_re"
	"hic2_full"
	0.000000000000000e+00

18	1.800000000000000e+01	"X1.X1.ibei"
	"hic2_full"
	0.000000000000000e+00

19	1.900000000000000e+01	"X1.X1.it"
	"hic2_full"
	0.000000000000000e+00

20	2.000000000000000e+01	"R_C1"
	"R"
	4.501049957525885e-19

21	2.100000000000000e+01	"R_th1"
	"R"
	7.978171651156368e-21

22	2.200000000000000e+01	"X2.X1.ijbcx"
	"hic2_full"
	0.000000000000000e+00

23	2.300000000000000e+01	"X2.X1.ijsc"
	"hic2_full"
	0.000000000000000e+00

24	2.400000000000000e+01	"X2.X1.ibei"
	"hic2_full"
	0.000000000000000e+00

25	2.500000000000000e+01	"X2.X1.it"
	"hic2_full"
	0.000000000000000e+00

26	2.600000000000000e+01	"X2.X1.ibei"
	"hic2_full"
	0.000000000000000e+00

27	2.700000000000000e+01	"X2.X1.it"
	"hic2_full"
	0.000000000000000e+00

28	2.800000000000000e+01	"X2.X1"
	"hic2_full"
	0.000000000000000e+00

29	2.900000000000000e+01	"X2.X1.rbx"
	"hic2_full"
	0.000000000000000e+00

30	3.000000000000000e+01	"X2.X1.rbi"
	"hic2_full"
	0.000000000000000e+00

31	3.100000000000000e+01	"X2.X1.rcx"
	"hic2_full"
	0.000000000000000e+00

32	3.200000000000000e+01	"X2.X1.re"
	"hic2_full"
	0.000000000000000e+00

33	3.300000000000000e+01	"X2.X1.rsu"
	"hic2_full"
	0.000000000000000e+00

34	3.400000000000000e+01	"X2.X1.flicker"
	"hic2_full"
	0.000000000000000e+00

35	3.500000000000000e+01	"X2.X1.flicker"
	"hic2_full"
	0.000000000000000e+00

36	3.600000000000000e+01	"X2.X1.flicker_re"
	"hic2_full"
	0.000000000000000e+00

37	3.700000000000000e+01	"X2.X1.iavl"
	"hic2_full"
	0.000000000000000e+00

38	3.800000000000000e+01	"X2.X1.ibci"
	"hic2_full"
	0.000000000000000e+00

39	3.900000000000000e+01	"X2.X1.ibep"
	"hic2_full"
	0.000000000000000e+00

40	4.000000000000000e+01	"R6"
	"R"
	0.000000000000000e+00

41	4.100000000000000e+01	"R4"
	"R"
	0.000000000000000e+00

42	4.200000000000000e+01	"R5"
	"R"
	0.000000000000000e+00

#

Plotname: NC AC1[1].N__B[2]
Flags: real 
No. Sweep Variables: 1
Sweep Variables:	freq	2.154434690036160e+09
No. Variables: 4
Variables:	0	index	none type=real indep=yes
		1	name	none type=string indep=no table_format=no
		2	type	none type=string indep=no table_format=no
		3	vnc	v-noise type=real indep=no table_format=no
Values:
0	0.000000000000000e+00	"_total"
	"_total"
	4.071383745761322e-12

1	1.000000000000000e+00	"R_B1"
	"R"
	4.071382072115515e-12

2	2.000000000000000e+00	"X1.X1"
	"hic2_full"
	3.691626326354206e-15

3	3.000000000000000e+00	"X1.X1.ibei"
	"hic2_full"
	2.953074281950557e-15

4	4.000000000000000e+00	"X1.X1.ibep"
	"hic2_full"
	2.138728534283020e-15

5	5.000000000000000e+00	"X1.X1.rbx"
	"hic2_full"
	4.349266417724930e-16

6	6.000000000000000e+00	"X1.X1.re"
	"hic2_full"
	2.508176458337810e-16

7	7.000000000000000e+00	"X1.X1.rbi"
	"hic2_full"
	2.102265009634031e-16

8	8.000000000000000e+00	"X1.X1.it"
	"hic2_full"
	1.667106706389922e-16

9	9.000000000000000e+00	"X1.X1.iavl"
	"hic2_full"
	8.172854923266511e-17

10	1.000000000000000e+01	"X1.X1.rcx"
	"hic2_full"
	5.059263638742748e-17

11	1.100000000000000e+01	"X1.X1.ijbcx"
	"hic2_full"
	1.180593810074791e-20

12	1.200000000000000e+01	"X1.X1.ibci"
	"hic2_full"
	2.062879533600635e-21

13	1.300000000000000e+01	"X1.X1.ijsc"
	"hic2_full"
	6.339097231377874e-23

14	1.400000000000000e+01	"X1.X1.rsu"
	"hic2_full"
	0.000000000000000e+00

15	1.500000000000000e+01	"X1.X1.flicker"
	"hic2_full"
	0.000000000000000e+00

16	1.600000000000000e+01	"X1.X1.flicker"
	"hic2_full"
	0.000000000000000e+00

17	1.700000000000000e+01	"X1.X1.flicker_re"
	"hic2_full"
	0.000000000000000e+00

18	1.800000000000000e+01	"X1.X1.ibei"
	"hic2_full"
	0.000000000000000e+00

19	1.900000000000000e+01	"X1.X1.it"
	"hic2_full"
	0.000000000000000e+00

20	2.000000000000000e+01	"R_C1"
	"R"
	9.649122251693569e-19

21	2.100000000000000e+01	"R_th1"
	"R"
	4.805739995559815e-21

22	2.200000000000000e+01	"X2.X1.ijbcx"
	"hic2_full"
	0.000000000000000e+00

23	2.300000000000000e+01	"X2.X1.ijsc"
	"hic2_full"
	0.000000000000000e+00

24	2.400000000000000e+01	"X2.X1.ibei"
	"hic2_full"
	0.000000000000000e+00

25	2.500000000000000e+01	"X2.X1.it"
	"hic2_full"
	0.000000000000000e+00

26	2.600000000000000e+01	"X2.X1.ibei"
	"hic2_full"
	0.000000000000000e+00

27	2.700000000000000e+01	"X2.X1.it"
	"hic2_full"
	0.000000000000000e+00

28	2.800000000000000e+01	"X2.X1"
	"hic2_full"
	0.000000000000000e+00

29	2.900000000000000e+01	"X2.X1.rbx"
	"hic2_full"
	0.000000000000000e+00

30	3.000000000000000e+01	"X2.X1.rbi"
	"hic2_full"
	0.000000000000000e+00

31	3.100000000000000e+01	"X2.X1.rcx"
	"hic2_full"
	0.000000000000000e+00

32	3.200000000000000e+01	"X2.X1.re"
	"hic2_full"
	0.000000000000000e+00

33	3.300000000000000e+01	"X2.X1.rsu"
	"hic2_full"
	0.000000000000000e+00

34	3.400000000000000e+01	"X2.X1.flicker"
	"hic2_full"
	0.000000000000000e+00

35	3.500000000000000e+01	"X2.X1.flicker"
	"hic2_full"
	0.000000000000000e+00

36	3.600000000000000e+01	"X2.X1.flicker_re"
	"hic2_full"
	0.000000000000000e+00

37	3.700000000000000e+01	"X2.X1.iavl"
	"hic2_full"
	0.000000000000000e+00

38	3.800000000000000e+01	"X2.X1.ibci"
	"hic2_full"
	0.000000000000000e+00

39	3.900000000000000e+01	"X2.X1.ibep"
	"hic2_full"
	0.000000000000000e+00

40	4.000000000000000e+01	"R6"
	"R"
	0.000000000000000e+00

41	4.100000000000000e+01	"R4"
	"R"
	0.000000000000000e+00

42	4.200000000000000e+01	"R5"
	"R"
	0.000000000000000e+00

#

Plotname: NC AC1[1].N__B[3]
Flags: real 
No. Sweep Variables: 1
Sweep Variables:	freq	4.641588833631203e+09
No. Variables: 4
Variables:	0	index	none type=real indep=yes
		1	name	none type=string indep=no table_format=no
		2	type	none type=string indep=no table_format=no
		3	vnc	v-noise type=real indep=no table_format=no
Values:
0	0.000000000000000e+00	"_total"
	"_total"
	4.071383676480514e-12

1	1.000000000000000e+00	"R_B1"
	"R"
	4.071381908829911e-12

2	2.000000000000000e+00	"X1.X1"
	"hic2_full"
	3.793884578222919e-15

3	3.000000000000000e+00	"X1.X1.ibei"
	"hic2_full"
	2.952581410527660e-15

4	4.000000000000000e+00	"X1.X1.ibep"
	"hic2_full"
	2.138388928384694e-15

5	5.000000000000000e+00	"X1.X1.rbx"
	"hic2_full"
	8.120273431350056e-16

6	6.000000000000000e+00	"X1.X1.rbi"
	"hic2_full"
	4.294274925404640e-16

7	7.000000000000000e+00	"X1.X1.re"
	"hic2_full"
	4.222785802802959e-16

8	8.000000000000000e+00	"X1.X1.it"
	"hic2_full"
	2.499416913062091e-16

9	9.000000000000000e+00	"X1.X1.rcx"
	"hic2_full"
	1.088674000716309e-16

10	1.000000000000000e+01	"X1.X1.iavl"
	"hic2_full"
	8.171573495322464e-17

11	1.100000000000000e+01	"X1.X1.ijbcx"
	"hic2_full"
	1.180435341794867e-20

12	1.200000000000000e+01	"X1.X1.ibci"
	"hic2_full"
	2.062556093198917e-21

13	1.300000000000000e+01	"X1.X1.ijsc"
	"hic2_full"
	1.364074070180064e-22

14	1.400000000000000e+01	"X1.X1.rsu"
	"hic2_full"
	0.000000000000000e+00

15	1.500000000000000e+01	"X1.X1.flicker"
	"hic2_full"
	0.000000000000000e+00

16	1.600000000000000e+01	"X1.X1.flicker"
	"hic2_full"
	0.000000000000000e+00

17	1.700000000000000e+01	"X1.X1.flicker_re"
	"hic2_full"
	0.000000000000000e+00

18	1.800000000000000e+01	"X1.X1.ibei"
	"hic2_full"
	0.000000000000000e+00

19	1.900000000000000e+01	"X1.X1.it"
	"hic2_full"
	0.000000000000000e+00

20	2.000000000000000e+01	"R_C1"
	"R"
	2.076339419181262e-18

21	2.100000000000000e+01	"R_th1"
	"R"
	3.787923657921177e-21

22	2.200000000000000e+01	"X2.X1.ijbcx"
	"hic2_full"
	0.000000000000000e+00

23	2.300000000000000e+01	"X2.X1.ijsc"
	"hic2_full"
	0.000000000000000e+00

24	2.400000000000000e+01	"X2.X1.ibei"
	"hic2_full"
	0.000000000000000e+00

25	2.500000000000000e+01	"X2.X1.it"
	"hic2_full"
	0.000000000000000e+00

26	2.600000000000000e+01	"X2.X1.ibei"
	"hic2_full"
	0.000000000000000e+00

27	2.700000000000000e+01	"X2.X1.it"
	"hic2_full"
	0.000000000000000e+00

28	2.800000000000000e+01	"X2.X1"
	"hic2_full"
	0.000000000000000e+00

29	2.900000000000000e+01	"X2.X1.rbx"
	"hic2_full"
	0.000000000000000e+00

30	3.000000000000000e+01	"X2.X1.rbi"
	"hic2_full"
	0.000000000000000e+00

31	3.100000000000000e+01	"X2.X1.rcx"
	"hic2_full"
	0.000000000000000e+00

32	3.200000000000000e+01	"X2.X1.re"
	"hic2_full"
	0.000000000000000e+00

33	3.300000000000000e+01	"X2.X1.rsu"
	"hic2_full"
	0.000000000000000e+00

34	3.400000000000000e+01	"X2.X1.flicker"
	"hic2_full"
	0.000000000000000e+00

35	3.500000000000000e+01	"X2.X1.flicker"
	"hic2_full"
	0.000000000000000e+00

36	3.600000000000000e+01	"X2.X1.flicker_re"
	"hic2_full"
	0.000000000000000e+00

37	3.700000000000000e+01	"X2.X1.iavl"
	"hic2_full"
	0.000000000000000e+00

38	3.800000000000000e+01	"X2.X1.ibci"
	"hic2_full"
	0.000000000000000e+00

39	3.900000000000000e+01	"X2.X1.ibep"
	"hic2_full"
	0.000000000000000e+00

40	4.000000000000000e+01	"R6"
	"R"
	0.000000000000000e+00

41	4.100000000000000e+01	"R4"
	"R"
	0.000000000000000e+00

42	4.200000000000000e+01	"R5"
	"R"
	0.000000000000000e+00

#

Plotname: NC AC1[1].N__B[4]
Flags: real 
No. Sweep Variables: 1
Sweep Variables:	freq	1.000000000005954e+10
No. Variables: 4
Variables:	0	index	none type=real indep=yes
		1	name	none type=string indep=no table_format=no
		2	type	none type=string indep=no table_format=no
		3	vnc	v-noise type=real indep=no table_format=no
Values:
0	0.000000000000000e+00	"_total"
	"_total"
	4.071383354870960e-12

1	1.000000000000000e+00	"R_B1"
	"R"
	4.071381151685133e-12

2	2.000000000000000e+00	"X1.X1"
	"hic2_full"
	4.235564115451522e-15

3	3.000000000000000e+00	"X1.X1.ibei"
	"hic2_full"
	2.950291893811365e-15

4	4.000000000000000e+00	"X1.X1.ibep"
	"hic2_full"
	2.136812246891568e-15

5	5.000000000000000e+00	"X1.X1.rbx"
	"hic2_full"
	1.684647604045114e-15

6	6.000000000000000e+00	"X1.X1.rbi"
	"hic2_full"
	9.132463967513681e-16

7	7.000000000000000e+00	"X1.X1.re"
	"hic2_full"
	8.444070614259491e-16

8	8.000000000000000e+00	"X1.X1.it"
	"hic2_full"
	4.723859383762445e-16

9	9.000000000000000e+00	"X1.X1.rcx"
	"hic2_full"
	2.343469777265707e-16

10	1.000000000000000e+01	"X1.X1.iavl"
	"hic2_full"
	8.165624089311079e-17

11	1.100000000000000e+01	"X1.X1.ijbcx"
	"hic2_full"
	1.179700004792845e-20

12	1.200000000000000e+01	"X1.X1.ibci"
	"hic2_full"
	2.061054426032035e-21

13	1.300000000000000e+01	"X1.X1.ijsc"
	"hic2_full"
	2.936293468306853e-22

14	1.400000000000000e+01	"X1.X1.rsu"
	"hic2_full"
	0.000000000000000e+00

15	1.500000000000000e+01	"X1.X1.flicker"
	"hic2_full"
	0.000000000000000e+00

16	1.600000000000000e+01	"X1.X1.flicker"
	"hic2_full"
	0.000000000000000e+00

17	1.700000000000000e+01	"X1.X1.flicker_re"
	"hic2_full"
	0.000000000000000e+00

18	1.800000000000000e+01	"X1.X1.ibei"
	"hic2_full"
	0.000000000000000e+00

19	1.900000000000000e+01	"X1.X1.it"
	"hic2_full"
	0.000000000000000e+00

20	2.000000000000000e+01	"R_C1"
	"R"
	4.469509396747944e-18

21	2.100000000000000e+01	"R_th1"
	"R"
	3.527903446344200e-21

22	2.200000000000000e+01	"X2.X1.ijbcx"
	"hic2_full"
	0.000000000000000e+00

23	2.300000000000000e+01	"X2.X1.ijsc"
	"hic2_full"
	0.000000000000000e+00

24	2.400000000000000e+01	"X2.X1.ibei"
	"hic2_full"
	0.000000000000000e+00

25	2.500000000000000e+01	"X2.X1.it"
	"hic2_full"
	0.000000000000000e+00

26	2.600000000000000e+01	"X2.X1.ibei"
	"hic2_full"
	0.000000000000000e+00

27	2.700000000000000e+01	"X2.X1.it"
	"hic2_full"
	0.000000000000000e+00

28	2.800000000000000e+01	"X2.X1"
	"hic2_full"
	0.000000000000000e+00

29	2.900000000000000e+01	"X2.X1.rbx"
	"hic2_full"
	0.000000000000000e+00

30	3.000000000000000e+01	"X2.X1.rbi"
	"hic2_full"
	0.000000000000000e+00

31	3.100000000000000e+01	"X2.X1.rcx"
	"hic2_full"
	0.000000000000000e+00

32	3.200000000000000e+01	"X2.X1.re"
	"hic2_full"
	0.000000000000000e+00

33	3.300000000000000e+01	"X2.X1.rsu"
	"hic2_full"
	0.000000000000000e+00

34	3.400000000000000e+01	"X2.X1.flicker"
	"hic2_full"
	0.000000000000000e+00

35	3.500000000000000e+01	"X2.X1.flicker"
	"hic2_full"
	0.000000000000000e+00

36	3.600000000000000e+01	"X2.X1.flicker_re"
	"hic2_full"
	0.000000000000000e+00

37	3.700000000000000e+01	"X2.X1.iavl"
	"hic2_full"
	0.000000000000000e+00

38	3.800000000000000e+01	"X2.X1.ibci"
	"hic2_full"
	0.000000000000000e+00

39	3.900000000000000e+01	"X2.X1.ibep"
	"hic2_full"
	0.000000000000000e+00

40	4.000000000000000e+01	"R6"
	"R"
	0.000000000000000e+00

41	4.100000000000000e+01	"R4"
	"R"
	0.000000000000000e+00

42	4.200000000000000e+01	"R5"
	"R"
	0.000000000000000e+00

#

Plotname: NC AC1[1].N__B[5]
Flags: real 
No. Sweep Variables: 1
Sweep Variables:	freq	2.154434690048987e+10
No. Variables: 4
Variables:	0	index	none type=real indep=yes
		1	name	none type=string indep=no table_format=no
		2	type	none type=string indep=no table_format=no
		3	vnc	v-noise type=real indep=no table_format=no
Values:
0	0.000000000000000e+00	"_total"
	"_total"
	4.071381874534170e-12

1	1.000000000000000e+00	"R_B1"
	"R"
	4.071377666833602e-12

2	2.000000000000000e+00	"X1.X1"
	"hic2_full"
	5.853392330086011e-15

3	3.000000000000000e+00	"X1.X1.rbx"
	"hic2_full"
	3.586844823058240e-15

4	4.000000000000000e+00	"X1.X1.ibei"
	"hic2_full"
	2.939730864624152e-15

5	5.000000000000000e+00	"X1.X1.ibep"
	"hic2_full"
	2.129540317141800e-15

6	6.000000000000000e+00	"X1.X1.rbi"
	"hic2_full"
	1.955367417496409e-15

7	7.000000000000000e+00	"X1.X1.re"
	"hic2_full"
	1.781470895733457e-15

8	8.000000000000000e+00	"X1.X1.it"
	"hic2_full"
	9.811464175436850e-16

9	9.000000000000000e+00	"X1.X1.rcx"
	"hic2_full"
	5.034032959930993e-16

10	1.000000000000000e+01	"X1.X1.iavl"
	"hic2_full"
	8.138184983967686e-17

11	1.100000000000000e+01	"X1.X1.ijbcx"
	"hic2_full"
	1.176309597568167e-20

12	1.200000000000000e+01	"X1.X1.ibci"
	"hic2_full"
	2.054128624783311e-21

13	1.300000000000000e+01	"X1.X1.ijsc"
	"hic2_full"
	6.307483989289181e-22

14	1.400000000000000e+01	"X1.X1.rsu"
	"hic2_full"
	0.000000000000000e+00

