Warning: vin: no DC value, transient time 0 value used

Circuit: ** One-Shot Trigger (Tran): Benchmarking Implementation of BSIM4.0.0 by Weidong Liu 5/16/2000.

Doing analysis at TEMP = 300.150000 and TNOM = 300.150000
Warning: This model is BSIM4.2.1; you specified a wrong version number.
Warning: This model is BSIM4.2.1; you specified a wrong version number.
Warning: This model is BSIM4.2.1; you specified a wrong version number.
Warning: This model is BSIM4.2.1; you specified a wrong version number.
Warning: This model is BSIM4.2.1; you specified a wrong version number.
Warning: This model is BSIM4.2.1; you specified a wrong version number.
Warning: This model is BSIM4.2.1; you specified a wrong version number.
Warning: This model is BSIM4.2.1; you specified a wrong version number.
Warning: This model is BSIM4.2.1; you specified a wrong version number.
Warning: This model is BSIM4.2.1; you specified a wrong version number.
Warning: This model is BSIM4.2.1; you specified a wrong version number.
Warning: This model is BSIM4.2.1; you specified a wrong version number.
Warning: This model is BSIM4.2.1; you specified a wrong version number.
Warning: This model is BSIM4.2.1; you specified a wrong version number.
Warning: This model is BSIM4.2.1; you specified a wrong version number.
Warning: This model is BSIM4.2.1; you specified a wrong version number.
Warning: This model is BSIM4.2.1; you specified a wrong version number.

Initial Transient Solution
--------------------------

Node                                   Voltage
----                                   -------
4                                          1.8
in                                           0
vdd                                        1.8
a                                  1.67982e-06
anot                                       1.8
bnot                                       1.8
aorbnot                                    1.8
1                                  1.07908e-11
lnot                                       1.8
2                                      1.41228
out                                    1.25451
3                                     0.372541
vin#branch                         2.05443e-15
vcc#branch                        -8.74236e-05

 Reference value :  4.56000e-10 Reference value :  5.84544e-09
No. of Data Rows : 108
** One-Shot Trigger (Tran): Benchmarking Implementation of BSIM4.0.0 by Weidong Liu 5/16/2000.
--------------------------------------------------------------------------------
Index   time            in              out             
--------------------------------------------------------------------------------
0	0.000000e+00	0.000000e+00	1.254513e+00	
1	5.000000e-13	0.000000e+00	1.254513e+00	
2	1.000000e-12	0.000000e+00	1.254513e+00	
3	2.000000e-12	0.000000e+00	1.254513e+00	
4	4.000000e-12	0.000000e+00	1.254513e+00	
5	8.000000e-12	0.000000e+00	1.254513e+00	
6	1.600000e-11	0.000000e+00	1.254513e+00	
7	3.200000e-11	0.000000e+00	1.254513e+00	
8	6.400000e-11	0.000000e+00	1.254513e+00	
9	1.280000e-10	0.000000e+00	1.254513e+00	
10	2.560000e-10	0.000000e+00	1.254513e+00	
11	4.560000e-10	0.000000e+00	1.254513e+00	
12	6.560000e-10	0.000000e+00	1.254513e+00	
13	8.560000e-10	0.000000e+00	1.254513e+00	
14	1.000000e-09	0.000000e+00	1.254513e+00	
15	1.010000e-09	1.800000e-01	1.254829e+00	
16	1.030000e-09	5.400000e-01	1.255383e+00	
17	1.055806e-09	1.004512e+00	1.257084e+00	
18	1.079503e-09	1.431059e+00	1.256617e+00	
19	1.100000e-09	1.800000e+00	1.254692e+00	
20	1.102152e-09	1.800000e+00	1.254125e+00	
21	1.106457e-09	1.800000e+00	1.253036e+00	
22	1.115067e-09	1.800000e+00	1.251065e+00	
23	1.132287e-09	1.800000e+00	1.247941e+00	
24	1.165462e-09	1.800000e+00	1.244997e+00	
25	1.221146e-09	1.800000e+00	1.246579e+00	
26	1.290365e-09	1.800000e+00	1.257326e+00	
27	1.365650e-09	1.800000e+00	1.276733e+00	
28	1.516219e-09	1.800000e+00	1.328434e+00	
29	1.716219e-09	1.800000e+00	1.408256e+00	
30	1.900000e-09	1.800000e+00	1.482869e+00	
31	1.910000e-09	1.620000e+00	1.485543e+00	
32	1.930000e-09	1.260000e+00	1.491956e+00	
33	1.956704e-09	7.793359e-01	1.503197e+00	
34	1.981501e-09	3.329775e-01	1.516605e+00	
35	2.000000e-09	0.000000e+00	1.526449e+00	
36	2.003074e-09	0.000000e+00	1.528152e+00	
37	2.009223e-09	0.000000e+00	1.531472e+00	
38	2.021521e-09	0.000000e+00	1.537730e+00	
39	2.046117e-09	0.000000e+00	1.548829e+00	
40	2.075434e-09	0.000000e+00	1.559815e+00	
41	2.129419e-09	0.000000e+00	1.574663e+00	
42	2.197215e-09	0.000000e+00	1.585278e+00	
43	2.269349e-09	0.000000e+00	1.588917e+00	
44	2.381420e-09	0.000000e+00	1.583582e+00	
45	2.493296e-09	0.000000e+00	1.569198e+00	
46	2.645445e-09	0.000000e+00	1.541841e+00	
47	2.845445e-09	0.000000e+00	1.500376e+00	
48	3.045445e-09	0.000000e+00	1.458739e+00	
49	3.245445e-09	0.000000e+00	1.420516e+00	
50	3.445445e-09	0.000000e+00	1.387555e+00	
51	3.645445e-09	0.000000e+00	1.359951e+00	
52	3.845445e-09	0.000000e+00	1.336965e+00	
53	4.045445e-09	0.000000e+00	1.318289e+00	
54	4.245445e-09	0.000000e+00	1.303384e+00	

Index   time            in              out             
--------------------------------------------------------------------------------
55	4.445445e-09	0.000000e+00	1.291662e+00	
56	4.645445e-09	0.000000e+00	1.282557e+00	
57	4.845445e-09	0.000000e+00	1.275558e+00	
58	5.045445e-09	0.000000e+00	1.270226e+00	
59	5.245445e-09	0.000000e+00	1.266194e+00	
60	5.445445e-09	0.000000e+00	1.263165e+00	
61	5.645445e-09	0.000000e+00	1.260900e+00	
62	5.845445e-09	0.000000e+00	1.259215e+00	
63	6.000000e-09	0.000000e+00	1.258220e+00	
64	6.010000e-09	1.800000e-01	1.258472e+00	
65	6.030000e-09	5.400000e-01	1.258917e+00	
66	6.055806e-09	1.004512e+00	1.260480e+00	
67	6.079504e-09	1.431068e+00	1.259880e+00	
68	6.100000e-09	1.800000e+00	1.257851e+00	
69	6.102151e-09	1.800000e+00	1.257274e+00	
70	6.106454e-09	1.800000e+00	1.256168e+00	
71	6.115060e-09	1.800000e+00	1.254162e+00	
72	6.132272e-09	1.800000e+00	1.250968e+00	
73	6.164959e-09	1.800000e+00	1.247918e+00	
74	6.219998e-09	1.800000e+00	1.249157e+00	
75	6.289111e-09	1.800000e+00	1.259477e+00	
76	6.363799e-09	1.800000e+00	1.278317e+00	
77	6.513176e-09	1.800000e+00	1.328908e+00	
78	6.713176e-09	1.800000e+00	1.408134e+00	
79	6.900000e-09	1.800000e+00	1.483666e+00	
80	6.910000e-09	1.620000e+00	1.486327e+00	
81	6.930000e-09	1.260000e+00	1.492713e+00	
82	6.956704e-09	7.793200e-01	1.503921e+00	
83	6.981503e-09	3.329384e-01	1.517301e+00	
84	7.000000e-09	6.979335e-15	1.527124e+00	
85	7.003074e-09	0.000000e+00	1.528823e+00	
86	7.009223e-09	0.000000e+00	1.532137e+00	
87	7.021521e-09	0.000000e+00	1.538383e+00	
88	7.046117e-09	0.000000e+00	1.549458e+00	
89	7.075505e-09	0.000000e+00	1.560441e+00	
90	7.129284e-09	0.000000e+00	1.575188e+00	
91	7.197041e-09	0.000000e+00	1.585759e+00	
92	7.269193e-09	0.000000e+00	1.589364e+00	
93	7.381199e-09	0.000000e+00	1.583980e+00	
94	7.492987e-09	0.000000e+00	1.569565e+00	
95	7.644826e-09	0.000000e+00	1.542217e+00	
96	7.844826e-09	0.000000e+00	1.500697e+00	
97	8.044826e-09	0.000000e+00	1.459006e+00	
98	8.244826e-09	0.000000e+00	1.420734e+00	
99	8.444826e-09	0.000000e+00	1.387731e+00	
100	8.644826e-09	0.000000e+00	1.360092e+00	
101	8.844826e-09	0.000000e+00	1.337075e+00	
102	9.044826e-09	0.000000e+00	1.318375e+00	
103	9.244826e-09	0.000000e+00	1.303450e+00	
104	9.444826e-09	0.000000e+00	1.291712e+00	
105	9.644826e-09	0.000000e+00	1.282595e+00	
106	9.844826e-09	0.000000e+00	1.275587e+00	
107	1.000000e-08	0.000000e+00	1.271324e+00	




