
Circuit: ** One-Shot Trigger (Tran): Benchmarking Implementation of BSIM4.6.0 by Mohan V. Dunga 12/13/2006.

Circuit: ** One-Shot Trigger (Tran): Benchmarking Implementation of BSIM4.6.0 by Mohan V. Dunga 12/13/2006.
Date: Fri Apr  8 01:35:54  2011


** One-Shot Trigger (Tran): Benchmarking Implementation of BSIM4.6.0 by Mohan V. Dunga 12/13/2006.
Transient Analysis  Fri Apr  8 01:35:54  2011
--------------------------------------------------------------------------------
Index   time            in              out             
--------------------------------------------------------------------------------
0	0.000000e+00	0.000000e+00	4.571573e-02	
1	2.000000e-12	0.000000e+00	4.825721e-02	
2	4.000000e-12	0.000000e+00	4.958945e-02	
3	8.000000e-12	0.000000e+00	5.149127e-02	
4	1.600000e-11	0.000000e+00	5.152604e-02	
5	3.200000e-11	0.000000e+00	4.986773e-02	
6	6.400000e-11	0.000000e+00	4.826033e-02	
7	1.280000e-10	0.000000e+00	4.699164e-02	
8	2.560000e-10	0.000000e+00	4.646452e-02	
9	4.560000e-10	0.000000e+00	4.617986e-02	
10	6.560000e-10	0.000000e+00	4.605823e-02	
11	8.560000e-10	0.000000e+00	4.627515e-02	
12	1.000000e-09	0.000000e+00	4.616084e-02	
13	1.010000e-09	1.800000e-01	4.830282e-02	
14	1.030000e-09	5.400000e-01	4.858747e-02	
15	1.070000e-09	1.260000e+00	3.111605e-02	
16	1.100000e-09	1.800000e+00	6.546856e-03	
17	1.105497e-09	1.800000e+00	2.970160e-03	
18	1.116492e-09	1.800000e+00	-6.896471e-03	
19	1.138482e-09	1.800000e+00	-6.332921e-02	
20	1.182461e-09	1.800000e+00	-8.977765e-02	
21	1.259994e-09	1.800000e+00	3.398341e-01	
22	1.359953e-09	1.800000e+00	7.610970e-01	
23	1.513555e-09	1.800000e+00	9.691302e-01	
24	1.681039e-09	1.800000e+00	1.069909e+00	
25	1.860465e-09	1.800000e+00	1.118764e+00	
26	1.900000e-09	1.800000e+00	1.121570e+00	
27	1.910000e-09	1.620000e+00	1.122321e+00	
28	1.930000e-09	1.260000e+00	1.125047e+00	
29	1.970000e-09	5.400000e-01	1.129611e+00	
30	2.000000e-09	0.000000e+00	1.137466e+00	
31	2.008000e-09	0.000000e+00	1.140122e+00	
32	2.024000e-09	0.000000e+00	1.144281e+00	
33	2.056000e-09	0.000000e+00	1.153089e+00	
34	2.116688e-09	0.000000e+00	1.168367e+00	
35	2.224722e-09	0.000000e+00	1.198120e+00	
36	2.358171e-09	0.000000e+00	1.233219e+00	
37	2.383171e-09	0.000000e+00	1.239364e+00	
38	2.433171e-09	0.000000e+00	1.251906e+00	
39	2.533171e-09	0.000000e+00	1.275944e+00	
40	2.676298e-09	0.000000e+00	1.301233e+00	
41	2.876298e-09	0.000000e+00	1.322709e+00	
42	3.076298e-09	0.000000e+00	1.285953e+00	
43	3.276298e-09	0.000000e+00	1.112700e+00	
44	3.476298e-09	0.000000e+00	2.073807e-01	
45	3.676298e-09	0.000000e+00	-1.004695e-02	
46	3.876298e-09	0.000000e+00	9.542383e-02	
47	4.076298e-09	0.000000e+00	2.383379e-02	
48	4.276298e-09	0.000000e+00	6.695233e-02	
49	4.476298e-09	0.000000e+00	3.644381e-02	
50	4.676298e-09	0.000000e+00	5.569172e-02	
51	4.876298e-09	0.000000e+00	4.177245e-02	
52	5.076298e-09	0.000000e+00	5.047732e-02	
53	5.276298e-09	0.000000e+00	4.338165e-02	
54	5.476298e-09	0.000000e+00	4.851322e-02	

Index   time            in              out             
--------------------------------------------------------------------------------
55	5.676298e-09	0.000000e+00	4.438925e-02	
56	5.876298e-09	0.000000e+00	4.824589e-02	
57	6.000000e-09	0.000000e+00	4.463992e-02	
58	6.010000e-09	1.800000e-01	4.640584e-02	
59	6.030000e-09	5.400000e-01	4.547872e-02	
60	6.070000e-09	1.260000e+00	2.746766e-02	
61	6.100000e-09	1.800000e+00	3.321789e-03	
62	6.105533e-09	1.800000e+00	-2.510392e-03	
63	6.116599e-09	1.800000e+00	-1.890935e-02	
64	6.138731e-09	1.800000e+00	-8.841902e-02	
65	6.182996e-09	1.800000e+00	-2.737714e-02	
66	6.252300e-09	1.800000e+00	3.614874e-01	
67	6.390908e-09	1.800000e+00	8.424615e-01	
68	6.538766e-09	1.800000e+00	9.926034e-01	
69	6.708268e-09	1.800000e+00	1.085679e+00	
70	6.888213e-09	1.800000e+00	1.136213e+00	
71	6.900000e-09	1.800000e+00	1.138019e+00	
72	6.910000e-09	1.620000e+00	1.141044e+00	
73	6.930000e-09	1.260000e+00	1.147305e+00	
74	6.970000e-09	5.400000e-01	1.157903e+00	
75	7.000000e-09	2.442491e-15	1.166740e+00	
76	7.008000e-09	0.000000e+00	1.169963e+00	
77	7.024000e-09	0.000000e+00	1.174429e+00	
78	7.056000e-09	0.000000e+00	1.183364e+00	
79	7.116851e-09	0.000000e+00	1.199673e+00	
80	7.225885e-09	0.000000e+00	1.229761e+00	
81	7.356604e-09	0.000000e+00	1.259512e+00	
82	7.381604e-09	0.000000e+00	1.265365e+00	
83	7.431604e-09	0.000000e+00	1.276628e+00	
84	7.531604e-09	0.000000e+00	1.297921e+00	
85	7.675063e-09	0.000000e+00	1.320484e+00	
86	7.875063e-09	0.000000e+00	1.339414e+00	
87	8.075063e-09	0.000000e+00	1.301975e+00	
88	8.275063e-09	0.000000e+00	1.135129e+00	
89	8.475063e-09	0.000000e+00	2.398419e-01	
90	8.675063e-09	0.000000e+00	-2.035040e-02	
91	8.875063e-09	0.000000e+00	1.035976e-01	
92	9.075063e-09	0.000000e+00	1.921024e-02	
93	9.275063e-09	0.000000e+00	7.042180e-02	
94	9.475063e-09	0.000000e+00	3.420442e-02	
95	9.675063e-09	0.000000e+00	5.725494e-02	
96	9.875063e-09	0.000000e+00	4.067358e-02	
97	1.000000e-08	0.000000e+00	5.064162e-02	

CPU time since last call: 0.220 seconds.

Total CPU time: 0.220 seconds.

Current dynamic memory usage = 397312,
Dynamic memory limit = -15204353.

