Warning: vin: no DC value, transient time 0 value used

Circuit: ** One-Shot Trigger (Tran): Benchmarking Implementation of BSIM4.0.0 by Weidong Liu 5/16/2000.


Initial Transient Solution
--------------------------

Node                                   Voltage
----                                   -------
4                                          1.8
in                                           0
vdd                                        1.8
a                                  1.67982e-06
anot                                       1.8
bnot                                       1.8
aorbnot                                    1.8
1                                  1.07908e-11
lnot                                       1.8
2                                      1.41228
out                                    1.25451
3                                     0.372541
vin#branch                         2.05443e-15
vcc#branch                        -8.74236e-05

** One-Shot Trigger (Tran): Benchmarking Implementation of BSIM4.0.0 by Weidong Liu 5/16/2000.
--------------------------------------------------------------------------------
Index   time            in              out             
--------------------------------------------------------------------------------
0	0.000000e+00	0.000000e+00	1.254513e+00	
1	1.000000e-12	0.000000e+00	1.254588e+00	
2	2.000000e-12	0.000000e+00	1.254650e+00	
3	4.000000e-12	0.000000e+00	1.254758e+00	
4	8.000000e-12	0.000000e+00	1.254918e+00	
5	1.600000e-11	0.000000e+00	1.254972e+00	
6	3.200000e-11	0.000000e+00	1.254995e+00	
7	6.400000e-11	0.000000e+00	1.254984e+00	
8	1.280000e-10	0.000000e+00	1.254931e+00	
9	2.280000e-10	0.000000e+00	1.254850e+00	
10	3.280000e-10	0.000000e+00	1.254793e+00	
11	4.280000e-10	0.000000e+00	1.254721e+00	
12	5.280000e-10	0.000000e+00	1.254664e+00	
13	6.280000e-10	0.000000e+00	1.254683e+00	
14	7.280000e-10	0.000000e+00	1.254694e+00	
15	8.280000e-10	0.000000e+00	1.254713e+00	
16	9.280000e-10	0.000000e+00	1.254724e+00	
17	1.000000e-09	0.000000e+00	1.254731e+00	
18	1.008547e-09	1.538491e-01	1.255050e+00	
19	1.025642e-09	4.615474e-01	1.255484e+00	
20	1.046520e-09	8.373524e-01	1.256719e+00	
21	1.066848e-09	1.203260e+00	1.257171e+00	
22	1.100000e-09	1.800000e+00	1.254737e+00	
23	1.102874e-09	1.800000e+00	1.253973e+00	
24	1.108621e-09	1.800000e+00	1.252531e+00	
25	1.120117e-09	1.800000e+00	1.249993e+00	
26	1.143107e-09	1.800000e+00	1.246464e+00	
27	1.183457e-09	1.800000e+00	1.244533e+00	
28	1.253459e-09	1.800000e+00	1.250261e+00	
29	1.321495e-09	1.800000e+00	1.264403e+00	
30	1.421495e-09	1.800000e+00	1.294332e+00	
31	1.521495e-09	1.800000e+00	1.330685e+00	
32	1.621495e-09	1.800000e+00	1.370184e+00	
33	1.721495e-09	1.800000e+00	1.410879e+00	
34	1.821495e-09	1.800000e+00	1.451602e+00	
35	1.900000e-09	1.800000e+00	1.483128e+00	
36	1.905236e-09	1.705753e+00	1.484372e+00	
37	1.915708e-09	1.517258e+00	1.487193e+00	
38	1.936652e-09	1.140269e+00	1.494576e+00	
39	1.955733e-09	7.967973e-01	1.502891e+00	
40	1.983412e-09	2.985834e-01	1.517727e+00	
41	2.000000e-09	0.000000e+00	1.526578e+00	
42	2.003013e-09	0.000000e+00	1.528245e+00	
43	2.009038e-09	0.000000e+00	1.531491e+00	
44	2.021088e-09	0.000000e+00	1.537610e+00	
45	2.045189e-09	0.000000e+00	1.548489e+00	
46	2.074882e-09	0.000000e+00	1.559629e+00	
47	2.126765e-09	0.000000e+00	1.574013e+00	
48	2.194575e-09	0.000000e+00	1.584881e+00	
49	2.267288e-09	0.000000e+00	1.588761e+00	
50	2.367288e-09	0.000000e+00	1.584598e+00	
51	2.467288e-09	0.000000e+00	1.572824e+00	
52	2.567288e-09	0.000000e+00	1.556268e+00	
53	2.667288e-09	0.000000e+00	1.536922e+00	
54	2.767288e-09	0.000000e+00	1.516177e+00	

Index   time            in              out             
--------------------------------------------------------------------------------
55	2.867288e-09	0.000000e+00	1.494989e+00	
56	2.967288e-09	0.000000e+00	1.474018e+00	
57	3.067288e-09	0.000000e+00	1.453358e+00	
58	3.167288e-09	0.000000e+00	1.434083e+00	
59	3.267288e-09	0.000000e+00	1.415945e+00	
60	3.367288e-09	0.000000e+00	1.399051e+00	
61	3.467288e-09	0.000000e+00	1.383454e+00	
62	3.567288e-09	0.000000e+00	1.369157e+00	
63	3.667288e-09	0.000000e+00	1.356135e+00	
64	3.767288e-09	0.000000e+00	1.344339e+00	
65	3.867288e-09	0.000000e+00	1.333707e+00	
66	3.967288e-09	0.000000e+00	1.324165e+00	
67	4.067288e-09	0.000000e+00	1.315637e+00	
68	4.167288e-09	0.000000e+00	1.308043e+00	
69	4.267288e-09	0.000000e+00	1.301315e+00	
70	4.367288e-09	0.000000e+00	1.295082e+00	
71	4.467288e-09	0.000000e+00	1.289817e+00	
72	4.567288e-09	0.000000e+00	1.285124e+00	
73	4.667288e-09	0.000000e+00	1.281054e+00	
74	4.767288e-09	0.000000e+00	1.277350e+00	
75	4.867288e-09	0.000000e+00	1.274283e+00	
76	4.967288e-09	0.000000e+00	1.271579e+00	
77	5.067288e-09	0.000000e+00	1.269252e+00	
78	5.167288e-09	0.000000e+00	1.267142e+00	
79	5.267288e-09	0.000000e+00	1.265165e+00	
80	5.367288e-09	0.000000e+00	1.263674e+00	
81	5.467288e-09	0.000000e+00	1.262468e+00	
82	5.567288e-09	0.000000e+00	1.261424e+00	
83	5.667288e-09	0.000000e+00	1.260479e+00	
84	5.767288e-09	0.000000e+00	1.259657e+00	
85	5.867288e-09	0.000000e+00	1.258910e+00	
86	5.967288e-09	0.000000e+00	1.258204e+00	
87	6.000000e-09	0.000000e+00	1.258008e+00	
88	6.004449e-09	8.007894e-02	1.258137e+00	
89	6.013346e-09	2.402368e-01	1.258371e+00	
90	6.031142e-09	5.605526e-01	1.258828e+00	
91	6.056104e-09	1.009867e+00	1.260429e+00	
92	6.079484e-09	1.430715e+00	1.259837e+00	
93	6.100000e-09	1.800000e+00	1.257825e+00	
94	6.102248e-09	1.800000e+00	1.257221e+00	
95	6.106743e-09	1.800000e+00	1.256072e+00	
96	6.115735e-09	1.800000e+00	1.253994e+00	
97	6.133717e-09	1.800000e+00	1.250715e+00	
98	6.166603e-09	1.800000e+00	1.247834e+00	
99	6.223717e-09	1.800000e+00	1.249486e+00	
100	6.295318e-09	1.800000e+00	1.260815e+00	
101	6.371906e-09	1.800000e+00	1.280813e+00	
102	6.471906e-09	1.800000e+00	1.314146e+00	
103	6.571906e-09	1.800000e+00	1.352078e+00	
104	6.671906e-09	1.800000e+00	1.392097e+00	
105	6.771906e-09	1.800000e+00	1.432699e+00	
106	6.871906e-09	1.800000e+00	1.472963e+00	
107	6.900000e-09	1.800000e+00	1.484141e+00	
108	6.902254e-09	1.759432e+00	1.484627e+00	
109	6.906761e-09	1.678295e+00	1.485679e+00	
110	6.915777e-09	1.516022e+00	1.488152e+00	
111	6.933807e-09	1.191477e+00	1.494383e+00	
112	6.952916e-09	8.475164e-01	1.502520e+00	

Index   time            in              out             
--------------------------------------------------------------------------------
113	6.979125e-09	3.757495e-01	1.516212e+00	
114	7.000000e-09	6.979335e-15	1.527422e+00	
115	7.002729e-09	0.000000e+00	1.528940e+00	
116	7.008188e-09	0.000000e+00	1.531888e+00	
117	7.019105e-09	0.000000e+00	1.537482e+00	
118	7.040939e-09	0.000000e+00	1.547538e+00	
119	7.075215e-09	0.000000e+00	1.560581e+00	
120	7.115903e-09	0.000000e+00	1.572282e+00	
121	7.187051e-09	0.000000e+00	1.584838e+00	
122	7.261798e-09	0.000000e+00	1.589448e+00	
123	7.361798e-09	0.000000e+00	1.585746e+00	
124	7.461798e-09	0.000000e+00	1.574241e+00	
125	7.561798e-09	0.000000e+00	1.557827e+00	
126	7.661798e-09	0.000000e+00	1.538537e+00	
127	7.761798e-09	0.000000e+00	1.517788e+00	
128	7.861798e-09	0.000000e+00	1.496558e+00	
129	7.961798e-09	0.000000e+00	1.475519e+00	
130	8.061798e-09	0.000000e+00	1.454817e+00	
131	8.161798e-09	0.000000e+00	1.435441e+00	
132	8.261798e-09	0.000000e+00	1.417198e+00	
133	8.361798e-09	0.000000e+00	1.400201e+00	
134	8.461798e-09	0.000000e+00	1.384501e+00	
135	8.561798e-09	0.000000e+00	1.370107e+00	
136	8.661798e-09	0.000000e+00	1.356992e+00	
137	8.761798e-09	0.000000e+00	1.345109e+00	
138	8.861798e-09	0.000000e+00	1.334396e+00	
139	8.961798e-09	0.000000e+00	1.324779e+00	
140	9.061798e-09	0.000000e+00	1.316183e+00	
141	9.161798e-09	0.000000e+00	1.308527e+00	
142	9.261798e-09	0.000000e+00	1.301734e+00	
143	9.361798e-09	0.000000e+00	1.295724e+00	
144	9.461798e-09	0.000000e+00	1.290422e+00	
145	9.561798e-09	0.000000e+00	1.285754e+00	
146	9.661798e-09	0.000000e+00	1.281458e+00	
147	9.761798e-09	0.000000e+00	1.277285e+00	
148	9.861798e-09	0.000000e+00	1.274366e+00	
149	9.961798e-09	0.000000e+00	1.271598e+00	
150	1.000000e-08	0.000000e+00	1.270675e+00	




