
Circuit: ** One-Shot Trigger (Tran): Benchmarking Implementation of BSIM4.0.0 by Weidong Liu 5/16/2000.

Circuit: ** One-Shot Trigger (Tran): Benchmarking Implementation of BSIM4.0.0 by Weidong Liu 5/16/2000.
Date: Wed Oct 11 05:41:09  2000


** One-Shot Trigger (Tran): Benchmarking Implementation of BSIM4.0.0 by Weidong Liu 5/16/2000.
Transient Analysis  Wed Oct 11 05:41:08  2000
--------------------------------------------------------------------------------
Index   time            in              out             
--------------------------------------------------------------------------------
0	0.000000e+00	0.000000e+00	1.254513e+00	
1	2.000000e-12	0.000000e+00	1.254514e+00	
2	4.000000e-12	0.000000e+00	1.254514e+00	
3	8.000000e-12	0.000000e+00	1.254514e+00	
4	1.600000e-11	0.000000e+00	1.254514e+00	
5	3.200000e-11	0.000000e+00	1.254514e+00	
6	6.400000e-11	0.000000e+00	1.254514e+00	
7	1.280000e-10	0.000000e+00	1.254514e+00	
8	2.560000e-10	0.000000e+00	1.254514e+00	
9	4.560000e-10	0.000000e+00	1.254514e+00	
10	6.560000e-10	0.000000e+00	1.254514e+00	
11	8.560000e-10	0.000000e+00	1.254514e+00	
12	1.000000e-09	0.000000e+00	1.254514e+00	
13	1.010000e-09	1.800000e-01	1.254830e+00	
14	1.030000e-09	5.400000e-01	1.255384e+00	
15	1.055805e-09	1.004486e+00	1.257087e+00	
16	1.079500e-09	1.431005e+00	1.256619e+00	
17	1.100000e-09	1.800000e+00	1.254703e+00	
18	1.102153e-09	1.800000e+00	1.254131e+00	
19	1.106458e-09	1.800000e+00	1.253044e+00	
20	1.115070e-09	1.800000e+00	1.251073e+00	
21	1.132292e-09	1.800000e+00	1.247934e+00	
22	1.165470e-09	1.800000e+00	1.244998e+00	
23	1.220837e-09	1.800000e+00	1.246570e+00	
24	1.289875e-09	1.800000e+00	1.257279e+00	
25	1.365000e-09	1.800000e+00	1.276659e+00	
26	1.515250e-09	1.800000e+00	1.328207e+00	
27	1.715250e-09	1.800000e+00	1.408018e+00	
28	1.900000e-09	1.800000e+00	1.482887e+00	
29	1.910000e-09	1.620000e+00	1.485549e+00	
30	1.930000e-09	1.260000e+00	1.491835e+00	
31	1.956695e-09	7.794935e-01	1.503058e+00	
32	1.981488e-09	3.332087e-01	1.516498e+00	
33	2.000000e-09	0.000000e+00	1.526425e+00	
34	2.003075e-09	0.000000e+00	1.528127e+00	
35	2.009225e-09	0.000000e+00	1.531441e+00	
36	2.021526e-09	0.000000e+00	1.537686e+00	
37	2.046127e-09	0.000000e+00	1.548759e+00	
38	2.075493e-09	0.000000e+00	1.559734e+00	
39	2.129341e-09	0.000000e+00	1.574513e+00	
40	2.197141e-09	0.000000e+00	1.585105e+00	
41	2.269349e-09	0.000000e+00	1.588757e+00	
42	2.381298e-09	0.000000e+00	1.583410e+00	
43	2.493252e-09	0.000000e+00	1.569030e+00	
44	2.645443e-09	0.000000e+00	1.541653e+00	
45	2.845443e-09	0.000000e+00	1.500160e+00	
46	3.045443e-09	0.000000e+00	1.458473e+00	
47	3.245443e-09	0.000000e+00	1.420193e+00	
48	3.445443e-09	0.000000e+00	1.386832e+00	
49	3.645443e-09	0.000000e+00	1.358749e+00	
50	3.845443e-09	0.000000e+00	1.335677e+00	
51	4.045443e-09	0.000000e+00	1.317092e+00	
52	4.245443e-09	0.000000e+00	1.302356e+00	
53	4.445443e-09	0.000000e+00	1.290828e+00	
54	4.645443e-09	0.000000e+00	1.281913e+00	

Index   time            in              out             
--------------------------------------------------------------------------------
55	4.845443e-09	0.000000e+00	1.275074e+00	
56	5.045443e-09	0.000000e+00	1.269873e+00	
57	5.245443e-09	0.000000e+00	1.265943e+00	
58	5.445443e-09	0.000000e+00	1.262988e+00	
59	5.645443e-09	0.000000e+00	1.260777e+00	
60	5.845443e-09	0.000000e+00	1.258927e+00	
61	6.000000e-09	0.000000e+00	1.257990e+00	
62	6.010000e-09	1.800000e-01	1.258256e+00	
63	6.030000e-09	5.400000e-01	1.258707e+00	
64	6.055805e-09	1.004498e+00	1.260283e+00	
65	6.079502e-09	1.431037e+00	1.259692e+00	
66	6.100000e-09	1.800000e+00	1.257680e+00	
67	6.102152e-09	1.800000e+00	1.257100e+00	
68	6.106456e-09	1.800000e+00	1.255997e+00	
69	6.115063e-09	1.800000e+00	1.253993e+00	
70	6.132278e-09	1.800000e+00	1.250789e+00	
71	6.165057e-09	1.800000e+00	1.247755e+00	
72	6.219926e-09	1.800000e+00	1.249014e+00	
73	6.288954e-09	1.800000e+00	1.259356e+00	
74	6.363608e-09	1.800000e+00	1.278248e+00	
75	6.512915e-09	1.800000e+00	1.328848e+00	
76	6.712915e-09	1.800000e+00	1.408116e+00	
77	6.900000e-09	1.800000e+00	1.483638e+00	
78	6.910000e-09	1.620000e+00	1.486286e+00	
79	6.930000e-09	1.260000e+00	1.492546e+00	
80	6.956694e-09	7.795026e-01	1.503737e+00	
81	6.981488e-09	3.332102e-01	1.517150e+00	
82	7.000000e-09	2.442491e-15	1.527059e+00	
83	7.003075e-09	0.000000e+00	1.528757e+00	
84	7.009225e-09	0.000000e+00	1.532065e+00	
85	7.021526e-09	0.000000e+00	1.538298e+00	
86	7.046127e-09	0.000000e+00	1.549349e+00	
87	7.075548e-09	0.000000e+00	1.560317e+00	
88	7.129235e-09	0.000000e+00	1.575008e+00	
89	7.197003e-09	0.000000e+00	1.585557e+00	
90	7.269226e-09	0.000000e+00	1.589173e+00	
91	7.381126e-09	0.000000e+00	1.583778e+00	
92	7.493010e-09	0.000000e+00	1.569364e+00	
93	7.644956e-09	0.000000e+00	1.541984e+00	
94	7.844956e-09	0.000000e+00	1.500439e+00	
95	8.044956e-09	0.000000e+00	1.458703e+00	
96	8.244956e-09	0.000000e+00	1.420379e+00	
97	8.444956e-09	0.000000e+00	1.386980e+00	
98	8.644956e-09	0.000000e+00	1.358866e+00	
99	8.844956e-09	0.000000e+00	1.335768e+00	
100	9.044956e-09	0.000000e+00	1.317163e+00	
101	9.244956e-09	0.000000e+00	1.302409e+00	
102	9.444956e-09	0.000000e+00	1.290869e+00	
103	9.644956e-09	0.000000e+00	1.281944e+00	
104	9.844956e-09	0.000000e+00	1.275097e+00	
105	1.000000e-08	0.000000e+00	1.270947e+00	

CPU time since last call: 3.560 seconds.

Total CPU time: 3.560 seconds.

Current dynamic memory usage = 286720,
Dynamic memory limit = -18074808.

