         *****************==== 17-Stage CMOS RO ====*******************
         Transient Analysis  Thu Mar  4 13:44:03  2004
--------------------------------------------------------------------------------
Index   time            v(3)            v(4)            
--------------------------------------------------------------------------------
0	0.000000e+00	0.000000e+00	2.000000e+00	
1	1.000000e-12	-2.743106e-02	1.993458e+00	
2	2.000000e-12	-4.750786e-02	1.988035e+00	
3	4.000000e-12	-7.903707e-02	1.979892e+00	
4	8.000000e-12	-9.750645e-02	1.977908e+00	
5	1.440215e-11	-3.085360e-02	1.998434e+00	
6	2.085642e-11	1.299802e-01	2.038298e+00	
7	3.062413e-11	5.287530e-01	2.078746e+00	
8	4.044391e-11	9.478050e-01	1.994095e+00	
9	5.085036e-11	1.331379e+00	1.709784e+00	
10	6.215859e-11	1.605020e+00	1.184395e+00	
11	7.362002e-11	1.768780e+00	6.113051e-01	
12	8.546371e-11	1.863171e+00	2.326162e-01	
13	9.625250e-11	1.924435e+00	1.115952e-01	
14	1.089274e-10	1.964634e+00	6.278868e-02	
15	1.229229e-10	1.982710e+00	4.350422e-02	
16	1.368190e-10	1.988378e+00	2.724448e-02	
17	1.492363e-10	1.990654e+00	1.953146e-02	
18	1.615814e-10	1.991891e+00	1.341818e-02	
19	1.754847e-10	1.992399e+00	9.242790e-03	
20	1.895482e-10	1.992897e+00	5.644972e-03	
21	2.003742e-10	1.993185e+00	5.875149e-03	
22	2.116036e-10	1.993378e+00	4.673438e-03	
23	2.263415e-10	1.993442e+00	5.301771e-03	
24	2.410230e-10	1.993525e+00	4.384971e-03	
25	2.532994e-10	1.993500e+00	5.204899e-03	
26	2.647369e-10	1.993554e+00	4.388953e-03	
27	2.791525e-10	1.993495e+00	5.113855e-03	
28	2.941067e-10	1.993568e+00	4.382922e-03	
29	3.069623e-10	1.993491e+00	5.069635e-03	
30	3.196981e-10	1.993575e+00	4.407649e-03	
31	3.335417e-10	1.993485e+00	5.035745e-03	
32	3.480886e-10	1.993593e+00	4.435964e-03	
33	3.614481e-10	1.993490e+00	5.009497e-03	
34	3.748532e-10	1.993532e+00	4.451551e-03	
35	3.884413e-10	1.993391e+00	4.978841e-03	
36	4.028712e-10	1.993844e+00	4.523934e-03	
37	4.176824e-10	1.994226e+00	5.033959e-03	
38	4.313437e-10	1.992185e+00	4.261440e-03	
39	4.453257e-10	1.988340e+00	4.425775e-03	
40	4.603732e-10	1.992265e+00	4.831514e-03	
41	4.740399e-10	2.009403e+00	7.129735e-03	
42	4.887027e-10	2.049742e+00	1.026258e-02	
43	5.047432e-10	1.983865e+00	-1.436109e-03	
44	5.244097e-10	1.408988e+00	-3.461410e-02	
45	5.433561e-10	5.553392e-01	1.736636e-01	
46	5.580929e-10	1.576620e-01	7.006541e-01	
47	5.725516e-10	7.005843e-02	1.258122e+00	
48	5.867807e-10	4.857002e-02	1.615047e+00	
49	6.014093e-10	3.008975e-02	1.804985e+00	
50	6.122363e-10	2.242352e-02	1.878033e+00	
51	6.233949e-10	1.541498e-02	1.934831e+00	
52	6.400040e-10	1.101392e-02	1.975673e+00	
53	6.551668e-10	5.245833e-03	1.986935e+00	
54	6.669789e-10	6.471801e-03	1.989519e+00	

Index   time            v(3)            v(4)            
--------------------------------------------------------------------------------
55	6.780934e-10	4.093938e-03	1.991293e+00	
56	6.941421e-10	5.873225e-03	1.992271e+00	
57	7.089964e-10	3.810323e-03	1.992676e+00	
58	7.211671e-10	5.755395e-03	1.993174e+00	
59	7.328104e-10	3.849438e-03	1.993270e+00	
60	7.480659e-10	5.635999e-03	1.993519e+00	
61	7.623709e-10	3.865305e-03	1.993433e+00	
62	7.753892e-10	5.569450e-03	1.993594e+00	
63	7.882968e-10	3.912516e-03	1.993457e+00	
64	8.018992e-10	5.514959e-03	1.993597e+00	
65	8.164972e-10	3.959585e-03	1.993464e+00	
66	8.317497e-10	5.474190e-03	1.993600e+00	
67	8.456178e-10	3.989141e-03	1.993466e+00	
68	8.598348e-10	5.433329e-03	1.993599e+00	
69	8.752307e-10	4.093960e-03	1.993483e+00	
70	8.884400e-10	5.448643e-03	1.993599e+00	
71	9.014105e-10	3.749819e-03	1.993410e+00	
72	9.157216e-10	4.844202e-03	1.993531e+00	
73	9.287912e-10	5.370635e-03	1.993788e+00	
74	9.409607e-10	1.025491e-02	1.994414e+00	
75	9.535790e-10	7.576481e-03	1.993550e+00	
76	9.653406e-10	-5.720933e-04	1.991824e+00	
77	9.792986e-10	-1.628093e-02	1.990202e+00	
78	9.956806e-10	-2.629703e-02	1.990589e+00	
79	1.011146e-09	7.023427e-02	2.010701e+00	
80	1.027744e-09	5.540203e-01	2.050162e+00	
81	1.045341e-09	1.223773e+00	1.819407e+00	
82	1.061377e-09	1.636539e+00	1.118268e+00	
83	1.076771e-09	1.823206e+00	4.275429e-01	
84	1.088083e-09	1.893185e+00	1.657949e-01	
85	1.099506e-09	1.944541e+00	8.620935e-02	
86	1.113120e-09	1.975230e+00	5.142815e-02	
87	1.126538e-09	1.985262e+00	3.658995e-02	
88	1.138744e-09	1.989532e+00	2.327442e-02	
89	1.150275e-09	1.990701e+00	1.835081e-02	
90	1.163668e-09	1.992464e+00	1.163515e-02	
91	1.178039e-09	1.992114e+00	7.822066e-03	
92	1.191964e-09	1.993484e+00	5.428175e-03	
93	1.206027e-09	1.992884e+00	5.388064e-03	
94	1.220730e-09	1.993895e+00	4.699373e-03	
95	1.234896e-09	1.993054e+00	4.993145e-03	
96	1.248047e-09	1.993961e+00	4.633509e-03	
97	1.261233e-09	1.993092e+00	4.931668e-03	
98	1.274754e-09	1.993957e+00	4.610406e-03	
99	1.289080e-09	1.993107e+00	4.862227e-03	
100	1.303387e-09	1.993953e+00	4.621663e-03	
101	1.317197e-09	1.993116e+00	4.828052e-03	
102	1.332475e-09	1.993946e+00	4.640059e-03	
103	1.346586e-09	1.993137e+00	4.808565e-03	
104	1.359287e-09	1.993946e+00	4.661858e-03	
105	1.371987e-09	1.993085e+00	4.777187e-03	
106	1.386838e-09	1.993854e+00	4.675453e-03	
107	1.400485e-09	1.993395e+00	4.809831e-03	
108	1.414490e-09	1.994719e+00	4.773740e-03	
109	1.427856e-09	1.991945e+00	4.529621e-03	
110	1.441456e-09	1.989095e+00	4.203694e-03	
111	1.456065e-09	1.990551e+00	4.865331e-03	
112	1.470079e-09	2.007021e+00	6.656473e-03	

Index   time            v(3)            v(4)            
--------------------------------------------------------------------------------
113	1.485904e-09	2.048374e+00	1.039251e-02	
114	1.500507e-09	2.000921e+00	5.030974e-04	
115	1.517181e-09	1.608292e+00	-3.635960e-02	
116	1.533283e-09	8.811511e-01	1.504749e-02	
117	1.548702e-09	2.881691e-01	4.500458e-01	
118	1.561891e-09	1.012970e-01	9.831088e-01	
119	1.575506e-09	6.111591e-02	1.434197e+00	
120	1.590362e-09	3.846385e-02	1.716182e+00	
121	1.603785e-09	2.725767e-02	1.845156e+00	
122	1.617950e-09	1.589357e-02	1.925102e+00	
123	1.632584e-09	1.285731e-02	1.970184e+00	
124	1.646656e-09	5.931182e-03	1.984069e+00	
125	1.660408e-09	6.712743e-03	1.989166e+00	
126	1.674185e-09	4.091988e-03	1.990994e+00	
127	1.687794e-09	5.851597e-03	1.992279e+00	
128	1.702542e-09	3.928534e-03	1.992459e+00	
129	1.717346e-09	5.603722e-03	1.993205e+00	
130	1.731248e-09	4.044841e-03	1.993283e+00	
131	1.745421e-09	5.403252e-03	1.993501e+00	
132	1.760712e-09	4.128957e-03	1.993485e+00	
133	1.773810e-09	5.273966e-03	1.993520e+00	
134	1.786743e-09	4.240587e-03	1.993559e+00	
135	1.800832e-09	5.166128e-03	1.993476e+00	
136	1.815874e-09	4.332781e-03	1.993603e+00	
137	1.828964e-09	5.080440e-03	1.993443e+00	
138	1.841973e-09	4.406728e-03	1.993638e+00	
139	1.855918e-09	5.002087e-03	1.993414e+00	
140	1.870676e-09	4.530701e-03	1.993678e+00	
141	1.883831e-09	5.026358e-03	1.993401e+00	
142	1.896953e-09	4.254343e-03	1.993627e+00	
143	1.910693e-09	4.275921e-03	1.993286e+00	
144	1.921691e-09	5.171245e-03	1.993902e+00	
145	1.934369e-09	8.795995e-03	1.994071e+00	
146	1.945750e-09	9.734370e-03	1.994268e+00	
147	1.957484e-09	3.232693e-03	1.992307e+00	
148	1.971062e-09	-1.022473e-02	1.990894e+00	
149	1.988830e-09	-2.941393e-02	1.989319e+00	
150	2.009713e-09	9.781717e-02	2.014121e+00	
151	2.028777e-09	6.752739e-01	2.024947e+00	
152	2.047765e-09	1.364381e+00	1.615263e+00	
153	2.062583e-09	1.687590e+00	9.219642e-01	
154	2.077209e-09	1.842287e+00	3.345242e-01	
155	2.089067e-09	1.910002e+00	1.271235e-01	
156	2.101675e-09	1.959155e+00	7.179328e-02	
157	2.115495e-09	1.979553e+00	4.379543e-02	
158	2.129488e-09	1.988315e+00	3.234492e-02	
159	2.141137e-09	1.989427e+00	1.876056e-02	
160	2.152109e-09	1.992082e+00	1.752596e-02	
161	2.166817e-09	1.991771e+00	8.520028e-03	
162	2.182224e-09	1.993246e+00	7.752301e-03	
163	2.194247e-09	1.992751e+00	4.223655e-03	
164	2.205212e-09	1.993714e+00	6.243325e-03	
165	2.220080e-09	1.993114e+00	3.867385e-03	
166	2.235499e-09	1.993818e+00	5.739236e-03	
167	2.247828e-09	1.993238e+00	3.942807e-03	
168	2.259748e-09	1.993786e+00	5.555641e-03	
169	2.273857e-09	1.993287e+00	4.014948e-03	
170	2.288567e-09	1.993755e+00	5.414065e-03	

Index   time            v(3)            v(4)            
--------------------------------------------------------------------------------
171	2.303004e-09	1.993324e+00	4.096973e-03	
172	2.316125e-09	1.993723e+00	5.313878e-03	
173	2.330268e-09	1.993356e+00	4.180711e-03	
174	2.345324e-09	1.993709e+00	5.241093e-03	
175	2.358006e-09	1.993389e+00	4.253454e-03	
176	2.370601e-09	1.993618e+00	5.158393e-03	
177	2.385451e-09	1.993337e+00	4.313657e-03	
178	2.399432e-09	1.993941e+00	5.153298e-03	
179	2.412209e-09	1.994259e+00	4.455248e-03	
180	2.425457e-09	1.992506e+00	4.840706e-03	
181	2.438661e-09	1.988804e+00	3.921027e-03	
182	2.452975e-09	1.990327e+00	5.040268e-03	
183	2.467463e-09	2.005269e+00	6.263615e-03	
184	2.481420e-09	2.041136e+00	1.007588e-02	
185	2.496216e-09	2.020700e+00	3.528710e-03	
186	2.513864e-09	1.682420e+00	-3.088430e-02	
187	2.531105e-09	9.217856e-01	9.500150e-03	
188	2.547975e-09	2.760861e-01	4.732462e-01	
189	2.561235e-09	9.757680e-02	1.008583e+00	
190	2.575152e-09	5.929947e-02	1.459081e+00	
191	2.588410e-09	3.888701e-02	1.705608e+00	
192	2.601747e-09	2.826662e-02	1.840182e+00	
193	2.615755e-09	1.618124e-02	1.921034e+00	
194	2.629928e-09	1.348952e-02	1.967877e+00	
195	2.643938e-09	6.099649e-03	1.983043e+00	
196	2.657864e-09	6.920327e-03	1.989058e+00	
197	2.671787e-09	3.971933e-03	1.990678e+00	
198	2.686706e-09	6.006926e-03	1.992471e+00	
199	2.700794e-09	3.774825e-03	1.992304e+00	
200	2.713637e-09	5.753420e-03	1.993277e+00	
201	2.726889e-09	3.894539e-03	1.993114e+00	
202	2.740128e-09	5.561956e-03	1.993609e+00	
203	2.754415e-09	3.973403e-03	1.993348e+00	
204	2.769645e-09	5.445118e-03	1.993644e+00	
205	2.783711e-09	4.060367e-03	1.993431e+00	
206	2.799118e-09	5.352968e-03	1.993603e+00	
207	2.813627e-09	4.143205e-03	1.993478e+00	
208	2.826665e-09	5.271804e-03	1.993567e+00	
209	2.839494e-09	4.212082e-03	1.993516e+00	
210	2.853428e-09	5.197536e-03	1.993533e+00	
211	2.868160e-09	4.332335e-03	1.993558e+00	
212	2.881509e-09	5.226423e-03	1.993517e+00	
213	2.894854e-09	4.048353e-03	1.993512e+00	
214	2.908440e-09	4.475933e-03	1.993400e+00	
215	2.920121e-09	5.084358e-03	1.993810e+00	
216	2.932252e-09	9.078155e-03	1.994194e+00	
217	2.943773e-09	9.488243e-03	1.994137e+00	
218	2.955582e-09	3.076122e-03	1.992342e+00	
219	2.968757e-09	-1.045035e-02	1.990789e+00	
220	2.986296e-09	-2.943519e-02	1.989355e+00	
221	3.006269e-09	7.943983e-02	2.011187e+00	
222	3.024575e-09	6.177530e-01	2.037048e+00	
223	3.043419e-09	1.315045e+00	1.697636e+00	
224	3.058636e-09	1.669572e+00	1.001617e+00	
225	3.073749e-09	1.836993e+00	3.662228e-01	
226	3.085726e-09	1.906057e+00	1.355219e-01	
227	3.097550e-09	1.954471e+00	7.663055e-02	
228	3.110392e-09	1.977027e+00	4.764627e-02	

Index   time            v(3)            v(4)            
--------------------------------------------------------------------------------
229	3.123044e-09	1.986450e+00	3.583444e-02	
230	3.133354e-09	1.988704e+00	2.291378e-02	
231	3.144054e-09	1.991142e+00	1.963431e-02	
232	3.156924e-09	1.991765e+00	1.179888e-02	
233	3.170695e-09	1.992605e+00	8.983318e-03	
234	3.186722e-09	1.992904e+00	4.892872e-03	
235	3.201533e-09	1.993436e+00	5.875760e-03	
236	3.215111e-09	1.993365e+00	4.226199e-03	
237	3.230816e-09	1.993568e+00	5.453077e-03	
238	3.243689e-09	1.993466e+00	4.197524e-03	
239	3.256615e-09	1.993569e+00	5.332479e-03	
240	3.269922e-09	1.993497e+00	4.233792e-03	
241	3.284471e-09	1.993551e+00	5.211951e-03	
242	3.297775e-09	1.993522e+00	4.295313e-03	
243	3.312010e-09	1.993531e+00	5.132579e-03	
244	3.326321e-09	1.993541e+00	4.354246e-03	
245	3.340422e-09	1.993528e+00	5.075173e-03	
246	3.353609e-09	1.993568e+00	4.412066e-03	
247	3.367146e-09	1.993448e+00	5.010770e-03	
248	3.380732e-09	1.993483e+00	4.454783e-03	
249	3.394949e-09	1.993724e+00	5.013588e-03	
250	3.408792e-09	1.994406e+00	4.585970e-03	
251	3.423019e-09	1.992263e+00	4.710247e-03	
252	3.437484e-09	1.988594e+00	4.025620e-03	
253	3.451768e-09	1.991262e+00	5.091344e-03	
254	3.465877e-09	2.008115e+00	6.639163e-03	
255	3.481120e-09	2.049190e+00	1.057526e-02	
256	3.496368e-09	1.993269e+00	-6.029260e-04	
257	3.513929e-09	1.536899e+00	-3.819426e-02	
258	3.531044e-09	7.510359e-01	4.982254e-02	
259	3.547233e-09	2.093909e-01	5.615587e-01	
260	3.562335e-09	7.524603e-02	1.163816e+00	
261	3.576811e-09	5.181897e-02	1.567604e+00	
262	3.592675e-09	3.123171e-02	1.794085e+00	
263	3.605105e-09	2.228982e-02	1.880256e+00	
264	3.616478e-09	1.495369e-02	1.937170e+00	
265	3.631240e-09	1.159600e-02	1.973771e+00	
266	3.646552e-09	5.236544e-03	1.986135e+00	
267	3.659728e-09	6.622853e-03	1.989676e+00	
268	3.672277e-09	3.950863e-03	1.991300e+00	
269	3.686960e-09	5.954969e-03	1.992379e+00	
270	3.702510e-09	3.753724e-03	1.992587e+00	
271	3.715827e-09	5.785402e-03	1.993320e+00	
272	3.728658e-09	3.834556e-03	1.993227e+00	
273	3.743403e-09	5.617471e-03	1.993601e+00	
274	3.759146e-09	3.898410e-03	1.993381e+00	
275	3.772279e-09	5.514195e-03	1.993646e+00	
276	3.784756e-09	3.989168e-03	1.993418e+00	
277	3.799331e-09	5.424578e-03	1.993628e+00	
278	3.815110e-09	4.063357e-03	1.993441e+00	
279	3.828181e-09	5.350783e-03	1.993614e+00	
280	3.840534e-09	4.128776e-03	1.993459e+00	
281	3.855106e-09	5.290016e-03	1.993600e+00	
282	3.870780e-09	4.262301e-03	1.993488e+00	
283	3.883852e-09	5.233441e-03	1.993579e+00	
284	3.896199e-09	3.897435e-03	1.993423e+00	
285	3.911094e-09	4.783337e-03	1.993541e+00	
286	3.924112e-09	5.892513e-03	1.993860e+00	

Index   time            v(3)            v(4)            
--------------------------------------------------------------------------------
287	3.935875e-09	1.029257e-02	1.994400e+00	
288	3.947647e-09	7.618289e-03	1.993529e+00	
289	3.959245e-09	-1.006372e-03	1.991747e+00	
290	3.973303e-09	-1.633310e-02	1.990229e+00	
291	3.989623e-09	-2.628396e-02	1.990623e+00	
292	4.005123e-09	7.344844e-02	2.011305e+00	
293	4.022062e-09	5.707917e-01	2.047332e+00	
294	4.039109e-09	1.223018e+00	1.820674e+00	
295	4.055867e-09	1.648355e+00	1.086881e+00	
296	4.071100e-09	1.827204e+00	4.115431e-01	
297	4.083294e-09	1.900229e+00	1.482247e-01	
298	4.094548e-09	1.948858e+00	8.199632e-02	
299	4.108952e-09	1.977503e+00	4.837426e-02	
300	4.123193e-09	1.986810e+00	3.380254e-02	
301	4.134642e-09	1.989652e+00	2.151241e-02	
302	4.145891e-09	1.991186e+00	1.758798e-02	
303	4.162042e-09	1.992405e+00	9.919881e-03	
304	4.176631e-09	1.992546e+00	7.051046e-03	
305	4.189398e-09	1.993320e+00	5.131060e-03	
306	4.201568e-09	1.993154e+00	5.421625e-03	
307	4.215719e-09	1.993652e+00	4.629656e-03	
308	4.230909e-09	1.993298e+00	5.028689e-03	
309	4.243816e-09	1.993731e+00	4.608545e-03	
310	4.256606e-09	1.993317e+00	4.942955e-03	
311	4.270231e-09	1.993736e+00	4.596934e-03	
312	4.285037e-09	1.993323e+00	4.870148e-03	
313	4.298851e-09	1.993740e+00	4.615852e-03	
314	4.312466e-09	1.993324e+00	4.830970e-03	
315	4.326113e-09	1.993739e+00	4.640501e-03	
316	4.340987e-09	1.993338e+00	4.807236e-03	
317	4.355413e-09	1.993743e+00	4.662541e-03	
318	4.368764e-09	1.993273e+00	4.775301e-03	
319	4.382972e-09	1.993673e+00	4.680232e-03	
320	4.398024e-09	1.993684e+00	4.813099e-03	
321	4.411019e-09	1.994464e+00	4.763762e-03	
322	4.423912e-09	1.991901e+00	4.487317e-03	
323	4.437632e-09	1.988650e+00	4.199506e-03	
324	4.452498e-09	1.991636e+00	4.995798e-03	
325	4.466294e-09	2.008942e+00	6.861421e-03	
326	4.481025e-09	2.048777e+00	1.041201e-02	
327	4.496803e-09	1.989764e+00	-8.595594e-04	
328	4.514964e-09	1.497494e+00	-3.812581e-02	
329	4.532767e-09	6.802743e-01	7.914650e-02	
330	4.547388e-09	2.069039e-01	5.624334e-01	
331	4.561945e-09	7.817128e-02	1.146296e+00	
332	4.576480e-09	5.218593e-02	1.558403e+00	
333	4.592230e-09	3.202392e-02	1.788371e+00	
334	4.604279e-09	2.277921e-02	1.874745e+00	
335	4.615465e-09	1.562298e-02	1.932796e+00	
336	4.631778e-09	1.131799e-02	1.974854e+00	
337	4.646481e-09	5.400729e-03	1.986181e+00	
338	4.658693e-09	6.514138e-03	1.989548e+00	
339	4.670322e-09	4.131544e-03	1.991064e+00	
340	4.684158e-09	5.838392e-03	1.992285e+00	
341	4.699078e-09	3.900764e-03	1.992447e+00	
342	4.712080e-09	5.652930e-03	1.993231e+00	
343	4.725011e-09	3.973901e-03	1.993170e+00	
344	4.738227e-09	5.494902e-03	1.993579e+00	

Index   time            v(3)            v(4)            
--------------------------------------------------------------------------------
345	4.752692e-09	4.026210e-03	1.993364e+00	
346	4.766654e-09	5.398636e-03	1.993638e+00	
347	4.780870e-09	4.096021e-03	1.993421e+00	
348	4.795302e-09	5.323410e-03	1.993622e+00	
349	4.809587e-09	4.163765e-03	1.993448e+00	
350	4.823086e-09	5.260762e-03	1.993605e+00	
351	4.836610e-09	4.213370e-03	1.993467e+00	
352	4.850338e-09	5.199277e-03	1.993588e+00	
353	4.864856e-09	4.320280e-03	1.993496e+00	
354	4.878311e-09	5.249778e-03	1.993586e+00	
355	4.891831e-09	4.058404e-03	1.993437e+00	
356	4.905411e-09	4.489181e-03	1.993468e+00	
357	4.917561e-09	5.031201e-03	1.993714e+00	
358	4.929734e-09	9.079943e-03	1.994271e+00	
359	4.941161e-09	9.467622e-03	1.994060e+00	
360	4.952878e-09	3.357223e-03	1.992479e+00	
361	4.966181e-09	-1.036556e-02	1.990706e+00	
362	4.983914e-09	-2.921188e-02	1.989486e+00	
363	5.004441e-09	8.863199e-02	2.012488e+00	
364	5.023674e-09	6.648750e-01	2.027097e+00	
365	5.042906e-09	1.361663e+00	1.617686e+00	
366	5.058134e-09	1.693359e+00	9.073018e-01	
367	5.073049e-09	1.846587e+00	3.186755e-01	
368	5.085494e-09	1.916183e+00	1.170226e-01	
369	5.098521e-09	1.962908e+00	6.743839e-02	
370	5.112356e-09	1.981243e+00	4.211779e-02	
371	5.125223e-09	1.988158e+00	3.167696e-02	
372	5.136129e-09	1.989641e+00	1.929855e-02	
373	5.147364e-09	1.991840e+00	1.751129e-02	
374	5.162120e-09	1.991976e+00	8.591511e-03	
375	5.176591e-09	1.992999e+00	7.811532e-03	
376	5.188483e-09	1.992938e+00	4.368393e-03	
377	5.199339e-09	1.993488e+00	6.197076e-03	
378	5.213411e-09	1.993312e+00	3.968754e-03	
379	5.228365e-09	1.993604e+00	5.666230e-03	
380	5.240924e-09	1.993439e+00	4.022176e-03	
381	5.253756e-09	1.993586e+00	5.489489e-03	
382	5.266826e-09	1.993484e+00	4.090988e-03	
383	5.281243e-09	1.993559e+00	5.343405e-03	
384	5.294796e-09	1.993518e+00	4.171929e-03	
385	5.309634e-09	1.993533e+00	5.247659e-03	
386	5.323099e-09	1.993543e+00	4.248519e-03	
387	5.337718e-09	1.993523e+00	5.173748e-03	
388	5.350751e-09	1.993576e+00	4.319956e-03	
389	5.364763e-09	1.993439e+00	5.097128e-03	
390	5.379361e-09	1.993503e+00	4.372921e-03	
391	5.393200e-09	1.993743e+00	5.091906e-03	
392	5.405926e-09	1.994448e+00	4.519169e-03	
393	5.419918e-09	1.992355e+00	4.785782e-03	
394	5.434643e-09	1.988683e+00	3.965018e-03	
395	5.448357e-09	1.990660e+00	5.067982e-03	
396	5.462377e-09	2.006535e+00	6.437149e-03	
397	5.478399e-09	2.048655e+00	1.057780e-02	
398	5.492869e-09	2.001742e+00	4.476210e-04	
399	5.509637e-09	1.608922e+00	-3.609233e-02	
400	5.525761e-09	8.803780e-01	1.496596e-02	
401	5.541893e-09	2.726450e-01	4.743327e-01	
402	5.555792e-09	9.224872e-02	1.034197e+00	

Index   time            v(3)            v(4)            
--------------------------------------------------------------------------------
403	5.569985e-09	5.777295e-02	1.482283e+00	
404	5.585240e-09	3.567241e-02	1.745114e+00	
405	5.597651e-09	2.621176e-02	1.853054e+00	
406	5.610316e-09	1.601449e-02	1.924430e+00	
407	5.623849e-09	1.350993e-02	1.967273e+00	
408	5.638123e-09	5.935309e-03	1.983114e+00	
409	5.652388e-09	7.037460e-03	1.989102e+00	
410	5.666282e-09	3.826319e-03	1.990755e+00	
411	5.681359e-09	6.129684e-03	1.992463e+00	
412	5.695534e-09	3.654675e-03	1.992350e+00	
413	5.709794e-09	5.867128e-03	1.993312e+00	
414	5.723015e-09	3.785375e-03	1.993156e+00	
415	5.736875e-09	5.657262e-03	1.993614e+00	
416	5.751923e-09	3.878937e-03	1.993362e+00	
417	5.766261e-09	5.526107e-03	1.993643e+00	
418	5.779755e-09	3.987088e-03	1.993433e+00	
419	5.793970e-09	5.414281e-03	1.993603e+00	
420	5.809248e-09	4.084386e-03	1.993476e+00	
421	5.822429e-09	5.322742e-03	1.993572e+00	
422	5.835420e-09	4.165198e-03	1.993509e+00	
423	5.849611e-09	5.241301e-03	1.993543e+00	
424	5.864737e-09	4.300948e-03	1.993548e+00	
425	5.877919e-09	5.234291e-03	1.993524e+00	
