
No. of Data Rows : 222

Circuit: ** PMOSFET: Benchmarking Implementation of BSIM4.1.0 by Weidong Liu 10/11/2000.

Doing analysis at TEMP = 373.150000 and TNOM = 300.150000
Warning: This model is BSIM4.2.1; you specified a wrong version number.
** PMOSFET: Benchmarking Implementation of BSIM4.1.0 by Weidong Liu 10/11/2000.
--------------------------------------------------------------------------------
Index   v-sweep         v(1)            vds#branch      
--------------------------------------------------------------------------------
0	0.000000e+00	-3.000000e-01	-1.311634e-18	
1	-5.000000e-02	-3.000000e-01	6.295608e-09	
2	-1.000000e-01	-3.000000e-01	8.312678e-09	
3	-1.500000e-01	-3.000000e-01	9.616409e-09	
4	-2.000000e-01	-3.000000e-01	1.086998e-08	
5	-2.500000e-01	-3.000000e-01	1.216043e-08	
6	-3.000000e-01	-3.000000e-01	1.350623e-08	
7	-3.500000e-01	-3.000000e-01	1.491400e-08	
8	-4.000000e-01	-3.000000e-01	1.638754e-08	
9	-4.500000e-01	-3.000000e-01	1.792978e-08	
10	-5.000000e-01	-3.000000e-01	1.954340e-08	
11	-5.500000e-01	-3.000000e-01	2.123101e-08	
12	-6.000000e-01	-3.000000e-01	2.299523e-08	
13	-6.500000e-01	-3.000000e-01	2.483872e-08	
14	-7.000000e-01	-3.000000e-01	2.676419e-08	
15	-7.500000e-01	-3.000000e-01	2.877444e-08	
16	-8.000000e-01	-3.000000e-01	3.087232e-08	
17	-8.500000e-01	-3.000000e-01	3.306078e-08	
18	-9.000000e-01	-3.000000e-01	3.534283e-08	
19	-9.500000e-01	-3.000000e-01	3.772158e-08	
20	-1.000000e+00	-3.000000e-01	4.020022e-08	
21	-1.050000e+00	-3.000000e-01	4.278201e-08	
22	-1.100000e+00	-3.000000e-01	4.547034e-08	
23	-1.150000e+00	-3.000000e-01	4.826868e-08	
24	-1.200000e+00	-3.000000e-01	5.118064e-08	
25	-1.250000e+00	-3.000000e-01	5.421003e-08	
26	-1.300000e+00	-3.000000e-01	5.736100e-08	
27	-1.350000e+00	-3.000000e-01	6.063841e-08	
28	-1.400000e+00	-3.000000e-01	6.404849e-08	
29	-1.450000e+00	-3.000000e-01	6.760014e-08	
30	-1.500000e+00	-3.000000e-01	7.130723e-08	
31	-1.550000e+00	-3.000000e-01	7.519258e-08	
32	-1.600000e+00	-3.000000e-01	7.929438e-08	
33	-1.650000e+00	-3.000000e-01	8.367632e-08	
34	-1.700000e+00	-3.000000e-01	8.844284e-08	
35	-1.750000e+00	-3.000000e-01	9.376153e-08	
36	-1.800000e+00	-3.000000e-01	9.989507e-08	
37	0.000000e+00	-6.000000e-01	-9.410506e-18	
38	-5.000000e-02	-6.000000e-01	9.446743e-06	
39	-1.000000e-01	-6.000000e-01	1.310337e-05	
40	-1.500000e-01	-6.000000e-01	1.496078e-05	
41	-2.000000e-01	-6.000000e-01	1.653526e-05	
42	-2.500000e-01	-6.000000e-01	1.809006e-05	
43	-3.000000e-01	-6.000000e-01	1.967501e-05	
44	-3.500000e-01	-6.000000e-01	2.130351e-05	
45	-4.000000e-01	-6.000000e-01	2.298053e-05	
46	-4.500000e-01	-6.000000e-01	2.470850e-05	
47	-5.000000e-01	-6.000000e-01	2.648897e-05	
48	-5.500000e-01	-6.000000e-01	2.832311e-05	
49	-6.000000e-01	-6.000000e-01	3.021193e-05	
50	-6.500000e-01	-6.000000e-01	3.215634e-05	
51	-7.000000e-01	-6.000000e-01	3.415724e-05	
52	-7.500000e-01	-6.000000e-01	3.621549e-05	
53	-8.000000e-01	-6.000000e-01	3.833192e-05	
54	-8.500000e-01	-6.000000e-01	4.050737e-05	

Index   v-sweep         v(1)            vds#branch      
--------------------------------------------------------------------------------
55	-9.000000e-01	-6.000000e-01	4.274268e-05	
56	-9.500000e-01	-6.000000e-01	4.503865e-05	
57	-1.000000e+00	-6.000000e-01	4.739610e-05	
58	-1.050000e+00	-6.000000e-01	4.981586e-05	
59	-1.100000e+00	-6.000000e-01	5.229871e-05	
60	-1.150000e+00	-6.000000e-01	5.484548e-05	
61	-1.200000e+00	-6.000000e-01	5.745700e-05	
62	-1.250000e+00	-6.000000e-01	6.013413e-05	
63	-1.300000e+00	-6.000000e-01	6.287793e-05	
64	-1.350000e+00	-6.000000e-01	6.568978e-05	
65	-1.400000e+00	-6.000000e-01	6.857193e-05	
66	-1.450000e+00	-6.000000e-01	7.152827e-05	
67	-1.500000e+00	-6.000000e-01	7.456598e-05	
68	-1.550000e+00	-6.000000e-01	7.769818e-05	
69	-1.600000e+00	-6.000000e-01	8.094837e-05	
70	-1.650000e+00	-6.000000e-01	8.435740e-05	
71	-1.700000e+00	-6.000000e-01	8.799395e-05	
72	-1.750000e+00	-6.000000e-01	9.196988e-05	
73	-1.800000e+00	-6.000000e-01	9.646187e-05	
74	0.000000e+00	-9.000000e-01	-2.853929e-17	
75	-5.000000e-02	-9.000000e-01	1.445355e-04	
76	-1.000000e-01	-9.000000e-01	2.660719e-04	
77	-1.500000e-01	-9.000000e-01	3.657323e-04	
78	-2.000000e-01	-9.000000e-01	4.447311e-04	
79	-2.500000e-01	-9.000000e-01	5.046019e-04	
80	-3.000000e-01	-9.000000e-01	5.477507e-04	
81	-3.500000e-01	-9.000000e-01	5.781317e-04	
82	-4.000000e-01	-9.000000e-01	6.006846e-04	
83	-4.500000e-01	-9.000000e-01	6.193534e-04	
84	-5.000000e-01	-9.000000e-01	6.362830e-04	
85	-5.500000e-01	-9.000000e-01	6.524392e-04	
86	-6.000000e-01	-9.000000e-01	6.682478e-04	
87	-6.500000e-01	-9.000000e-01	6.839071e-04	
88	-7.000000e-01	-9.000000e-01	6.995164e-04	
89	-7.500000e-01	-9.000000e-01	7.151292e-04	
90	-8.000000e-01	-9.000000e-01	7.307756e-04	
91	-8.500000e-01	-9.000000e-01	7.464736e-04	
92	-9.000000e-01	-9.000000e-01	7.622340e-04	
93	-9.500000e-01	-9.000000e-01	7.780638e-04	
94	-1.000000e+00	-9.000000e-01	7.939671e-04	
95	-1.050000e+00	-9.000000e-01	8.099464e-04	
96	-1.100000e+00	-9.000000e-01	8.260033e-04	
97	-1.150000e+00	-9.000000e-01	8.421384e-04	
98	-1.200000e+00	-9.000000e-01	8.583518e-04	
99	-1.250000e+00	-9.000000e-01	8.746434e-04	
100	-1.300000e+00	-9.000000e-01	8.910127e-04	
101	-1.350000e+00	-9.000000e-01	9.074590e-04	
102	-1.400000e+00	-9.000000e-01	9.239816e-04	
103	-1.450000e+00	-9.000000e-01	9.405798e-04	
104	-1.500000e+00	-9.000000e-01	9.572538e-04	
105	-1.550000e+00	-9.000000e-01	9.740051e-04	
106	-1.600000e+00	-9.000000e-01	9.908398e-04	
107	-1.650000e+00	-9.000000e-01	1.007773e-03	
108	-1.700000e+00	-9.000000e-01	1.024837e-03	
109	-1.750000e+00	-9.000000e-01	1.042099e-03	
110	-1.800000e+00	-9.000000e-01	1.059687e-03	
111	0.000000e+00	-1.200000e+00	-5.728902e-17	
112	-5.000000e-02	-1.200000e+00	2.140754e-04	

Index   v-sweep         v(1)            vds#branch      
--------------------------------------------------------------------------------
113	-1.000000e-01	-1.200000e+00	4.081394e-04	
114	-1.500000e-01	-1.200000e+00	5.827827e-04	
115	-2.000000e-01	-1.200000e+00	7.385906e-04	
116	-2.500000e-01	-1.200000e+00	8.761372e-04	
117	-3.000000e-01	-1.200000e+00	9.959931e-04	
118	-3.500000e-01	-1.200000e+00	1.098747e-03	
119	-4.000000e-01	-1.200000e+00	1.185063e-03	
120	-4.500000e-01	-1.200000e+00	1.255820e-03	
121	-5.000000e-01	-1.200000e+00	1.312391e-03	
122	-5.500000e-01	-1.200000e+00	1.357009e-03	
123	-6.000000e-01	-1.200000e+00	1.392751e-03	
124	-6.500000e-01	-1.200000e+00	1.422780e-03	
125	-7.000000e-01	-1.200000e+00	1.449493e-03	
126	-7.500000e-01	-1.200000e+00	1.474359e-03	
127	-8.000000e-01	-1.200000e+00	1.498187e-03	
128	-8.500000e-01	-1.200000e+00	1.521418e-03	
129	-9.000000e-01	-1.200000e+00	1.544295e-03	
130	-9.500000e-01	-1.200000e+00	1.566960e-03	
131	-1.000000e+00	-1.200000e+00	1.589496e-03	
132	-1.050000e+00	-1.200000e+00	1.611958e-03	
133	-1.100000e+00	-1.200000e+00	1.634379e-03	
134	-1.150000e+00	-1.200000e+00	1.656783e-03	
135	-1.200000e+00	-1.200000e+00	1.679183e-03	
136	-1.250000e+00	-1.200000e+00	1.701592e-03	
137	-1.300000e+00	-1.200000e+00	1.724015e-03	
138	-1.350000e+00	-1.200000e+00	1.746459e-03	
139	-1.400000e+00	-1.200000e+00	1.768926e-03	
140	-1.450000e+00	-1.200000e+00	1.791420e-03	
141	-1.500000e+00	-1.200000e+00	1.813940e-03	
142	-1.550000e+00	-1.200000e+00	1.836488e-03	
143	-1.600000e+00	-1.200000e+00	1.859066e-03	
144	-1.650000e+00	-1.200000e+00	1.881672e-03	
145	-1.700000e+00	-1.200000e+00	1.904308e-03	
146	-1.750000e+00	-1.200000e+00	1.926979e-03	
147	-1.800000e+00	-1.200000e+00	1.949695e-03	
148	0.000000e+00	-1.500000e+00	-9.565718e-17	
149	-5.000000e-02	-1.500000e+00	2.497801e-04	
150	-1.000000e-01	-1.500000e+00	4.827905e-04	
151	-1.500000e-01	-1.500000e+00	6.993912e-04	
152	-2.000000e-01	-1.500000e+00	8.999450e-04	
153	-2.500000e-01	-1.500000e+00	1.084809e-03	
154	-3.000000e-01	-1.500000e+00	1.254330e-03	
155	-3.500000e-01	-1.500000e+00	1.408851e-03	
156	-4.000000e-01	-1.500000e+00	1.548703e-03	
157	-4.500000e-01	-1.500000e+00	1.674216e-03	
158	-5.000000e-01	-1.500000e+00	1.785723e-03	
159	-5.500000e-01	-1.500000e+00	1.883583e-03	
160	-6.000000e-01	-1.500000e+00	1.968229e-03	
161	-6.500000e-01	-1.500000e+00	2.040279e-03	
162	-7.000000e-01	-1.500000e+00	2.100721e-03	
163	-7.500000e-01	-1.500000e+00	2.151123e-03	
164	-8.000000e-01	-1.500000e+00	2.193631e-03	
165	-8.500000e-01	-1.500000e+00	2.230556e-03	
166	-9.000000e-01	-1.500000e+00	2.263852e-03	
167	-9.500000e-01	-1.500000e+00	2.294888e-03	
168	-1.000000e+00	-1.500000e+00	2.324523e-03	
169	-1.050000e+00	-1.500000e+00	2.353273e-03	
170	-1.100000e+00	-1.500000e+00	2.381448e-03	

Index   v-sweep         v(1)            vds#branch      
--------------------------------------------------------------------------------
171	-1.150000e+00	-1.500000e+00	2.409240e-03	
172	-1.200000e+00	-1.500000e+00	2.436768e-03	
173	-1.250000e+00	-1.500000e+00	2.464109e-03	
174	-1.300000e+00	-1.500000e+00	2.491314e-03	
175	-1.350000e+00	-1.500000e+00	2.518420e-03	
176	-1.400000e+00	-1.500000e+00	2.545450e-03	
177	-1.450000e+00	-1.500000e+00	2.572423e-03	
178	-1.500000e+00	-1.500000e+00	2.599349e-03	
179	-1.550000e+00	-1.500000e+00	2.626239e-03	
180	-1.600000e+00	-1.500000e+00	2.653098e-03	
181	-1.650000e+00	-1.500000e+00	2.679932e-03	
182	-1.700000e+00	-1.500000e+00	2.706744e-03	
183	-1.750000e+00	-1.500000e+00	2.733536e-03	
184	-1.800000e+00	-1.500000e+00	2.760309e-03	
185	0.000000e+00	-1.800000e+00	-1.433956e-16	
186	-5.000000e-02	-1.800000e+00	2.692839e-04	
187	-1.000000e-01	-1.800000e+00	5.245069e-04	
188	-1.500000e-01	-1.800000e+00	7.659006e-04	
189	-2.000000e-01	-1.800000e+00	9.937023e-04	
190	-2.500000e-01	-1.800000e+00	1.208147e-03	
191	-3.000000e-01	-1.800000e+00	1.409468e-03	
192	-3.500000e-01	-1.800000e+00	1.597892e-03	
193	-4.000000e-01	-1.800000e+00	1.773642e-03	
194	-4.500000e-01	-1.800000e+00	1.936937e-03	
195	-5.000000e-01	-1.800000e+00	2.087991e-03	
196	-5.500000e-01	-1.800000e+00	2.227012e-03	
197	-6.000000e-01	-1.800000e+00	2.354206e-03	
198	-6.500000e-01	-1.800000e+00	2.469779e-03	
199	-7.000000e-01	-1.800000e+00	2.573945e-03	
200	-7.500000e-01	-1.800000e+00	2.666947e-03	
201	-8.000000e-01	-1.800000e+00	2.749101e-03	
202	-8.500000e-01	-1.800000e+00	2.820876e-03	
203	-9.000000e-01	-1.800000e+00	2.883026e-03	
204	-9.500000e-01	-1.800000e+00	2.936718e-03	
205	-1.000000e+00	-1.800000e+00	2.983521e-03	
206	-1.050000e+00	-1.800000e+00	3.025170e-03	
207	-1.100000e+00	-1.800000e+00	3.063223e-03	
208	-1.150000e+00	-1.800000e+00	3.098871e-03	
209	-1.200000e+00	-1.800000e+00	3.132927e-03	
210	-1.250000e+00	-1.800000e+00	3.165917e-03	
211	-1.300000e+00	-1.800000e+00	3.198178e-03	
212	-1.350000e+00	-1.800000e+00	3.229925e-03	
213	-1.400000e+00	-1.800000e+00	3.261297e-03	
214	-1.450000e+00	-1.800000e+00	3.292389e-03	
215	-1.500000e+00	-1.800000e+00	3.323263e-03	
216	-1.550000e+00	-1.800000e+00	3.353964e-03	
217	-1.600000e+00	-1.800000e+00	3.384524e-03	
218	-1.650000e+00	-1.800000e+00	3.414964e-03	
219	-1.700000e+00	-1.800000e+00	3.445301e-03	
220	-1.750000e+00	-1.800000e+00	3.475548e-03	
221	-1.800000e+00	-1.800000e+00	3.505714e-03	




