
No. of Data Rows : 343

Circuit: ** PMOSFET: Benchmarking Implementation of BSIM4.1.0 by Weidong Liu 10/11/2000.

Doing analysis at TEMP = 300.150000 and TNOM = 300.150000
Warning: This model is BSIM4.2.1; you specified a wrong version number.
** PMOSFET: Benchmarking Implementation of BSIM4.1.0 by Weidong Liu 10/11/2000.
--------------------------------------------------------------------------------
Index   v-sweep         v(2)            vds#branch      
--------------------------------------------------------------------------------
0	6.000000e-01	-1.000000e-01	1.053433e-13	
1	5.500000e-01	-1.000000e-01	1.053433e-13	
2	5.000000e-01	-1.000000e-01	1.053381e-13	
3	4.500000e-01	-1.000000e-01	1.053381e-13	
4	4.000000e-01	-1.000000e-01	1.053381e-13	
5	3.500000e-01	-1.000000e-01	1.053381e-13	
6	3.000000e-01	-1.000000e-01	1.053381e-13	
7	2.500000e-01	-1.000000e-01	1.053433e-13	
8	2.000000e-01	-1.000000e-01	1.053746e-13	
9	1.500000e-01	-1.000000e-01	1.055621e-13	
10	1.000000e-01	-1.000000e-01	1.066196e-13	
11	5.000000e-02	-1.000000e-01	1.125219e-13	
12	6.938894e-17	-1.000000e-01	1.452423e-13	
13	-5.000000e-02	-1.000000e-01	3.269107e-13	
14	-1.000000e-01	-1.000000e-01	2.620955e-12	
15	-1.500000e-01	-1.000000e-01	1.406335e-11	
16	-2.000000e-01	-1.000000e-01	7.748692e-11	
17	-2.500000e-01	-1.000000e-01	4.282413e-10	
18	-3.000000e-01	-1.000000e-01	2.357714e-09	
19	-3.500000e-01	-1.000000e-01	1.284094e-08	
20	-4.000000e-01	-1.000000e-01	6.824786e-08	
21	-4.500000e-01	-1.000000e-01	3.450883e-07	
22	-5.000000e-01	-1.000000e-01	1.602571e-06	
23	-5.500000e-01	-1.000000e-01	6.667155e-06	
24	-6.000000e-01	-1.000000e-01	2.454873e-05	
25	-6.500000e-01	-1.000000e-01	7.402310e-05	
26	-7.000000e-01	-1.000000e-01	1.616656e-04	
27	-7.500000e-01	-1.000000e-01	2.605501e-04	
28	-8.000000e-01	-1.000000e-01	3.473995e-04	
29	-8.500000e-01	-1.000000e-01	4.187323e-04	
30	-9.000000e-01	-1.000000e-01	4.779357e-04	
31	-9.500000e-01	-1.000000e-01	5.285765e-04	
32	-1.000000e+00	-1.000000e-01	5.729916e-04	
33	-1.050000e+00	-1.000000e-01	6.125777e-04	
34	-1.100000e+00	-1.000000e-01	6.481917e-04	
35	-1.150000e+00	-1.000000e-01	6.804027e-04	
36	-1.200000e+00	-1.000000e-01	7.096260e-04	
37	-1.250000e+00	-1.000000e-01	7.361889e-04	
38	-1.300000e+00	-1.000000e-01	7.603635e-04	
39	-1.350000e+00	-1.000000e-01	7.823838e-04	
40	-1.400000e+00	-1.000000e-01	8.024538e-04	
41	-1.450000e+00	-1.000000e-01	8.207542e-04	
42	-1.500000e+00	-1.000000e-01	8.382248e-04	
43	-1.550000e+00	-1.000000e-01	8.533799e-04	
44	-1.600000e+00	-1.000000e-01	8.672045e-04	
45	-1.650000e+00	-1.000000e-01	8.797900e-04	
46	-1.700000e+00	-1.000000e-01	8.911945e-04	
47	-1.750000e+00	-1.000000e-01	9.015505e-04	
48	-1.800000e+00	-1.000000e-01	9.109508e-04	
49	6.000000e-01	-4.000000e-01	4.054948e-13	
50	5.500000e-01	-4.000000e-01	4.054948e-13	
51	5.000000e-01	-4.000000e-01	4.054532e-13	
52	4.500000e-01	-4.000000e-01	4.054532e-13	
53	4.000000e-01	-4.000000e-01	4.054532e-13	
54	3.500000e-01	-4.000000e-01	4.054532e-13	

Index   v-sweep         v(2)            vds#branch      
--------------------------------------------------------------------------------
55	3.000000e-01	-4.000000e-01	4.054948e-13	
56	2.500000e-01	-4.000000e-01	4.054532e-13	
57	2.000000e-01	-4.000000e-01	4.055782e-13	
58	1.500000e-01	-4.000000e-01	4.059741e-13	
59	1.000000e-01	-4.000000e-01	4.082246e-13	
60	5.000000e-02	-4.000000e-01	4.210189e-13	
61	6.938894e-17	-4.000000e-01	4.919505e-13	
62	-5.000000e-02	-4.000000e-01	8.856582e-13	
63	-1.000000e-01	-4.000000e-01	5.856723e-12	
64	-1.500000e-01	-4.000000e-01	3.065043e-11	
65	-2.000000e-01	-4.000000e-01	1.680583e-10	
66	-2.500000e-01	-4.000000e-01	9.277083e-10	
67	-3.000000e-01	-4.000000e-01	5.103023e-09	
68	-3.500000e-01	-4.000000e-01	2.774359e-08	
69	-4.000000e-01	-4.000000e-01	1.468447e-07	
70	-4.500000e-01	-4.000000e-01	7.353415e-07	
71	-5.000000e-01	-4.000000e-01	3.338377e-06	
72	-5.500000e-01	-4.000000e-01	1.319997e-05	
73	-6.000000e-01	-4.000000e-01	4.441826e-05	
74	-6.500000e-01	-4.000000e-01	1.226379e-04	
75	-7.000000e-01	-4.000000e-01	2.643684e-04	
76	-7.500000e-01	-4.000000e-01	4.498766e-04	
77	-8.000000e-01	-4.000000e-01	6.463003e-04	
78	-8.500000e-01	-4.000000e-01	8.369758e-04	
79	-9.000000e-01	-4.000000e-01	1.019100e-03	
80	-9.500000e-01	-4.000000e-01	1.193931e-03	
81	-1.000000e+00	-4.000000e-01	1.362343e-03	
82	-1.050000e+00	-4.000000e-01	1.524080e-03	
83	-1.100000e+00	-4.000000e-01	1.678241e-03	
84	-1.150000e+00	-4.000000e-01	1.823917e-03	
85	-1.200000e+00	-4.000000e-01	1.960572e-03	
86	-1.250000e+00	-4.000000e-01	2.088110e-03	
87	-1.300000e+00	-4.000000e-01	2.206758e-03	
88	-1.350000e+00	-4.000000e-01	2.316937e-03	
89	-1.400000e+00	-4.000000e-01	2.419155e-03	
90	-1.450000e+00	-4.000000e-01	2.513944e-03	
91	-1.500000e+00	-4.000000e-01	2.601830e-03	
92	-1.550000e+00	-4.000000e-01	2.683313e-03	
93	-1.600000e+00	-4.000000e-01	2.758855e-03	
94	-1.650000e+00	-4.000000e-01	2.831515e-03	
95	-1.700000e+00	-4.000000e-01	2.895805e-03	
96	-1.750000e+00	-4.000000e-01	2.955220e-03	
97	-1.800000e+00	-4.000000e-01	3.010142e-03	
98	6.000000e-01	-7.000000e-01	7.054953e-13	
99	5.500000e-01	-7.000000e-01	7.054953e-13	
100	5.000000e-01	-7.000000e-01	7.054953e-13	
101	4.500000e-01	-7.000000e-01	7.054953e-13	
102	4.000000e-01	-7.000000e-01	7.054953e-13	
103	3.500000e-01	-7.000000e-01	7.054953e-13	
104	3.000000e-01	-7.000000e-01	7.054953e-13	
105	2.500000e-01	-7.000000e-01	7.055370e-13	
106	2.000000e-01	-7.000000e-01	7.056203e-13	
107	1.500000e-01	-7.000000e-01	7.063288e-13	
108	1.000000e-01	-7.000000e-01	7.103297e-13	
109	5.000000e-02	-7.000000e-01	7.324593e-13	
110	6.938894e-17	-7.000000e-01	8.552768e-13	
111	-5.000000e-02	-7.000000e-01	1.537253e-12	
112	-1.000000e-01	-7.000000e-01	1.014752e-11	

Index   v-sweep         v(2)            vds#branch      
--------------------------------------------------------------------------------
113	-1.500000e-01	-7.000000e-01	5.308920e-11	
114	-2.000000e-01	-7.000000e-01	2.910367e-10	
115	-2.500000e-01	-7.000000e-01	1.606021e-09	
116	-3.000000e-01	-7.000000e-01	8.827245e-09	
117	-3.500000e-01	-7.000000e-01	4.790289e-08	
118	-4.000000e-01	-7.000000e-01	2.524887e-07	
119	-4.500000e-01	-7.000000e-01	1.252997e-06	
120	-5.000000e-01	-7.000000e-01	5.585099e-06	
121	-5.500000e-01	-7.000000e-01	2.131146e-05	
122	-6.000000e-01	-7.000000e-01	6.737595e-05	
123	-6.500000e-01	-7.000000e-01	1.712400e-04	
124	-7.000000e-01	-7.000000e-01	3.420905e-04	
125	-7.500000e-01	-7.000000e-01	5.521809e-04	
126	-8.000000e-01	-7.000000e-01	7.682496e-04	
127	-8.500000e-01	-7.000000e-01	9.764634e-04	
128	-9.000000e-01	-7.000000e-01	1.176393e-03	
129	-9.500000e-01	-7.000000e-01	1.371063e-03	
130	-1.000000e+00	-7.000000e-01	1.564035e-03	
131	-1.050000e+00	-7.000000e-01	1.754034e-03	
132	-1.100000e+00	-7.000000e-01	1.943493e-03	
133	-1.150000e+00	-7.000000e-01	2.132260e-03	
134	-1.200000e+00	-7.000000e-01	2.319970e-03	
135	-1.250000e+00	-7.000000e-01	2.506153e-03	
136	-1.300000e+00	-7.000000e-01	2.690263e-03	
137	-1.350000e+00	-7.000000e-01	2.871676e-03	
138	-1.400000e+00	-7.000000e-01	3.049678e-03	
139	-1.450000e+00	-7.000000e-01	3.223449e-03	
140	-1.500000e+00	-7.000000e-01	3.392077e-03	
141	-1.550000e+00	-7.000000e-01	3.554608e-03	
142	-1.600000e+00	-7.000000e-01	3.710151e-03	
143	-1.650000e+00	-7.000000e-01	3.853708e-03	
144	-1.700000e+00	-7.000000e-01	3.992381e-03	
145	-1.750000e+00	-7.000000e-01	4.122561e-03	
146	-1.800000e+00	-7.000000e-01	4.248549e-03	
147	6.000000e-01	-1.000000e+00	1.068053e-11	
148	5.500000e-01	-1.000000e+00	2.883105e-12	
149	5.000000e-01	-1.000000e+00	1.295147e-12	
150	4.500000e-01	-1.000000e+00	7.157753e-13	
151	4.000000e-01	-1.000000e+00	9.612435e-13	
152	3.500000e-01	-1.000000e+00	1.000793e-12	
153	3.000000e-01	-1.000000e+00	1.005169e-12	
154	2.500000e-01	-1.000000e+00	1.005461e-12	
155	2.000000e-01	-1.000000e+00	1.005670e-12	
156	1.500000e-01	-1.000000e+00	1.006836e-12	
157	1.000000e-01	-1.000000e+00	1.013088e-12	
158	5.000000e-02	-1.000000e+00	1.047887e-12	
159	6.938894e-17	-1.000000e+00	1.241011e-12	
160	-5.000000e-02	-1.000000e+00	3.679648e-12	
161	-1.000000e-01	-1.000000e+00	1.584766e-11	
162	-1.500000e-01	-1.000000e+00	8.334383e-11	
163	-2.000000e-01	-1.000000e+00	4.572878e-10	
164	-2.500000e-01	-1.000000e+00	2.523001e-09	
165	-3.000000e-01	-1.000000e+00	1.385599e-08	
166	-3.500000e-01	-1.000000e+00	7.504499e-08	
167	-4.000000e-01	-1.000000e+00	3.938163e-07	
168	-4.500000e-01	-1.000000e+00	1.936595e-06	
169	-5.000000e-01	-1.000000e+00	8.485155e-06	
170	-5.500000e-01	-1.000000e+00	3.142262e-05	

Index   v-sweep         v(2)            vds#branch      
--------------------------------------------------------------------------------
171	-6.000000e-01	-1.000000e+00	9.467395e-05	
172	-6.500000e-01	-1.000000e+00	2.260744e-04	
173	-7.000000e-01	-1.000000e+00	4.259223e-04	
174	-7.500000e-01	-1.000000e+00	6.588455e-04	
175	-8.000000e-01	-1.000000e+00	8.917477e-04	
176	-8.500000e-01	-1.000000e+00	1.113416e-03	
177	-9.000000e-01	-1.000000e+00	1.325142e-03	
178	-9.500000e-01	-1.000000e+00	1.530761e-03	
179	-1.000000e+00	-1.000000e+00	1.734408e-03	
180	-1.050000e+00	-1.000000e+00	1.934576e-03	
181	-1.100000e+00	-1.000000e+00	2.134194e-03	
182	-1.150000e+00	-1.000000e+00	2.333285e-03	
183	-1.200000e+00	-1.000000e+00	2.531697e-03	
184	-1.250000e+00	-1.000000e+00	2.729216e-03	
185	-1.300000e+00	-1.000000e+00	2.925615e-03	
186	-1.350000e+00	-1.000000e+00	3.120678e-03	
187	-1.400000e+00	-1.000000e+00	3.314197e-03	
188	-1.450000e+00	-1.000000e+00	3.505980e-03	
189	-1.500000e+00	-1.000000e+00	3.695839e-03	
190	-1.550000e+00	-1.000000e+00	3.883587e-03	
191	-1.600000e+00	-1.000000e+00	4.069031e-03	
192	-1.650000e+00	-1.000000e+00	4.251827e-03	
193	-1.700000e+00	-1.000000e+00	4.430777e-03	
194	-1.750000e+00	-1.000000e+00	4.606047e-03	
195	-1.800000e+00	-1.000000e+00	4.777380e-03	
196	6.000000e-01	-1.300000e+00	8.362057e-09	
197	5.500000e-01	-1.300000e+00	3.522663e-09	
198	5.000000e-01	-1.300000e+00	1.364808e-09	
199	4.500000e-01	-1.300000e+00	4.803444e-10	
200	4.000000e-01	-1.300000e+00	1.515781e-10	
201	3.500000e-01	-1.300000e+00	4.256969e-11	
202	3.000000e-01	-1.300000e+00	1.098172e-11	
203	2.500000e-01	-1.300000e+00	3.183502e-12	
204	2.000000e-01	-1.300000e+00	1.596002e-12	
205	1.500000e-01	-1.300000e+00	1.017880e-12	
206	1.000000e-01	-1.300000e+00	1.272517e-12	
207	5.000000e-02	-1.300000e+00	1.363703e-12	
208	6.938894e-17	-1.300000e+00	1.654847e-12	
209	-5.000000e-02	-1.300000e+00	5.275774e-12	
210	-1.000000e-01	-1.300000e+00	2.334040e-11	
211	-1.500000e-01	-1.300000e+00	1.235370e-10	
212	-2.000000e-01	-1.300000e+00	6.785474e-10	
213	-2.500000e-01	-1.300000e+00	3.743146e-09	
214	-3.000000e-01	-1.300000e+00	2.053884e-08	
215	-3.500000e-01	-1.300000e+00	1.110052e-07	
216	-4.000000e-01	-1.300000e+00	5.798099e-07	
217	-4.500000e-01	-1.300000e+00	2.824338e-06	
218	-5.000000e-01	-1.300000e+00	1.216558e-05	
219	-5.500000e-01	-1.300000e+00	4.381842e-05	
220	-6.000000e-01	-1.300000e+00	1.266458e-04	
221	-6.500000e-01	-1.300000e+00	2.872540e-04	
222	-7.000000e-01	-1.300000e+00	5.159576e-04	
223	-7.500000e-01	-1.300000e+00	7.707164e-04	
224	-8.000000e-01	-1.300000e+00	1.019445e-03	
225	-8.500000e-01	-1.300000e+00	1.253652e-03	
226	-9.000000e-01	-1.300000e+00	1.476245e-03	
227	-9.500000e-01	-1.300000e+00	1.691768e-03	
228	-1.000000e+00	-1.300000e+00	1.903422e-03	

Index   v-sweep         v(2)            vds#branch      
--------------------------------------------------------------------------------
229	-1.050000e+00	-1.300000e+00	2.112962e-03	
230	-1.100000e+00	-1.300000e+00	2.321196e-03	
231	-1.150000e+00	-1.300000e+00	2.528898e-03	
232	-1.200000e+00	-1.300000e+00	2.735120e-03	
233	-1.250000e+00	-1.300000e+00	2.940286e-03	
234	-1.300000e+00	-1.300000e+00	3.144232e-03	
235	-1.350000e+00	-1.300000e+00	3.346802e-03	
236	-1.400000e+00	-1.300000e+00	3.547851e-03	
237	-1.450000e+00	-1.300000e+00	3.747256e-03	
238	-1.500000e+00	-1.300000e+00	3.944904e-03	
239	-1.550000e+00	-1.300000e+00	4.140698e-03	
240	-1.600000e+00	-1.300000e+00	4.334549e-03	
241	-1.650000e+00	-1.300000e+00	4.526249e-03	
242	-1.700000e+00	-1.300000e+00	4.714691e-03	
243	-1.750000e+00	-1.300000e+00	4.900243e-03	
244	-1.800000e+00	-1.300000e+00	5.082877e-03	
245	6.000000e-01	-1.600000e+00	4.226580e-07	
246	5.500000e-01	-1.600000e+00	2.472012e-07	
247	5.000000e-01	-1.600000e+00	1.389354e-07	
248	4.500000e-01	-1.600000e+00	7.468366e-08	
249	4.000000e-01	-1.600000e+00	3.818570e-08	
250	3.500000e-01	-1.600000e+00	1.845185e-08	
251	3.000000e-01	-1.600000e+00	8.362710e-09	
252	2.500000e-01	-1.600000e+00	3.523112e-09	
253	2.000000e-01	-1.600000e+00	1.365167e-09	
254	1.500000e-01	-1.600000e+00	4.806707e-10	
255	1.000000e-01	-1.600000e+00	1.519178e-10	
256	5.000000e-02	-1.600000e+00	4.305651e-11	
257	6.938894e-17	-1.600000e+00	1.230831e-11	
258	-5.000000e-02	-1.600000e+00	9.179983e-12	
259	-1.000000e-01	-1.600000e+00	3.351009e-11	
260	-1.500000e-01	-1.600000e+00	1.769999e-10	
261	-2.000000e-01	-1.600000e+00	9.730466e-10	
262	-2.500000e-01	-1.600000e+00	5.366649e-09	
263	-3.000000e-01	-1.600000e+00	2.941904e-08	
264	-3.500000e-01	-1.600000e+00	1.586379e-07	
265	-4.000000e-01	-1.600000e+00	8.244776e-07	
266	-4.500000e-01	-1.600000e+00	3.976325e-06	
267	-5.000000e-01	-1.600000e+00	1.683113e-05	
268	-5.500000e-01	-1.600000e+00	5.898676e-05	
269	-6.000000e-01	-1.600000e+00	1.639771e-04	
270	-6.500000e-01	-1.600000e+00	3.552730e-04	
271	-7.000000e-01	-1.600000e+00	6.123887e-04	
272	-7.500000e-01	-1.600000e+00	8.878737e-04	
273	-8.000000e-01	-1.600000e+00	1.151491e-03	
274	-8.500000e-01	-1.600000e+00	1.397530e-03	
275	-9.000000e-01	-1.600000e+00	1.630401e-03	
276	-9.500000e-01	-1.600000e+00	1.855275e-03	
277	-1.000000e+00	-1.600000e+00	2.075622e-03	
278	-1.050000e+00	-1.600000e+00	2.293332e-03	
279	-1.100000e+00	-1.600000e+00	2.509301e-03	
280	-1.150000e+00	-1.600000e+00	2.723879e-03	
281	-1.200000e+00	-1.600000e+00	2.937146e-03	
282	-1.250000e+00	-1.600000e+00	3.149056e-03	
283	-1.300000e+00	-1.600000e+00	3.359516e-03	
284	-1.350000e+00	-1.600000e+00	3.568420e-03	
285	-1.400000e+00	-1.600000e+00	3.775666e-03	
286	-1.450000e+00	-1.600000e+00	3.981160e-03	

Index   v-sweep         v(2)            vds#branch      
--------------------------------------------------------------------------------
287	-1.500000e+00	-1.600000e+00	4.184820e-03	
288	-1.550000e+00	-1.600000e+00	4.386574e-03	
289	-1.600000e+00	-1.600000e+00	4.586354e-03	
290	-1.650000e+00	-1.600000e+00	4.783603e-03	
291	-1.700000e+00	-1.600000e+00	4.979429e-03	
292	-1.750000e+00	-1.600000e+00	5.170974e-03	
293	-1.800000e+00	-1.600000e+00	5.359664e-03	
294	6.000000e-01	-1.900000e+00	5.558005e-06	
295	5.500000e-01	-1.900000e+00	3.851706e-06	
296	5.000000e-01	-1.900000e+00	2.611205e-06	
297	4.500000e-01	-1.900000e+00	1.728116e-06	
298	4.000000e-01	-1.900000e+00	1.113828e-06	
299	3.500000e-01	-1.900000e+00	6.972779e-07	
300	3.000000e-01	-1.900000e+00	4.226666e-07	
301	2.500000e-01	-1.900000e+00	2.472064e-07	
302	2.000000e-01	-1.900000e+00	1.389384e-07	
303	1.500000e-01	-1.900000e+00	7.468544e-08	
304	1.000000e-01	-1.900000e+00	3.818680e-08	
305	5.000000e-02	-1.900000e+00	1.845279e-08	
306	6.938894e-17	-1.900000e+00	8.364750e-09	
307	-5.000000e-02	-1.900000e+00	3.532227e-09	
308	-1.000000e-01	-1.900000e+00	1.414029e-09	
309	-1.500000e-01	-1.900000e+00	7.501743e-10	
310	-2.000000e-01	-1.900000e+00	1.643177e-09	
311	-2.500000e-01	-1.900000e+00	8.273807e-09	
312	-3.000000e-01	-1.900000e+00	4.509279e-08	
313	-3.500000e-01	-1.900000e+00	2.425032e-07	
314	-4.000000e-01	-1.900000e+00	1.253432e-06	
315	-4.500000e-01	-1.900000e+00	5.977844e-06	
316	-5.000000e-01	-1.900000e+00	2.478547e-05	
317	-5.500000e-01	-1.900000e+00	8.385634e-05	
318	-6.000000e-01	-1.900000e+00	2.210890e-04	
319	-6.500000e-01	-1.900000e+00	4.504568e-04	
320	-7.000000e-01	-1.900000e+00	7.365916e-04	
321	-7.500000e-01	-1.900000e+00	1.029472e-03	
322	-8.000000e-01	-1.900000e+00	1.303858e-03	
323	-8.500000e-01	-1.900000e+00	1.557941e-03	
324	-9.000000e-01	-1.900000e+00	1.797817e-03	
325	-9.500000e-01	-1.900000e+00	2.029257e-03	
326	-1.000000e+00	-1.900000e+00	2.255938e-03	
327	-1.050000e+00	-1.900000e+00	2.479832e-03	
328	-1.100000e+00	-1.900000e+00	2.701869e-03	
329	-1.150000e+00	-1.900000e+00	2.922416e-03	
330	-1.200000e+00	-1.900000e+00	3.141556e-03	
331	-1.250000e+00	-1.900000e+00	3.359246e-03	
332	-1.300000e+00	-1.900000e+00	3.575391e-03	
333	-1.350000e+00	-1.900000e+00	3.789885e-03	
334	-1.400000e+00	-1.900000e+00	4.002626e-03	
335	-1.450000e+00	-1.900000e+00	4.213523e-03	
336	-1.500000e+00	-1.900000e+00	4.422498e-03	
337	-1.550000e+00	-1.900000e+00	4.629487e-03	
338	-1.600000e+00	-1.900000e+00	4.834431e-03	
339	-1.650000e+00	-1.900000e+00	5.036778e-03	
340	-1.700000e+00	-1.900000e+00	5.236201e-03	
341	-1.750000e+00	-1.900000e+00	5.432710e-03	
342	-1.800000e+00	-1.900000e+00	5.626317e-03	




