
No. of Data Rows : 259

Circuit: ** NMOSFET: Benchmarking Implementation of BSIM4.1.0 by Weidong Liu 10/11/2000.

Doing analysis at TEMP = 373.150000 and TNOM = 300.150000
Warning: This model is BSIM4.2.1; you specified a wrong version number.
** NMOSFET: Benchmarking Implementation of BSIM4.1.0 by Weidong Liu 10/11/2000.
--------------------------------------------------------------------------------
Index   v-sweep         v(1)            vds#branch      
--------------------------------------------------------------------------------
0	0.000000e+00	0.000000e+00	2.615082e-28	
1	5.000000e-02	0.000000e+00	-7.499006e-11	
2	1.000000e-01	0.000000e+00	-9.107176e-11	
3	1.500000e-01	0.000000e+00	-9.476917e-11	
4	2.000000e-01	0.000000e+00	-9.654871e-11	
5	2.500000e-01	0.000000e+00	-9.659554e-11	
6	3.000000e-01	0.000000e+00	-9.696489e-11	
7	3.500000e-01	0.000000e+00	-9.741758e-11	
8	4.000000e-01	0.000000e+00	-9.790390e-11	
9	4.500000e-01	0.000000e+00	-9.841394e-11	
10	5.000000e-01	0.000000e+00	-9.894625e-11	
11	5.500000e-01	0.000000e+00	-9.950118e-11	
12	6.000000e-01	0.000000e+00	-1.000793e-10	
13	6.500000e-01	0.000000e+00	-1.006817e-10	
14	7.000000e-01	0.000000e+00	-1.013089e-10	
15	7.500000e-01	0.000000e+00	-1.019620e-10	
16	8.000000e-01	0.000000e+00	-1.026417e-10	
17	8.500000e-01	0.000000e+00	-1.033491e-10	
18	9.000000e-01	0.000000e+00	-1.040851e-10	
19	9.500000e-01	0.000000e+00	-1.048506e-10	
20	1.000000e+00	0.000000e+00	-1.056466e-10	
21	1.050000e+00	0.000000e+00	-1.064742e-10	
22	1.100000e+00	0.000000e+00	-1.073345e-10	
23	1.150000e+00	0.000000e+00	-1.082285e-10	
24	1.200000e+00	0.000000e+00	-1.091573e-10	
25	1.250000e+00	0.000000e+00	-1.101222e-10	
26	1.300000e+00	0.000000e+00	-1.111244e-10	
27	1.350000e+00	0.000000e+00	-1.121655e-10	
28	1.400000e+00	0.000000e+00	-1.132478e-10	
29	1.450000e+00	0.000000e+00	-1.143821e-10	
30	1.500000e+00	0.000000e+00	-1.156553e-10	
31	1.550000e+00	0.000000e+00	-1.176379e-10	
32	1.600000e+00	0.000000e+00	-1.277695e-10	
33	1.650000e+00	0.000000e+00	-1.607404e-10	
34	1.700000e+00	0.000000e+00	-2.712528e-10	
35	1.750000e+00	0.000000e+00	-6.017036e-10	
36	1.800000e+00	0.000000e+00	-1.488133e-09	
37	0.000000e+00	3.000000e-01	1.902980e-18	
38	5.000000e-02	3.000000e-01	-6.649294e-09	
39	1.000000e-01	3.000000e-01	-8.780198e-09	
40	1.500000e-01	3.000000e-01	-1.015796e-08	
41	2.000000e-01	3.000000e-01	-1.147970e-08	
42	2.500000e-01	3.000000e-01	-1.284685e-08	
43	3.000000e-01	3.000000e-01	-1.426934e-08	
44	3.500000e-01	3.000000e-01	-1.575738e-08	
45	4.000000e-01	3.000000e-01	-1.731494e-08	
46	4.500000e-01	3.000000e-01	-1.894516e-08	
47	5.000000e-01	3.000000e-01	-2.065085e-08	
48	5.500000e-01	3.000000e-01	-2.243479e-08	
49	6.000000e-01	3.000000e-01	-2.429974e-08	
50	6.500000e-01	3.000000e-01	-2.624852e-08	
51	7.000000e-01	3.000000e-01	-2.828400e-08	
52	7.500000e-01	3.000000e-01	-3.040913e-08	
53	8.000000e-01	3.000000e-01	-3.262694e-08	
54	8.500000e-01	3.000000e-01	-3.494054e-08	

Index   v-sweep         v(1)            vds#branch      
--------------------------------------------------------------------------------
55	9.000000e-01	3.000000e-01	-3.735313e-08	
56	9.500000e-01	3.000000e-01	-3.986799e-08	
57	1.000000e+00	3.000000e-01	-4.248849e-08	
58	1.050000e+00	3.000000e-01	-4.521811e-08	
59	1.100000e+00	3.000000e-01	-4.806041e-08	
60	1.150000e+00	3.000000e-01	-5.101907e-08	
61	1.200000e+00	3.000000e-01	-5.409791e-08	
62	1.250000e+00	3.000000e-01	-5.730097e-08	
63	1.300000e+00	3.000000e-01	-6.063263e-08	
64	1.350000e+00	3.000000e-01	-6.409806e-08	
65	1.400000e+00	3.000000e-01	-6.770382e-08	
66	1.450000e+00	3.000000e-01	-7.145934e-08	
67	1.500000e+00	3.000000e-01	-7.537929e-08	
68	1.550000e+00	3.000000e-01	-7.948780e-08	
69	1.600000e+00	3.000000e-01	-8.382526e-08	
70	1.650000e+00	3.000000e-01	-8.845901e-08	
71	1.700000e+00	3.000000e-01	-9.349949e-08	
72	1.750000e+00	3.000000e-01	-9.912390e-08	
73	1.800000e+00	3.000000e-01	-1.056100e-07	
74	0.000000e+00	6.000000e-01	1.314774e-17	
75	5.000000e-02	6.000000e-01	-8.300951e-06	
76	1.000000e-01	6.000000e-01	-1.138766e-05	
77	1.500000e-01	6.000000e-01	-1.300583e-05	
78	2.000000e-01	6.000000e-01	-1.441279e-05	
79	2.500000e-01	6.000000e-01	-1.580458e-05	
80	3.000000e-01	6.000000e-01	-1.724263e-05	
81	3.500000e-01	6.000000e-01	-1.871478e-05	
82	4.000000e-01	6.000000e-01	-2.023270e-05	
83	4.500000e-01	6.000000e-01	-2.179851e-05	
84	5.000000e-01	6.000000e-01	-2.341360e-05	
85	5.500000e-01	6.000000e-01	-2.507908e-05	
86	6.000000e-01	6.000000e-01	-2.677009e-05	
87	6.500000e-01	6.000000e-01	-2.853879e-05	
88	7.000000e-01	6.000000e-01	-3.036067e-05	
89	7.500000e-01	6.000000e-01	-3.223660e-05	
90	8.000000e-01	6.000000e-01	-3.416743e-05	
91	8.500000e-01	6.000000e-01	-3.615402e-05	
92	9.000000e-01	6.000000e-01	-3.819720e-05	
93	9.500000e-01	6.000000e-01	-4.029782e-05	
94	1.000000e+00	6.000000e-01	-4.245672e-05	
95	1.050000e+00	6.000000e-01	-4.467474e-05	
96	1.100000e+00	6.000000e-01	-4.695271e-05	
97	1.150000e+00	6.000000e-01	-4.929148e-05	
98	1.200000e+00	6.000000e-01	-5.169189e-05	
99	1.250000e+00	6.000000e-01	-5.415484e-05	
100	1.300000e+00	6.000000e-01	-5.668135e-05	
101	1.350000e+00	6.000000e-01	-5.927271e-05	
102	1.400000e+00	6.000000e-01	-6.193091e-05	
103	1.450000e+00	6.000000e-01	-6.465933e-05	
104	1.500000e+00	6.000000e-01	-6.746415e-05	
105	1.550000e+00	6.000000e-01	-7.035666e-05	
106	1.600000e+00	6.000000e-01	-7.335728e-05	
107	1.650000e+00	6.000000e-01	-7.658698e-05	
108	1.700000e+00	6.000000e-01	-7.997467e-05	
109	1.750000e+00	6.000000e-01	-8.368999e-05	
110	1.800000e+00	6.000000e-01	-8.790274e-05	
111	0.000000e+00	9.000000e-01	3.929328e-17	
112	5.000000e-02	9.000000e-01	-1.406737e-04	

Index   v-sweep         v(1)            vds#branch      
--------------------------------------------------------------------------------
113	1.000000e-01	9.000000e-01	-2.572735e-04	
114	1.500000e-01	9.000000e-01	-3.510370e-04	
115	2.000000e-01	9.000000e-01	-4.233798e-04	
116	2.500000e-01	9.000000e-01	-4.762855e-04	
117	3.000000e-01	9.000000e-01	-5.131015e-04	
118	3.500000e-01	9.000000e-01	-5.389114e-04	
119	4.000000e-01	9.000000e-01	-5.588479e-04	
120	4.500000e-01	9.000000e-01	-5.761543e-04	
121	5.000000e-01	9.000000e-01	-5.927447e-04	
122	5.500000e-01	9.000000e-01	-6.082144e-04	
123	6.000000e-01	9.000000e-01	-6.236076e-04	
124	6.500000e-01	9.000000e-01	-6.389838e-04	
125	7.000000e-01	9.000000e-01	-6.543821e-04	
126	7.500000e-01	9.000000e-01	-6.698270e-04	
127	8.000000e-01	9.000000e-01	-6.853342e-04	
128	8.500000e-01	9.000000e-01	-7.009139e-04	
129	9.000000e-01	9.000000e-01	-7.165721e-04	
130	9.500000e-01	9.000000e-01	-7.323128e-04	
131	1.000000e+00	9.000000e-01	-7.481385e-04	
132	1.050000e+00	9.000000e-01	-7.640504e-04	
133	1.100000e+00	9.000000e-01	-7.800491e-04	
134	1.150000e+00	9.000000e-01	-7.961347e-04	
135	1.200000e+00	9.000000e-01	-8.123069e-04	
136	1.250000e+00	9.000000e-01	-8.285651e-04	
137	1.300000e+00	9.000000e-01	-8.449085e-04	
138	1.350000e+00	9.000000e-01	-8.613364e-04	
139	1.400000e+00	9.000000e-01	-8.778478e-04	
140	1.450000e+00	9.000000e-01	-8.944419e-04	
141	1.500000e+00	9.000000e-01	-9.111188e-04	
142	1.550000e+00	9.000000e-01	-9.278804e-04	
143	1.600000e+00	9.000000e-01	-9.447333e-04	
144	1.650000e+00	9.000000e-01	-9.616940e-04	
145	1.700000e+00	9.000000e-01	-9.787991e-04	
146	1.750000e+00	9.000000e-01	-9.961230e-04	
147	1.800000e+00	9.000000e-01	-1.013807e-03	
148	0.000000e+00	1.200000e+00	7.768174e-17	
149	5.000000e-02	1.200000e+00	-2.121807e-04	
150	1.000000e-01	1.200000e+00	-4.032916e-04	
151	1.500000e-01	1.200000e+00	-5.739693e-04	
152	2.000000e-01	1.200000e+00	-7.248457e-04	
153	2.500000e-01	1.200000e+00	-8.565449e-04	
154	3.000000e-01	1.200000e+00	-9.696981e-04	
155	3.500000e-01	1.200000e+00	-1.064988e-03	
156	4.000000e-01	1.200000e+00	-1.143257e-03	
157	4.500000e-01	1.200000e+00	-1.205763e-03	
158	5.000000e-01	1.200000e+00	-1.254586e-03	
159	5.500000e-01	1.200000e+00	-1.292854e-03	
160	6.000000e-01	1.200000e+00	-1.324129e-03	
161	6.500000e-01	1.200000e+00	-1.351329e-03	
162	7.000000e-01	1.200000e+00	-1.377187e-03	
163	7.500000e-01	1.200000e+00	-1.400530e-03	
164	8.000000e-01	1.200000e+00	-1.423377e-03	
165	8.500000e-01	1.200000e+00	-1.445927e-03	
166	9.000000e-01	1.200000e+00	-1.468296e-03	
167	9.500000e-01	1.200000e+00	-1.490559e-03	
168	1.000000e+00	1.200000e+00	-1.512761e-03	
169	1.050000e+00	1.200000e+00	-1.534936e-03	
170	1.100000e+00	1.200000e+00	-1.557103e-03	

Index   v-sweep         v(1)            vds#branch      
--------------------------------------------------------------------------------
171	1.150000e+00	1.200000e+00	-1.579277e-03	
172	1.200000e+00	1.200000e+00	-1.601468e-03	
173	1.250000e+00	1.200000e+00	-1.623682e-03	
174	1.300000e+00	1.200000e+00	-1.645926e-03	
175	1.350000e+00	1.200000e+00	-1.668201e-03	
176	1.400000e+00	1.200000e+00	-1.690509e-03	
177	1.450000e+00	1.200000e+00	-1.712853e-03	
178	1.500000e+00	1.200000e+00	-1.735233e-03	
179	1.550000e+00	1.200000e+00	-1.757649e-03	
180	1.600000e+00	1.200000e+00	-1.780101e-03	
181	1.650000e+00	1.200000e+00	-1.802590e-03	
182	1.700000e+00	1.200000e+00	-1.825117e-03	
183	1.750000e+00	1.200000e+00	-1.847688e-03	
184	1.800000e+00	1.200000e+00	-1.870316e-03	
185	0.000000e+00	1.500000e+00	1.277867e-16	
186	5.000000e-02	1.500000e+00	-2.480825e-04	
187	1.000000e-01	1.500000e+00	-4.783088e-04	
188	1.500000e-01	1.500000e+00	-6.910798e-04	
189	2.000000e-01	1.500000e+00	-8.867980e-04	
190	2.500000e-01	1.500000e+00	-1.065858e-03	
191	3.000000e-01	1.500000e+00	-1.228645e-03	
192	3.500000e-01	1.500000e+00	-1.375536e-03	
193	4.000000e-01	1.500000e+00	-1.506903e-03	
194	4.500000e-01	1.500000e+00	-1.623120e-03	
195	5.000000e-01	1.500000e+00	-1.724587e-03	
196	5.500000e-01	1.500000e+00	-1.811784e-03	
197	6.000000e-01	1.500000e+00	-1.885388e-03	
198	6.500000e-01	1.500000e+00	-1.946493e-03	
199	7.000000e-01	1.500000e+00	-1.996858e-03	
200	7.500000e-01	1.500000e+00	-2.038888e-03	
201	8.000000e-01	1.500000e+00	-2.075144e-03	
202	8.500000e-01	1.500000e+00	-2.109273e-03	
203	9.000000e-01	1.500000e+00	-2.139026e-03	
204	9.500000e-01	1.500000e+00	-2.167667e-03	
205	1.000000e+00	1.500000e+00	-2.195615e-03	
206	1.050000e+00	1.500000e+00	-2.223111e-03	
207	1.100000e+00	1.500000e+00	-2.250302e-03	
208	1.150000e+00	1.500000e+00	-2.277281e-03	
209	1.200000e+00	1.500000e+00	-2.304113e-03	
210	1.250000e+00	1.500000e+00	-2.330838e-03	
211	1.300000e+00	1.500000e+00	-2.357488e-03	
212	1.350000e+00	1.500000e+00	-2.384081e-03	
213	1.400000e+00	1.500000e+00	-2.410634e-03	
214	1.450000e+00	1.500000e+00	-2.437157e-03	
215	1.500000e+00	1.500000e+00	-2.463656e-03	
216	1.550000e+00	1.500000e+00	-2.490139e-03	
217	1.600000e+00	1.500000e+00	-2.516609e-03	
218	1.650000e+00	1.500000e+00	-2.543068e-03	
219	1.700000e+00	1.500000e+00	-2.569519e-03	
220	1.750000e+00	1.500000e+00	-2.595963e-03	
221	1.800000e+00	1.500000e+00	-2.622401e-03	
222	0.000000e+00	1.800000e+00	1.891469e-16	
223	5.000000e-02	1.800000e+00	-2.683796e-04	
224	1.000000e-01	1.800000e+00	-5.215864e-04	
225	1.500000e-01	1.800000e+00	-7.598877e-04	
226	2.000000e-01	1.800000e+00	-9.835559e-04	
227	2.500000e-01	1.800000e+00	-1.192860e-03	
228	3.000000e-01	1.800000e+00	-1.388066e-03	

Index   v-sweep         v(1)            vds#branch      
--------------------------------------------------------------------------------
229	3.500000e-01	1.800000e+00	-1.569431e-03	
230	4.000000e-01	1.800000e+00	-1.737210e-03	
231	4.500000e-01	1.800000e+00	-1.891649e-03	
232	5.000000e-01	1.800000e+00	-2.032991e-03	
233	5.500000e-01	1.800000e+00	-2.161474e-03	
234	6.000000e-01	1.800000e+00	-2.277337e-03	
235	6.500000e-01	1.800000e+00	-2.380835e-03	
236	7.000000e-01	1.800000e+00	-2.472267e-03	
237	7.500000e-01	1.800000e+00	-2.552038e-03	
238	8.000000e-01	1.800000e+00	-2.620788e-03	
239	8.500000e-01	1.800000e+00	-2.679551e-03	
240	9.000000e-01	1.800000e+00	-2.729870e-03	
241	9.500000e-01	1.800000e+00	-2.773658e-03	
242	1.000000e+00	1.800000e+00	-2.814836e-03	
243	1.050000e+00	1.800000e+00	-2.850213e-03	
244	1.100000e+00	1.800000e+00	-2.883809e-03	
245	1.150000e+00	1.800000e+00	-2.916270e-03	
246	1.200000e+00	1.800000e+00	-2.947975e-03	
247	1.250000e+00	1.800000e+00	-2.979156e-03	
248	1.300000e+00	1.800000e+00	-3.009961e-03	
249	1.350000e+00	1.800000e+00	-3.040489e-03	
250	1.400000e+00	1.800000e+00	-3.070806e-03	
251	1.450000e+00	1.800000e+00	-3.100959e-03	
252	1.500000e+00	1.800000e+00	-3.130981e-03	
253	1.550000e+00	1.800000e+00	-3.160894e-03	
254	1.600000e+00	1.800000e+00	-3.190717e-03	
255	1.650000e+00	1.800000e+00	-3.220462e-03	
256	1.700000e+00	1.800000e+00	-3.250138e-03	
257	1.750000e+00	1.800000e+00	-3.279752e-03	
258	1.800000e+00	1.800000e+00	-3.309309e-03	




