
Circuit: ** NMOSFET: Benchmarking Implementation of BSIM4 by Jane Xi 05/09/2003.

Doing analysis at TEMP = 373.150000 and TNOM = 300.150000
Warning: toxe, toxp and dtox all given and toxe != toxp + dtox; dtox ignored.
    ** NMOSFET: Benchmarking Implementation of BSIM4 by Jane Xi 05/09/2003.
    DC transfer characteristic  Sat Aug 27 16:00:25  2005
--------------------------------------------------------------------------------
Index   v-sweep         v(1)            vds#branch      
--------------------------------------------------------------------------------
0	0.000000e+00	0.000000e+00	-1.247336e-42	
1	2.000000e-02	0.000000e+00	-1.042313e-07	
2	4.000000e-02	0.000000e+00	-1.577952e-07	
3	6.000000e-02	0.000000e+00	-1.813979e-07	
4	8.000000e-02	0.000000e+00	-1.925824e-07	
5	1.000000e-01	0.000000e+00	-1.993823e-07	
6	1.200000e-01	0.000000e+00	-2.045215e-07	
7	1.400000e-01	0.000000e+00	-2.089330e-07	
8	1.600000e-01	0.000000e+00	-2.129798e-07	
9	1.800000e-01	0.000000e+00	-2.168239e-07	
10	2.000000e-01	0.000000e+00	-2.205464e-07	
11	2.200000e-01	0.000000e+00	-2.241919e-07	
12	2.400000e-01	0.000000e+00	-2.277870e-07	
13	2.600000e-01	0.000000e+00	-2.313482e-07	
14	2.800000e-01	0.000000e+00	-2.348869e-07	
15	3.000000e-01	0.000000e+00	-2.384105e-07	
16	3.200000e-01	0.000000e+00	-2.419248e-07	
17	3.400000e-01	0.000000e+00	-2.454339e-07	
18	3.600000e-01	0.000000e+00	-2.489408e-07	
19	3.800000e-01	0.000000e+00	-2.524482e-07	
20	4.000000e-01	0.000000e+00	-2.559580e-07	
21	4.200000e-01	0.000000e+00	-2.594720e-07	
22	4.400000e-01	0.000000e+00	-2.629916e-07	
23	4.600000e-01	0.000000e+00	-2.665181e-07	
24	4.800000e-01	0.000000e+00	-2.700526e-07	
25	5.000000e-01	0.000000e+00	-2.735963e-07	
26	5.200000e-01	0.000000e+00	-2.771502e-07	
27	5.400000e-01	0.000000e+00	-2.807154e-07	
28	5.600000e-01	0.000000e+00	-2.842928e-07	
29	5.800000e-01	0.000000e+00	-2.878836e-07	
30	6.000000e-01	0.000000e+00	-2.914889e-07	
31	6.200000e-01	0.000000e+00	-2.951098e-07	
32	6.400000e-01	0.000000e+00	-2.987476e-07	
33	6.600000e-01	0.000000e+00	-3.024036e-07	
34	6.800000e-01	0.000000e+00	-3.060793e-07	
35	7.000000e-01	0.000000e+00	-3.097762e-07	
36	7.200000e-01	0.000000e+00	-3.134962e-07	
37	7.400000e-01	0.000000e+00	-3.172410e-07	
38	7.600000e-01	0.000000e+00	-3.210129e-07	
39	7.800000e-01	0.000000e+00	-3.248141e-07	
40	8.000000e-01	0.000000e+00	-3.286472e-07	
41	8.200000e-01	0.000000e+00	-3.325149e-07	
42	8.400000e-01	0.000000e+00	-3.364204e-07	
43	8.600000e-01	0.000000e+00	-3.403671e-07	
44	8.800000e-01	0.000000e+00	-3.443588e-07	
45	9.000000e-01	0.000000e+00	-3.483996e-07	
46	9.200000e-01	0.000000e+00	-3.524943e-07	
47	9.400000e-01	0.000000e+00	-3.566479e-07	
48	9.600000e-01	0.000000e+00	-3.608660e-07	
49	9.800000e-01	0.000000e+00	-3.651549e-07	
50	1.000000e+00	0.000000e+00	-3.695214e-07	
51	1.020000e+00	0.000000e+00	-3.739731e-07	
52	1.040000e+00	0.000000e+00	-3.785184e-07	
53	1.060000e+00	0.000000e+00	-3.831665e-07	
54	1.080000e+00	0.000000e+00	-3.879276e-07	

Index   v-sweep         v(1)            vds#branch      
--------------------------------------------------------------------------------
55	1.100000e+00	0.000000e+00	-3.928128e-07	
56	1.120000e+00	0.000000e+00	-3.978345e-07	
57	1.140000e+00	0.000000e+00	-4.030062e-07	
58	1.160000e+00	0.000000e+00	-4.083431e-07	
59	1.180000e+00	0.000000e+00	-4.138615e-07	
60	1.200000e+00	0.000000e+00	-4.195797e-07	
61	0.000000e+00	2.000000e-01	2.972012e-11	
62	2.000000e-02	2.000000e-01	-5.927705e-06	
63	4.000000e-02	2.000000e-01	-9.315695e-06	
64	6.000000e-02	2.000000e-01	-1.096988e-05	
65	8.000000e-02	2.000000e-01	-1.176157e-05	
66	1.000000e-01	2.000000e-01	-1.221255e-05	
67	1.200000e-01	2.000000e-01	-1.253110e-05	
68	1.400000e-01	2.000000e-01	-1.279221e-05	
69	1.600000e-01	2.000000e-01	-1.302500e-05	
70	1.800000e-01	2.000000e-01	-1.324220e-05	
71	2.000000e-01	2.000000e-01	-1.345007e-05	
72	2.200000e-01	2.000000e-01	-1.365200e-05	
73	2.400000e-01	2.000000e-01	-1.384995e-05	
74	2.600000e-01	2.000000e-01	-1.404515e-05	
75	2.800000e-01	2.000000e-01	-1.423841e-05	
76	3.000000e-01	2.000000e-01	-1.443029e-05	
77	3.200000e-01	2.000000e-01	-1.462116e-05	
78	3.400000e-01	2.000000e-01	-1.481132e-05	
79	3.600000e-01	2.000000e-01	-1.500097e-05	
80	3.800000e-01	2.000000e-01	-1.519028e-05	
81	4.000000e-01	2.000000e-01	-1.537938e-05	
82	4.200000e-01	2.000000e-01	-1.556835e-05	
83	4.400000e-01	2.000000e-01	-1.575729e-05	
84	4.600000e-01	2.000000e-01	-1.594624e-05	
85	4.800000e-01	2.000000e-01	-1.613527e-05	
86	5.000000e-01	2.000000e-01	-1.632442e-05	
87	5.200000e-01	2.000000e-01	-1.651372e-05	
88	5.400000e-01	2.000000e-01	-1.670320e-05	
89	5.600000e-01	2.000000e-01	-1.689288e-05	
90	5.800000e-01	2.000000e-01	-1.708279e-05	
91	6.000000e-01	2.000000e-01	-1.727294e-05	
92	6.200000e-01	2.000000e-01	-1.746335e-05	
93	6.400000e-01	2.000000e-01	-1.765403e-05	
94	6.600000e-01	2.000000e-01	-1.784499e-05	
95	6.800000e-01	2.000000e-01	-1.803624e-05	
96	7.000000e-01	2.000000e-01	-1.822779e-05	
97	7.200000e-01	2.000000e-01	-1.841964e-05	
98	7.400000e-01	2.000000e-01	-1.861180e-05	
99	7.600000e-01	2.000000e-01	-1.880428e-05	
100	7.800000e-01	2.000000e-01	-1.899709e-05	
101	8.000000e-01	2.000000e-01	-1.919022e-05	
102	8.200000e-01	2.000000e-01	-1.938368e-05	
103	8.400000e-01	2.000000e-01	-1.957749e-05	
104	8.600000e-01	2.000000e-01	-1.977163e-05	
105	8.800000e-01	2.000000e-01	-1.996613e-05	
106	9.000000e-01	2.000000e-01	-2.016098e-05	
107	9.200000e-01	2.000000e-01	-2.035619e-05	
108	9.400000e-01	2.000000e-01	-2.055176e-05	
109	9.600000e-01	2.000000e-01	-2.074771e-05	
110	9.800000e-01	2.000000e-01	-2.094405e-05	
111	1.000000e+00	2.000000e-01	-2.114077e-05	
112	1.020000e+00	2.000000e-01	-2.133790e-05	

Index   v-sweep         v(1)            vds#branch      
--------------------------------------------------------------------------------
113	1.040000e+00	2.000000e-01	-2.153543e-05	
114	1.060000e+00	2.000000e-01	-2.173339e-05	
115	1.080000e+00	2.000000e-01	-2.193179e-05	
116	1.100000e+00	2.000000e-01	-2.213063e-05	
117	1.120000e+00	2.000000e-01	-2.232993e-05	
118	1.140000e+00	2.000000e-01	-2.252972e-05	
119	1.160000e+00	2.000000e-01	-2.273001e-05	
120	1.180000e+00	2.000000e-01	-2.293082e-05	
121	1.200000e+00	2.000000e-01	-2.313217e-05	
122	0.000000e+00	4.000000e-01	1.773186e-09	
123	2.000000e-02	4.000000e-01	-7.225405e-05	
124	4.000000e-02	4.000000e-01	-1.305048e-04	
125	6.000000e-02	4.000000e-01	-1.756347e-04	
126	8.000000e-02	4.000000e-01	-2.088044e-04	
127	1.000000e-01	4.000000e-01	-2.316996e-04	
128	1.200000e-01	4.000000e-01	-2.466718e-04	
129	1.400000e-01	4.000000e-01	-2.563650e-04	
130	1.600000e-01	4.000000e-01	-2.629707e-04	
131	1.800000e-01	4.000000e-01	-2.678766e-04	
132	2.000000e-01	4.000000e-01	-2.718347e-04	
133	2.200000e-01	4.000000e-01	-2.752358e-04	
134	2.400000e-01	4.000000e-01	-2.782881e-04	
135	2.600000e-01	4.000000e-01	-2.811089e-04	
136	2.800000e-01	4.000000e-01	-2.837684e-04	
137	3.000000e-01	4.000000e-01	-2.863109e-04	
138	3.200000e-01	4.000000e-01	-2.887657e-04	
139	3.400000e-01	4.000000e-01	-2.911531e-04	
140	3.600000e-01	4.000000e-01	-2.934877e-04	
141	3.800000e-01	4.000000e-01	-2.957800e-04	
142	4.000000e-01	4.000000e-01	-2.980382e-04	
143	4.200000e-01	4.000000e-01	-3.002683e-04	
144	4.400000e-01	4.000000e-01	-3.024753e-04	
145	4.600000e-01	4.000000e-01	-3.046629e-04	
146	4.800000e-01	4.000000e-01	-3.068342e-04	
147	5.000000e-01	4.000000e-01	-3.089918e-04	
148	5.200000e-01	4.000000e-01	-3.111376e-04	
149	5.400000e-01	4.000000e-01	-3.132734e-04	
150	5.600000e-01	4.000000e-01	-3.154005e-04	
151	5.800000e-01	4.000000e-01	-3.175203e-04	
152	6.000000e-01	4.000000e-01	-3.196337e-04	
153	6.200000e-01	4.000000e-01	-3.217416e-04	
154	6.400000e-01	4.000000e-01	-3.238447e-04	
155	6.600000e-01	4.000000e-01	-3.259436e-04	
156	6.800000e-01	4.000000e-01	-3.280390e-04	
157	7.000000e-01	4.000000e-01	-3.301313e-04	
158	7.200000e-01	4.000000e-01	-3.322209e-04	
159	7.400000e-01	4.000000e-01	-3.343081e-04	
160	7.600000e-01	4.000000e-01	-3.363934e-04	
161	7.800000e-01	4.000000e-01	-3.384771e-04	
162	8.000000e-01	4.000000e-01	-3.405593e-04	
163	8.200000e-01	4.000000e-01	-3.426403e-04	
164	8.400000e-01	4.000000e-01	-3.447203e-04	
165	8.600000e-01	4.000000e-01	-3.467996e-04	
166	8.800000e-01	4.000000e-01	-3.488783e-04	
167	9.000000e-01	4.000000e-01	-3.509565e-04	
168	9.200000e-01	4.000000e-01	-3.530346e-04	
169	9.400000e-01	4.000000e-01	-3.551126e-04	
170	9.600000e-01	4.000000e-01	-3.571906e-04	

Index   v-sweep         v(1)            vds#branch      
--------------------------------------------------------------------------------
171	9.800000e-01	4.000000e-01	-3.592689e-04	
172	1.000000e+00	4.000000e-01	-3.613476e-04	
173	1.020000e+00	4.000000e-01	-3.634268e-04	
174	1.040000e+00	4.000000e-01	-3.655067e-04	
175	1.060000e+00	4.000000e-01	-3.675876e-04	
176	1.080000e+00	4.000000e-01	-3.696695e-04	
177	1.100000e+00	4.000000e-01	-3.717526e-04	
178	1.120000e+00	4.000000e-01	-3.738371e-04	
179	1.140000e+00	4.000000e-01	-3.759232e-04	
180	1.160000e+00	4.000000e-01	-3.780111e-04	
181	1.180000e+00	4.000000e-01	-3.801011e-04	
182	1.200000e+00	4.000000e-01	-3.821933e-04	
183	0.000000e+00	6.000000e-01	1.229830e-08	
184	2.000000e-02	6.000000e-01	-1.835728e-04	
185	4.000000e-02	6.000000e-01	-3.491876e-04	
186	6.000000e-02	6.000000e-01	-4.974506e-04	
187	8.000000e-02	6.000000e-01	-6.289721e-04	
188	1.000000e-01	6.000000e-01	-7.443671e-04	
189	1.200000e-01	6.000000e-01	-8.442748e-04	
190	1.400000e-01	6.000000e-01	-9.293929e-04	
191	1.600000e-01	6.000000e-01	-1.000534e-03	
192	1.800000e-01	6.000000e-01	-1.058714e-03	
193	2.000000e-01	6.000000e-01	-1.105250e-03	
194	2.200000e-01	6.000000e-01	-1.141831e-03	
195	2.400000e-01	6.000000e-01	-1.170427e-03	
196	2.600000e-01	6.000000e-01	-1.193029e-03	
197	2.800000e-01	6.000000e-01	-1.211349e-03	
198	3.000000e-01	6.000000e-01	-1.226674e-03	
199	3.200000e-01	6.000000e-01	-1.239896e-03	
200	3.400000e-01	6.000000e-01	-1.251610e-03	
201	3.600000e-01	6.000000e-01	-1.262215e-03	
202	3.800000e-01	6.000000e-01	-1.271981e-03	
203	4.000000e-01	6.000000e-01	-1.281097e-03	
204	4.200000e-01	6.000000e-01	-1.289698e-03	
205	4.400000e-01	6.000000e-01	-1.297886e-03	
206	4.600000e-01	6.000000e-01	-1.305736e-03	
207	4.800000e-01	6.000000e-01	-1.313306e-03	
208	5.000000e-01	6.000000e-01	-1.320641e-03	
209	5.200000e-01	6.000000e-01	-1.327778e-03	
210	5.400000e-01	6.000000e-01	-1.334745e-03	
211	5.600000e-01	6.000000e-01	-1.341567e-03	
212	5.800000e-01	6.000000e-01	-1.348262e-03	
213	6.000000e-01	6.000000e-01	-1.354848e-03	
214	6.200000e-01	6.000000e-01	-1.361336e-03	
215	6.400000e-01	6.000000e-01	-1.367739e-03	
216	6.600000e-01	6.000000e-01	-1.374067e-03	
217	6.800000e-01	6.000000e-01	-1.380326e-03	
218	7.000000e-01	6.000000e-01	-1.386525e-03	
219	7.200000e-01	6.000000e-01	-1.392670e-03	
220	7.400000e-01	6.000000e-01	-1.398765e-03	
221	7.600000e-01	6.000000e-01	-1.404815e-03	
222	7.800000e-01	6.000000e-01	-1.410824e-03	
223	8.000000e-01	6.000000e-01	-1.416796e-03	
224	8.200000e-01	6.000000e-01	-1.422734e-03	
225	8.400000e-01	6.000000e-01	-1.428640e-03	
226	8.600000e-01	6.000000e-01	-1.434517e-03	
227	8.800000e-01	6.000000e-01	-1.440366e-03	
228	9.000000e-01	6.000000e-01	-1.446191e-03	

Index   v-sweep         v(1)            vds#branch      
--------------------------------------------------------------------------------
229	9.200000e-01	6.000000e-01	-1.451993e-03	
230	9.400000e-01	6.000000e-01	-1.457772e-03	
231	9.600000e-01	6.000000e-01	-1.463532e-03	
232	9.800000e-01	6.000000e-01	-1.469273e-03	
233	1.000000e+00	6.000000e-01	-1.474996e-03	
234	1.020000e+00	6.000000e-01	-1.480702e-03	
235	1.040000e+00	6.000000e-01	-1.486394e-03	
236	1.060000e+00	6.000000e-01	-1.492071e-03	
237	1.080000e+00	6.000000e-01	-1.497735e-03	
238	1.100000e+00	6.000000e-01	-1.503386e-03	
239	1.120000e+00	6.000000e-01	-1.509026e-03	
240	1.140000e+00	6.000000e-01	-1.514656e-03	
241	1.160000e+00	6.000000e-01	-1.520277e-03	
242	1.180000e+00	6.000000e-01	-1.525889e-03	
243	1.200000e+00	6.000000e-01	-1.531493e-03	
244	0.000000e+00	8.000000e-01	5.327606e-08	
245	2.000000e-02	8.000000e-01	-2.627403e-04	
246	4.000000e-02	8.000000e-01	-5.083328e-04	
247	6.000000e-02	8.000000e-01	-7.371798e-04	
248	8.000000e-02	8.000000e-01	-9.497257e-04	
249	1.000000e-01	8.000000e-01	-1.146405e-03	
250	1.200000e-01	8.000000e-01	-1.327646e-03	
251	1.400000e-01	8.000000e-01	-1.493871e-03	
252	1.600000e-01	8.000000e-01	-1.645503e-03	
253	1.800000e-01	8.000000e-01	-1.782973e-03	
254	2.000000e-01	8.000000e-01	-1.906726e-03	
255	2.200000e-01	8.000000e-01	-2.017238e-03	
256	2.400000e-01	8.000000e-01	-2.115034e-03	
257	2.600000e-01	8.000000e-01	-2.200720e-03	
258	2.800000e-01	8.000000e-01	-2.275022e-03	
259	3.000000e-01	8.000000e-01	-2.338829e-03	
260	3.200000e-01	8.000000e-01	-2.393220e-03	
261	3.400000e-01	8.000000e-01	-2.439447e-03	
262	3.600000e-01	8.000000e-01	-2.478853e-03	
263	3.800000e-01	8.000000e-01	-2.512745e-03	
264	4.000000e-01	8.000000e-01	-2.542272e-03	
265	4.200000e-01	8.000000e-01	-2.568375e-03	
266	4.400000e-01	8.000000e-01	-2.591784e-03	
267	4.600000e-01	8.000000e-01	-2.613054e-03	
268	4.800000e-01	8.000000e-01	-2.632604e-03	
269	5.000000e-01	8.000000e-01	-2.650752e-03	
270	5.200000e-01	8.000000e-01	-2.667746e-03	
271	5.400000e-01	8.000000e-01	-2.683777e-03	
272	5.600000e-01	8.000000e-01	-2.698998e-03	
273	5.800000e-01	8.000000e-01	-2.713531e-03	
274	6.000000e-01	8.000000e-01	-2.727476e-03	
275	6.200000e-01	8.000000e-01	-2.740912e-03	
276	6.400000e-01	8.000000e-01	-2.753908e-03	
277	6.600000e-01	8.000000e-01	-2.766520e-03	
278	6.800000e-01	8.000000e-01	-2.778793e-03	
279	7.000000e-01	8.000000e-01	-2.790768e-03	
280	7.200000e-01	8.000000e-01	-2.802478e-03	
281	7.400000e-01	8.000000e-01	-2.813952e-03	
282	7.600000e-01	8.000000e-01	-2.825214e-03	
283	7.800000e-01	8.000000e-01	-2.836286e-03	
284	8.000000e-01	8.000000e-01	-2.847186e-03	
285	8.200000e-01	8.000000e-01	-2.857930e-03	
286	8.400000e-01	8.000000e-01	-2.868533e-03	

Index   v-sweep         v(1)            vds#branch      
--------------------------------------------------------------------------------
287	8.600000e-01	8.000000e-01	-2.879005e-03	
288	8.800000e-01	8.000000e-01	-2.889359e-03	
289	9.000000e-01	8.000000e-01	-2.899603e-03	
290	9.200000e-01	8.000000e-01	-2.909746e-03	
291	9.400000e-01	8.000000e-01	-2.919796e-03	
292	9.600000e-01	8.000000e-01	-2.929759e-03	
293	9.800000e-01	8.000000e-01	-2.939642e-03	
294	1.000000e+00	8.000000e-01	-2.949449e-03	
295	1.020000e+00	8.000000e-01	-2.959187e-03	
296	1.040000e+00	8.000000e-01	-2.968858e-03	
297	1.060000e+00	8.000000e-01	-2.978468e-03	
298	1.080000e+00	8.000000e-01	-2.988019e-03	
299	1.100000e+00	8.000000e-01	-2.997517e-03	
300	1.120000e+00	8.000000e-01	-3.006963e-03	
301	1.140000e+00	8.000000e-01	-3.016360e-03	
302	1.160000e+00	8.000000e-01	-3.025713e-03	
303	1.180000e+00	8.000000e-01	-3.035022e-03	
304	1.200000e+00	8.000000e-01	-3.044292e-03	
305	0.000000e+00	1.000000e+00	1.870144e-07	
306	2.000000e-02	1.000000e+00	-3.107022e-04	
307	4.000000e-02	1.000000e+00	-6.062654e-04	
308	6.000000e-02	1.000000e+00	-8.868288e-04	
309	8.000000e-02	1.000000e+00	-1.152713e-03	
310	1.000000e-01	1.000000e+00	-1.404231e-03	
311	1.200000e-01	1.000000e+00	-1.641690e-03	
312	1.400000e-01	1.000000e+00	-1.865394e-03	
313	1.600000e-01	1.000000e+00	-2.075641e-03	
314	1.800000e-01	1.000000e+00	-2.272727e-03	
315	2.000000e-01	1.000000e+00	-2.456946e-03	
316	2.200000e-01	1.000000e+00	-2.628595e-03	
317	2.400000e-01	1.000000e+00	-2.787972e-03	
318	2.600000e-01	1.000000e+00	-2.935385e-03	
319	2.800000e-01	1.000000e+00	-3.071154e-03	
320	3.000000e-01	1.000000e+00	-3.195618e-03	
321	3.200000e-01	1.000000e+00	-3.309144e-03	
322	3.400000e-01	1.000000e+00	-3.412143e-03	
323	3.600000e-01	1.000000e+00	-3.505082e-03	
324	3.800000e-01	1.000000e+00	-3.588502e-03	
325	4.000000e-01	1.000000e+00	-3.663038e-03	
326	4.200000e-01	1.000000e+00	-3.729426e-03	
327	4.400000e-01	1.000000e+00	-3.788494e-03	
328	4.600000e-01	1.000000e+00	-3.841124e-03	
329	4.800000e-01	1.000000e+00	-3.888205e-03	
330	5.000000e-01	1.000000e+00	-3.930571e-03	
331	5.200000e-01	1.000000e+00	-3.968964e-03	
332	5.400000e-01	1.000000e+00	-4.004018e-03	
333	5.600000e-01	1.000000e+00	-4.036256e-03	
334	5.800000e-01	1.000000e+00	-4.066113e-03	
335	6.000000e-01	1.000000e+00	-4.093944e-03	
336	6.200000e-01	1.000000e+00	-4.120040e-03	
337	6.400000e-01	1.000000e+00	-4.144644e-03	
338	6.600000e-01	1.000000e+00	-4.167958e-03	
339	6.800000e-01	1.000000e+00	-4.190149e-03	
340	7.000000e-01	1.000000e+00	-4.211359e-03	
341	7.200000e-01	1.000000e+00	-4.231709e-03	
342	7.400000e-01	1.000000e+00	-4.251298e-03	
343	7.600000e-01	1.000000e+00	-4.270216e-03	
344	7.800000e-01	1.000000e+00	-4.288535e-03	

Index   v-sweep         v(1)            vds#branch      
--------------------------------------------------------------------------------
345	8.000000e-01	1.000000e+00	-4.306320e-03	
346	8.200000e-01	1.000000e+00	-4.323627e-03	
347	8.400000e-01	1.000000e+00	-4.340503e-03	
348	8.600000e-01	1.000000e+00	-4.356990e-03	
349	8.800000e-01	1.000000e+00	-4.373125e-03	
350	9.000000e-01	1.000000e+00	-4.388940e-03	
351	9.200000e-01	1.000000e+00	-4.404462e-03	
352	9.400000e-01	1.000000e+00	-4.419717e-03	
353	9.600000e-01	1.000000e+00	-4.434727e-03	
354	9.800000e-01	1.000000e+00	-4.449512e-03	
355	1.000000e+00	1.000000e+00	-4.464088e-03	
356	1.020000e+00	1.000000e+00	-4.478471e-03	
357	1.040000e+00	1.000000e+00	-4.492675e-03	
358	1.060000e+00	1.000000e+00	-4.506713e-03	
359	1.080000e+00	1.000000e+00	-4.520595e-03	
360	1.100000e+00	1.000000e+00	-4.534333e-03	
361	1.120000e+00	1.000000e+00	-4.547934e-03	
362	1.140000e+00	1.000000e+00	-4.561408e-03	
363	1.160000e+00	1.000000e+00	-4.574763e-03	
364	1.180000e+00	1.000000e+00	-4.588004e-03	
365	1.200000e+00	1.000000e+00	-4.601140e-03	
366	0.000000e+00	1.200000e+00	5.824272e-07	
367	2.000000e-02	1.200000e+00	-3.377460e-04	
368	4.000000e-02	1.200000e+00	-6.627295e-04	
369	6.000000e-02	1.200000e+00	-9.745993e-04	
370	8.000000e-02	1.200000e+00	-1.273586e-03	
371	1.000000e-01	1.200000e+00	-1.559916e-03	
372	1.200000e-01	1.200000e+00	-1.833811e-03	
373	1.400000e-01	1.200000e+00	-2.095492e-03	
374	1.600000e-01	1.200000e+00	-2.345174e-03	
375	1.800000e-01	1.200000e+00	-2.583072e-03	
376	2.000000e-01	1.200000e+00	-2.809396e-03	
377	2.200000e-01	1.200000e+00	-3.024358e-03	
378	2.400000e-01	1.200000e+00	-3.228166e-03	
379	2.600000e-01	1.200000e+00	-3.421033e-03	
380	2.800000e-01	1.200000e+00	-3.603169e-03	
381	3.000000e-01	1.200000e+00	-3.774789e-03	
382	3.200000e-01	1.200000e+00	-3.936115e-03	
383	3.400000e-01	1.200000e+00	-4.087373e-03	
384	3.600000e-01	1.200000e+00	-4.228802e-03	
385	3.800000e-01	1.200000e+00	-4.360655e-03	
386	4.000000e-01	1.200000e+00	-4.483206e-03	
387	4.200000e-01	1.200000e+00	-4.596754e-03	
388	4.400000e-01	1.200000e+00	-4.701632e-03	
389	4.600000e-01	1.200000e+00	-4.798217e-03	
390	4.800000e-01	1.200000e+00	-4.886934e-03	
391	5.000000e-01	1.200000e+00	-4.968264e-03	
392	5.200000e-01	1.200000e+00	-5.042742e-03	
393	5.400000e-01	1.200000e+00	-5.110948e-03	
394	5.600000e-01	1.200000e+00	-5.173485e-03	
395	5.800000e-01	1.200000e+00	-5.230955e-03	
396	6.000000e-01	1.200000e+00	-5.283927e-03	
397	6.200000e-01	1.200000e+00	-5.332924e-03	
398	6.400000e-01	1.200000e+00	-5.378413e-03	
399	6.600000e-01	1.200000e+00	-5.420804e-03	
400	6.800000e-01	1.200000e+00	-5.460459e-03	
401	7.000000e-01	1.200000e+00	-5.497695e-03	
402	7.200000e-01	1.200000e+00	-5.532787e-03	

Index   v-sweep         v(1)            vds#branch      
--------------------------------------------------------------------------------
403	7.400000e-01	1.200000e+00	-5.565979e-03	
404	7.600000e-01	1.200000e+00	-5.597485e-03	
405	7.800000e-01	1.200000e+00	-5.627489e-03	
406	8.000000e-01	1.200000e+00	-5.656155e-03	
407	8.200000e-01	1.200000e+00	-5.683625e-03	
408	8.400000e-01	1.200000e+00	-5.710024e-03	
409	8.600000e-01	1.200000e+00	-5.735462e-03	
410	8.800000e-01	1.200000e+00	-5.760034e-03	
411	9.000000e-01	1.200000e+00	-5.783825e-03	
