
No. of Data Rows : 343

Circuit: ** NMOSFET: Benchmarking Implementation of BSIM4.1.0 by Weidong Liu 10/11/2000.

Doing analysis at TEMP = 300.150000 and TNOM = 300.150000
Warning: This model is BSIM4.2.1; you specified a wrong version number.
** NMOSFET: Benchmarking Implementation of BSIM4.1.0 by Weidong Liu 10/11/2000.
--------------------------------------------------------------------------------
Index   v-sweep         v(2)            vds#branch      
--------------------------------------------------------------------------------
0	-6.000000e-01	1.000000e-01	-1.053433e-13	
1	-5.500000e-01	1.000000e-01	-1.053381e-13	
2	-5.000000e-01	1.000000e-01	-1.053381e-13	
3	-4.500000e-01	1.000000e-01	-1.053381e-13	
4	-4.000000e-01	1.000000e-01	-1.053381e-13	
5	-3.500000e-01	1.000000e-01	-1.053381e-13	
6	-3.000000e-01	1.000000e-01	-1.053381e-13	
7	-2.500000e-01	1.000000e-01	-1.053485e-13	
8	-2.000000e-01	1.000000e-01	-1.054319e-13	
9	-1.500000e-01	1.000000e-01	-1.058747e-13	
10	-1.000000e-01	1.000000e-01	-1.083179e-13	
11	-5.000000e-02	1.000000e-01	-1.219093e-13	
12	-6.938894e-17	1.000000e-01	-1.973730e-13	
13	5.000000e-02	1.000000e-01	-6.162787e-13	
14	1.000000e-01	1.000000e-01	-2.935115e-12	
15	1.500000e-01	1.000000e-01	-1.566228e-11	
16	2.000000e-01	1.000000e-01	-8.495561e-11	
17	2.500000e-01	1.000000e-01	-4.587771e-10	
18	3.000000e-01	1.000000e-01	-2.451491e-09	
19	3.500000e-01	1.000000e-01	-1.288139e-08	
20	4.000000e-01	1.000000e-01	-6.576226e-08	
21	4.500000e-01	1.000000e-01	-3.189860e-07	
22	5.000000e-01	1.000000e-01	-1.423874e-06	
23	5.500000e-01	1.000000e-01	-5.700334e-06	
24	6.000000e-01	1.000000e-01	-2.028107e-05	
25	6.500000e-01	1.000000e-01	-6.115463e-05	
26	7.000000e-01	1.000000e-01	-1.401421e-04	
27	7.500000e-01	1.000000e-01	-2.381533e-04	
28	8.000000e-01	1.000000e-01	-3.288473e-04	
29	8.500000e-01	1.000000e-01	-4.039628e-04	
30	9.000000e-01	1.000000e-01	-4.656110e-04	
31	9.500000e-01	1.000000e-01	-5.175148e-04	
32	1.000000e+00	1.000000e-01	-5.624409e-04	
33	1.050000e+00	1.000000e-01	-6.021255e-04	
34	1.100000e+00	1.000000e-01	-6.376387e-04	
35	1.150000e+00	1.000000e-01	-6.696726e-04	
36	1.200000e+00	1.000000e-01	-6.987096e-04	
37	1.250000e+00	1.000000e-01	-7.251131e-04	
38	1.300000e+00	1.000000e-01	-7.491736e-04	
39	1.350000e+00	1.000000e-01	-7.711336e-04	
40	1.400000e+00	1.000000e-01	-7.912009e-04	
41	1.450000e+00	1.000000e-01	-8.095565e-04	
42	1.500000e+00	1.000000e-01	-8.263597e-04	
43	1.550000e+00	1.000000e-01	-8.417513e-04	
44	1.600000e+00	1.000000e-01	-8.558569e-04	
45	1.650000e+00	1.000000e-01	-8.687883e-04	
46	1.700000e+00	1.000000e-01	-8.806458e-04	
47	1.750000e+00	1.000000e-01	-8.915195e-04	
48	1.800000e+00	1.000000e-01	-9.014901e-04	
49	-6.000000e-01	4.000000e-01	-4.054948e-13	
50	-5.500000e-01	4.000000e-01	-4.054948e-13	
51	-5.000000e-01	4.000000e-01	-4.054948e-13	
52	-4.500000e-01	4.000000e-01	-4.054948e-13	
53	-4.000000e-01	4.000000e-01	-4.054532e-13	
54	-3.500000e-01	4.000000e-01	-4.054948e-13	

Index   v-sweep         v(2)            vds#branch      
--------------------------------------------------------------------------------
55	-3.000000e-01	4.000000e-01	-4.054948e-13	
56	-2.500000e-01	4.000000e-01	-4.055157e-13	
57	-2.000000e-01	4.000000e-01	-4.056615e-13	
58	-1.500000e-01	4.000000e-01	-4.065992e-13	
59	-1.000000e-01	4.000000e-01	-4.119337e-13	
60	-5.000000e-02	4.000000e-01	-4.413774e-13	
61	-6.938894e-17	4.000000e-01	-6.048909e-13	
62	5.000000e-02	4.000000e-01	-1.512686e-12	
63	1.000000e-01	4.000000e-01	-6.537512e-12	
64	1.500000e-01	4.000000e-01	-3.411507e-11	
65	2.000000e-01	4.000000e-01	-1.842403e-10	
66	2.500000e-01	4.000000e-01	-9.938581e-10	
67	3.000000e-01	4.000000e-01	-5.306233e-09	
68	3.500000e-01	4.000000e-01	-2.783546e-08	
69	4.000000e-01	4.000000e-01	-1.415694e-07	
70	4.500000e-01	4.000000e-01	-6.807869e-07	
71	5.000000e-01	4.000000e-01	-2.979872e-06	
72	5.500000e-01	4.000000e-01	-1.142584e-05	
73	6.000000e-01	4.000000e-01	-3.754208e-05	
74	6.500000e-01	4.000000e-01	-1.032227e-04	
75	7.000000e-01	4.000000e-01	-2.278934e-04	
76	7.500000e-01	4.000000e-01	-4.015783e-04	
77	8.000000e-01	4.000000e-01	-5.934894e-04	
78	8.500000e-01	4.000000e-01	-7.823530e-04	
79	9.000000e-01	4.000000e-01	-9.620082e-04	
80	9.500000e-01	4.000000e-01	-1.132967e-03	
81	1.000000e+00	4.000000e-01	-1.296641e-03	
82	1.050000e+00	4.000000e-01	-1.453594e-03	
83	1.100000e+00	4.000000e-01	-1.603554e-03	
84	1.150000e+00	4.000000e-01	-1.745888e-03	
85	1.200000e+00	4.000000e-01	-1.880044e-03	
86	1.250000e+00	4.000000e-01	-2.005773e-03	
87	1.300000e+00	4.000000e-01	-2.123140e-03	
88	1.350000e+00	4.000000e-01	-2.232442e-03	
89	1.400000e+00	4.000000e-01	-2.334105e-03	
90	1.450000e+00	4.000000e-01	-2.428616e-03	
91	1.500000e+00	4.000000e-01	-2.516468e-03	
92	1.550000e+00	4.000000e-01	-2.598145e-03	
93	1.600000e+00	4.000000e-01	-2.674103e-03	
94	1.650000e+00	4.000000e-01	-2.744766e-03	
95	1.700000e+00	4.000000e-01	-2.810528e-03	
96	1.750000e+00	4.000000e-01	-2.871749e-03	
97	1.800000e+00	4.000000e-01	-2.928762e-03	
98	-6.000000e-01	7.000000e-01	-7.054953e-13	
99	-5.500000e-01	7.000000e-01	-7.054953e-13	
100	-5.000000e-01	7.000000e-01	-7.054953e-13	
101	-4.500000e-01	7.000000e-01	-7.054953e-13	
102	-4.000000e-01	7.000000e-01	-7.054953e-13	
103	-3.500000e-01	7.000000e-01	-7.054953e-13	
104	-3.000000e-01	7.000000e-01	-7.054953e-13	
105	-2.500000e-01	7.000000e-01	-7.055370e-13	
106	-2.000000e-01	7.000000e-01	-7.058287e-13	
107	-1.500000e-01	7.000000e-01	-7.075374e-13	
108	-1.000000e-01	7.000000e-01	-7.167060e-13	
109	-5.000000e-02	7.000000e-01	-7.676750e-13	
110	-6.938894e-17	7.000000e-01	-1.050985e-12	
111	5.000000e-02	7.000000e-01	-2.623356e-12	
112	1.000000e-01	7.000000e-01	-1.132668e-11	

Index   v-sweep         v(2)            vds#branch      
--------------------------------------------------------------------------------
113	1.500000e-01	7.000000e-01	-5.908992e-11	
114	2.000000e-01	7.000000e-01	-3.190605e-10	
115	2.500000e-01	7.000000e-01	-1.720559e-09	
116	3.000000e-01	7.000000e-01	-9.179210e-09	
117	3.500000e-01	7.000000e-01	-4.806947e-08	
118	4.000000e-01	7.000000e-01	-2.435405e-07	
119	4.500000e-01	7.000000e-01	-1.161624e-06	
120	5.000000e-01	7.000000e-01	-5.002322e-06	
121	5.500000e-01	7.000000e-01	-1.859566e-05	
122	6.000000e-01	7.000000e-01	-5.786487e-05	
123	6.500000e-01	7.000000e-01	-1.473895e-04	
124	7.000000e-01	7.000000e-01	-3.013082e-04	
125	7.500000e-01	7.000000e-01	-5.010569e-04	
126	8.000000e-01	7.000000e-01	-7.135553e-04	
127	8.500000e-01	7.000000e-01	-9.197979e-04	
128	9.000000e-01	7.000000e-01	-1.116080e-03	
129	9.500000e-01	7.000000e-01	-1.304641e-03	
130	1.000000e+00	7.000000e-01	-1.488276e-03	
131	1.050000e+00	7.000000e-01	-1.668871e-03	
132	1.100000e+00	7.000000e-01	-1.847404e-03	
133	1.150000e+00	7.000000e-01	-2.024250e-03	
134	1.200000e+00	7.000000e-01	-2.199432e-03	
135	1.250000e+00	7.000000e-01	-2.372780e-03	
136	1.300000e+00	7.000000e-01	-2.544013e-03	
137	1.350000e+00	7.000000e-01	-2.712775e-03	
138	1.400000e+00	7.000000e-01	-2.878655e-03	
139	1.450000e+00	7.000000e-01	-3.041176e-03	
140	1.500000e+00	7.000000e-01	-3.199804e-03	
141	1.550000e+00	7.000000e-01	-3.353951e-03	
142	1.600000e+00	7.000000e-01	-3.503005e-03	
143	1.650000e+00	7.000000e-01	-3.646371e-03	
144	1.700000e+00	7.000000e-01	-3.783536e-03	
145	1.750000e+00	7.000000e-01	-3.914128e-03	
146	1.800000e+00	7.000000e-01	-4.037949e-03	
147	-6.000000e-01	1.000000e+00	-1.068062e-11	
148	-5.500000e-01	1.000000e+00	-2.883147e-12	
149	-5.000000e-01	1.000000e+00	-1.295189e-12	
150	-4.500000e-01	1.000000e+00	-1.039218e-12	
151	-4.000000e-01	1.000000e+00	-1.008253e-12	
152	-3.500000e-01	1.000000e+00	-1.005586e-12	
153	-3.000000e-01	1.000000e+00	-1.005544e-12	
154	-2.500000e-01	1.000000e+00	-1.005503e-12	
155	-2.000000e-01	1.000000e+00	-1.006086e-12	
156	-1.500000e-01	1.000000e+00	-1.008670e-12	
157	-1.000000e-01	1.000000e+00	-1.023048e-12	
158	-5.000000e-02	1.000000e+00	-1.103190e-12	
159	-6.938894e-17	1.000000e+00	-1.548617e-12	
160	5.000000e-02	1.000000e+00	-4.020302e-12	
161	1.000000e-01	1.000000e+00	-1.770130e-11	
162	1.500000e-01	1.000000e+00	-9.277598e-11	
163	2.000000e-01	1.000000e+00	-5.013315e-10	
164	2.500000e-01	1.000000e+00	-2.702982e-09	
165	3.000000e-01	1.000000e+00	-1.440923e-08	
166	3.500000e-01	1.000000e+00	-7.531919e-08	
167	4.000000e-01	1.000000e+00	-3.800563e-07	
168	4.500000e-01	1.000000e+00	-1.797766e-06	
169	5.000000e-01	1.000000e+00	-7.622615e-06	
170	5.500000e-01	1.000000e+00	-2.759125e-05	

Index   v-sweep         v(2)            vds#branch      
--------------------------------------------------------------------------------
171	6.000000e-01	1.000000e+00	-8.227247e-05	
172	6.500000e-01	1.000000e+00	-1.978281e-04	
173	7.000000e-01	1.000000e+00	-3.813993e-04	
174	7.500000e-01	1.000000e+00	-6.058360e-04	
175	8.000000e-01	1.000000e+00	-8.364798e-04	
176	8.500000e-01	1.000000e+00	-1.056653e-03	
177	9.000000e-01	1.000000e+00	-1.264685e-03	
178	9.500000e-01	1.000000e+00	-1.463874e-03	
179	1.000000e+00	1.000000e+00	-1.657517e-03	
180	1.050000e+00	1.000000e+00	-1.847764e-03	
181	1.100000e+00	1.000000e+00	-2.035778e-03	
182	1.150000e+00	1.000000e+00	-2.222091e-03	
183	1.200000e+00	1.000000e+00	-2.406884e-03	
184	1.250000e+00	1.000000e+00	-2.590164e-03	
185	1.300000e+00	1.000000e+00	-2.771852e-03	
186	1.350000e+00	1.000000e+00	-2.951839e-03	
187	1.400000e+00	1.000000e+00	-3.130008e-03	
188	1.450000e+00	1.000000e+00	-3.306241e-03	
189	1.500000e+00	1.000000e+00	-3.480428e-03	
190	1.550000e+00	1.000000e+00	-3.652463e-03	
191	1.600000e+00	1.000000e+00	-3.822242e-03	
192	1.650000e+00	1.000000e+00	-3.989659e-03	
193	1.700000e+00	1.000000e+00	-4.154604e-03	
194	1.750000e+00	1.000000e+00	-4.316957e-03	
195	1.800000e+00	1.000000e+00	-4.476584e-03	
196	-6.000000e-01	1.300000e+00	-8.362057e-09	
197	-5.500000e-01	1.300000e+00	-3.522663e-09	
198	-5.000000e-01	1.300000e+00	-1.364808e-09	
199	-4.500000e-01	1.300000e+00	-4.803444e-10	
200	-4.000000e-01	1.300000e+00	-1.515782e-10	
201	-3.500000e-01	1.300000e+00	-4.256986e-11	
202	-3.000000e-01	1.300000e+00	-1.098164e-11	
203	-2.500000e-01	1.300000e+00	-3.183585e-12	
204	-2.000000e-01	1.300000e+00	-1.596002e-12	
205	-1.500000e-01	1.300000e+00	-1.343949e-12	
206	-1.000000e-01	1.300000e+00	-1.334364e-12	
207	-5.000000e-02	1.300000e+00	-1.450888e-12	
208	-6.938894e-17	1.300000e+00	-2.111777e-12	
209	5.000000e-02	1.300000e+00	-5.781464e-12	
210	1.000000e-01	1.300000e+00	-2.609215e-11	
211	1.500000e-01	1.300000e+00	-1.375391e-10	
212	2.000000e-01	1.300000e+00	-7.439221e-10	
213	2.500000e-01	1.300000e+00	-4.010241e-09	
214	3.000000e-01	1.300000e+00	-2.136013e-08	
215	3.500000e-01	1.300000e+00	-1.114317e-07	
216	4.000000e-01	1.300000e+00	-5.598558e-07	
217	4.500000e-01	1.300000e+00	-2.625414e-06	
218	5.000000e-01	1.300000e+00	-1.096026e-05	
219	5.500000e-01	1.300000e+00	-3.868935e-05	
220	6.000000e-01	1.300000e+00	-1.111308e-04	
221	6.500000e-01	1.300000e+00	-2.547165e-04	
222	7.000000e-01	1.300000e+00	-4.681946e-04	
223	7.500000e-01	1.300000e+00	-7.164101e-04	
224	8.000000e-01	1.300000e+00	-9.641340e-04	
225	8.500000e-01	1.300000e+00	-1.197288e-03	
226	9.000000e-01	1.300000e+00	-1.416169e-03	
227	9.500000e-01	1.300000e+00	-1.625032e-03	
228	1.000000e+00	1.300000e+00	-1.827599e-03	

Index   v-sweep         v(2)            vds#branch      
--------------------------------------------------------------------------------
229	1.050000e+00	1.300000e+00	-2.026225e-03	
230	1.100000e+00	1.300000e+00	-2.222192e-03	
231	1.150000e+00	1.300000e+00	-2.416116e-03	
232	1.200000e+00	1.300000e+00	-2.608248e-03	
233	1.250000e+00	1.300000e+00	-2.798652e-03	
234	1.300000e+00	1.300000e+00	-2.987304e-03	
235	1.350000e+00	1.300000e+00	-3.174144e-03	
236	1.400000e+00	1.300000e+00	-3.359105e-03	
237	1.450000e+00	1.300000e+00	-3.542117e-03	
238	1.500000e+00	1.300000e+00	-3.723120e-03	
239	1.550000e+00	1.300000e+00	-3.902063e-03	
240	1.600000e+00	1.300000e+00	-4.078901e-03	
241	1.650000e+00	1.300000e+00	-4.253596e-03	
242	1.700000e+00	1.300000e+00	-4.426116e-03	
243	1.750000e+00	1.300000e+00	-4.596436e-03	
244	1.800000e+00	1.300000e+00	-4.764530e-03	
245	-6.000000e-01	1.600000e+00	-4.226580e-07	
246	-5.500000e-01	1.600000e+00	-2.472012e-07	
247	-5.000000e-01	1.600000e+00	-1.389354e-07	
248	-4.500000e-01	1.600000e+00	-7.468366e-08	
249	-4.000000e-01	1.600000e+00	-3.818570e-08	
250	-3.500000e-01	1.600000e+00	-1.845185e-08	
251	-3.000000e-01	1.600000e+00	-8.362710e-09	
252	-2.500000e-01	1.600000e+00	-3.523112e-09	
253	-2.000000e-01	1.600000e+00	-1.365167e-09	
254	-1.500000e-01	1.600000e+00	-4.806715e-10	
255	-1.000000e-01	1.600000e+00	-1.519221e-10	
256	-5.000000e-02	1.600000e+00	-4.308002e-11	
257	-6.938894e-17	1.600000e+00	-1.243917e-11	
258	5.000000e-02	1.600000e+00	-9.905719e-12	
259	1.000000e-01	1.600000e+00	-3.745917e-11	
260	1.500000e-01	1.600000e+00	-1.970888e-10	
261	2.000000e-01	1.600000e+00	-1.066824e-09	
262	2.500000e-01	1.600000e+00	-5.749703e-09	
263	3.000000e-01	1.600000e+00	-3.059731e-08	
264	3.500000e-01	1.600000e+00	-1.592793e-07	
265	4.000000e-01	1.600000e+00	-7.965616e-07	
266	4.500000e-01	1.600000e+00	-3.701435e-06	
267	5.000000e-01	1.600000e+00	-1.520705e-05	
268	5.500000e-01	1.600000e+00	-5.235816e-05	
269	6.000000e-01	1.600000e+00	-1.451572e-04	
270	6.500000e-01	1.600000e+00	-3.186603e-04	
271	7.000000e-01	1.600000e+00	-5.619764e-04	
272	7.500000e-01	1.600000e+00	-8.328801e-04	
273	8.000000e-01	1.600000e+00	-1.096629e-03	
274	8.500000e-01	1.600000e+00	-1.341967e-03	
275	9.000000e-01	1.600000e+00	-1.571068e-03	
276	9.500000e-01	1.600000e+00	-1.789050e-03	
277	1.000000e+00	1.600000e+00	-2.000003e-03	
278	1.050000e+00	1.600000e+00	-2.206459e-03	
279	1.100000e+00	1.600000e+00	-2.409800e-03	
280	1.150000e+00	1.600000e+00	-2.610715e-03	
281	1.200000e+00	1.600000e+00	-2.809511e-03	
282	1.250000e+00	1.600000e+00	-3.006300e-03	
283	1.300000e+00	1.600000e+00	-3.201100e-03	
284	1.350000e+00	1.600000e+00	-3.393887e-03	
285	1.400000e+00	1.600000e+00	-3.584623e-03	
286	1.450000e+00	1.600000e+00	-3.773270e-03	

Index   v-sweep         v(2)            vds#branch      
--------------------------------------------------------------------------------
287	1.500000e+00	1.600000e+00	-3.959792e-03	
288	1.550000e+00	1.600000e+00	-4.144159e-03	
289	1.600000e+00	1.600000e+00	-4.326348e-03	
290	1.650000e+00	1.600000e+00	-4.506343e-03	
291	1.700000e+00	1.600000e+00	-4.684132e-03	
292	1.750000e+00	1.600000e+00	-4.859708e-03	
293	1.800000e+00	1.600000e+00	-5.033067e-03	
294	-6.000000e-01	1.900000e+00	-5.558005e-06	
295	-5.500000e-01	1.900000e+00	-3.851706e-06	
296	-5.000000e-01	1.900000e+00	-2.611205e-06	
297	-4.500000e-01	1.900000e+00	-1.728116e-06	
298	-4.000000e-01	1.900000e+00	-1.113828e-06	
299	-3.500000e-01	1.900000e+00	-6.972779e-07	
300	-3.000000e-01	1.900000e+00	-4.226666e-07	
301	-2.500000e-01	1.900000e+00	-2.472064e-07	
302	-2.000000e-01	1.900000e+00	-1.389384e-07	
303	-1.500000e-01	1.900000e+00	-7.468544e-08	
304	-1.000000e-01	1.900000e+00	-3.818681e-08	
305	-5.000000e-02	1.900000e+00	-1.845283e-08	
306	-6.938894e-17	1.900000e+00	-8.364950e-09	
307	5.000000e-02	1.900000e+00	-3.533341e-09	
308	1.000000e-01	1.900000e+00	-1.421838e-09	
309	1.500000e-01	1.900000e+00	-7.845400e-10	
310	2.000000e-01	1.900000e+00	-1.790119e-09	
311	2.500000e-01	1.900000e+00	-8.863329e-09	
312	3.000000e-01	1.900000e+00	-4.690228e-08	
313	3.500000e-01	1.900000e+00	-2.435373e-07	
314	4.000000e-01	1.900000e+00	-1.211761e-06	
315	4.500000e-01	1.900000e+00	-5.573477e-06	
316	5.000000e-01	1.900000e+00	-2.247346e-05	
317	5.500000e-01	1.900000e+00	-7.497425e-05	
318	6.000000e-01	1.900000e+00	-1.981604e-04	
319	6.500000e-01	1.900000e+00	-4.103613e-04	
320	7.000000e-01	1.900000e+00	-6.857577e-04	
321	7.500000e-01	1.900000e+00	-9.766406e-04	
322	8.000000e-01	1.900000e+00	-1.252229e-03	
323	8.500000e-01	1.900000e+00	-1.505707e-03	
324	9.000000e-01	1.900000e+00	-1.741495e-03	
325	9.500000e-01	1.900000e+00	-1.965576e-03	
326	1.000000e+00	1.900000e+00	-2.182350e-03	
327	1.050000e+00	1.900000e+00	-2.394460e-03	
328	1.100000e+00	1.900000e+00	-2.603335e-03	
329	1.150000e+00	1.900000e+00	-2.809686e-03	
330	1.200000e+00	1.900000e+00	-3.013829e-03	
331	1.250000e+00	1.900000e+00	-3.215879e-03	
332	1.300000e+00	1.900000e+00	-3.415853e-03	
333	1.350000e+00	1.900000e+00	-3.613727e-03	
334	1.400000e+00	1.900000e+00	-3.809463e-03	
335	1.450000e+00	1.900000e+00	-4.003020e-03	
336	1.500000e+00	1.900000e+00	-4.194367e-03	
337	1.550000e+00	1.900000e+00	-4.383475e-03	
338	1.600000e+00	1.900000e+00	-4.570328e-03	
339	1.650000e+00	1.900000e+00	-4.754912e-03	
340	1.700000e+00	1.900000e+00	-4.937223e-03	
341	1.750000e+00	1.900000e+00	-5.117262e-03	
342	1.800000e+00	1.900000e+00	-5.295033e-03	




