
Circuit: ** PMOSFET: Benchmarking Implementation of BSIM4 by Jane Xi 05/09/2003.

Doing analysis at TEMP = 218.150000 and TNOM = 300.150000
Warning: toxe, toxp and dtox all given and toxe != toxp + dtox; dtox ignored.
    ** PMOSFET: Benchmarking Implementation of BSIM4 by Jane Xi 05/09/2003.
    DC transfer characteristic  Sat Aug 27 16:00:47  2005
--------------------------------------------------------------------------------
Index   v-sweep         v(1)            vds#branch      
--------------------------------------------------------------------------------
0	0.000000e+00	0.000000e+00	1.095494e-49	
1	-2.000000e-02	0.000000e+00	2.424980e-12	
2	-4.000000e-02	0.000000e+00	3.341863e-12	
3	-6.000000e-02	0.000000e+00	3.779162e-12	
4	-8.000000e-02	0.000000e+00	4.104533e-12	
5	-1.000000e-01	0.000000e+00	4.408802e-12	
6	-1.200000e-01	0.000000e+00	4.718072e-12	
7	-1.400000e-01	0.000000e+00	5.042663e-12	
8	-1.600000e-01	0.000000e+00	5.388304e-12	
9	-1.800000e-01	0.000000e+00	5.759230e-12	
10	-2.000000e-01	0.000000e+00	6.159223e-12	
11	-2.200000e-01	0.000000e+00	6.592031e-12	
12	-2.400000e-01	0.000000e+00	7.061558e-12	
13	-2.600000e-01	0.000000e+00	7.571978e-12	
14	-2.800000e-01	0.000000e+00	8.127803e-12	
15	-3.000000e-01	0.000000e+00	8.733947e-12	
16	-3.200000e-01	0.000000e+00	9.395773e-12	
17	-3.400000e-01	0.000000e+00	1.011914e-11	
18	-3.600000e-01	0.000000e+00	1.091047e-11	
19	-3.800000e-01	0.000000e+00	1.177676e-11	
20	-4.000000e-01	0.000000e+00	1.272569e-11	
21	-4.200000e-01	0.000000e+00	1.376564e-11	
22	-4.400000e-01	0.000000e+00	1.490577e-11	
23	-4.600000e-01	0.000000e+00	1.615610e-11	
24	-4.800000e-01	0.000000e+00	1.752755e-11	
25	-5.000000e-01	0.000000e+00	1.903203e-11	
26	-5.200000e-01	0.000000e+00	2.068256e-11	
27	-5.400000e-01	0.000000e+00	2.249330e-11	
28	-5.600000e-01	0.000000e+00	2.447969e-11	
29	-5.800000e-01	0.000000e+00	2.665855e-11	
30	-6.000000e-01	0.000000e+00	2.904818e-11	
31	-6.200000e-01	0.000000e+00	3.166849e-11	
32	-6.400000e-01	0.000000e+00	3.454114e-11	
33	-6.600000e-01	0.000000e+00	3.768967e-11	
34	-6.800000e-01	0.000000e+00	4.113968e-11	
35	-7.000000e-01	0.000000e+00	4.491894e-11	
36	-7.200000e-01	0.000000e+00	4.905766e-11	
37	-7.400000e-01	0.000000e+00	5.358859e-11	
38	-7.600000e-01	0.000000e+00	5.854731e-11	
39	-7.800000e-01	0.000000e+00	6.397242e-11	
40	-8.000000e-01	0.000000e+00	6.990580e-11	
41	-8.200000e-01	0.000000e+00	7.639286e-11	
42	-8.400000e-01	0.000000e+00	8.348289e-11	
43	-8.600000e-01	0.000000e+00	9.122932e-11	
44	-8.800000e-01	0.000000e+00	9.969011e-11	
45	-9.000000e-01	0.000000e+00	1.089281e-10	
46	-9.200000e-01	0.000000e+00	1.190114e-10	
47	-9.400000e-01	0.000000e+00	1.300140e-10	
48	-9.600000e-01	0.000000e+00	1.420161e-10	
49	-9.800000e-01	0.000000e+00	1.551046e-10	
50	-1.000000e+00	0.000000e+00	1.693739e-10	
51	-1.020000e+00	0.000000e+00	1.849266e-10	
52	-1.040000e+00	0.000000e+00	2.018738e-10	
53	-1.060000e+00	0.000000e+00	2.203364e-10	
54	-1.080000e+00	0.000000e+00	2.404458e-10	

Index   v-sweep         v(1)            vds#branch      
--------------------------------------------------------------------------------
55	-1.100000e+00	0.000000e+00	2.623446e-10	
56	-1.120000e+00	0.000000e+00	2.861883e-10	
57	-1.140000e+00	0.000000e+00	3.121461e-10	
58	-1.160000e+00	0.000000e+00	3.404037e-10	
59	-1.180000e+00	0.000000e+00	3.711702e-10	
60	-1.200000e+00	0.000000e+00	4.046981e-10	
61	0.000000e+00	-3.000000e-01	-5.434469e-14	
62	-2.000000e-02	-3.000000e-01	1.622592e-07	
63	-4.000000e-02	-3.000000e-01	2.184512e-07	
64	-6.000000e-02	-3.000000e-01	2.392884e-07	
65	-8.000000e-02	-3.000000e-01	2.508683e-07	
66	-1.000000e-01	-3.000000e-01	2.596405e-07	
67	-1.200000e-01	-3.000000e-01	2.673529e-07	
68	-1.400000e-01	-3.000000e-01	2.745908e-07	
69	-1.600000e-01	-3.000000e-01	2.815900e-07	
70	-1.800000e-01	-3.000000e-01	2.884595e-07	
71	-2.000000e-01	-3.000000e-01	2.952556e-07	
72	-2.200000e-01	-3.000000e-01	3.020099e-07	
73	-2.400000e-01	-3.000000e-01	3.087414e-07	
74	-2.600000e-01	-3.000000e-01	3.154618e-07	
75	-2.800000e-01	-3.000000e-01	3.221793e-07	
76	-3.000000e-01	-3.000000e-01	3.288991e-07	
77	-3.200000e-01	-3.000000e-01	3.356251e-07	
78	-3.400000e-01	-3.000000e-01	3.423600e-07	
79	-3.600000e-01	-3.000000e-01	3.491060e-07	
80	-3.800000e-01	-3.000000e-01	3.558645e-07	
81	-4.000000e-01	-3.000000e-01	3.626366e-07	
82	-4.200000e-01	-3.000000e-01	3.694233e-07	
83	-4.400000e-01	-3.000000e-01	3.762253e-07	
84	-4.600000e-01	-3.000000e-01	3.830430e-07	
85	-4.800000e-01	-3.000000e-01	3.898770e-07	
86	-5.000000e-01	-3.000000e-01	3.967274e-07	
87	-5.200000e-01	-3.000000e-01	4.035947e-07	
88	-5.400000e-01	-3.000000e-01	4.104789e-07	
89	-5.600000e-01	-3.000000e-01	4.173802e-07	
90	-5.800000e-01	-3.000000e-01	4.242987e-07	
91	-6.000000e-01	-3.000000e-01	4.312345e-07	
92	-6.200000e-01	-3.000000e-01	4.381876e-07	
93	-6.400000e-01	-3.000000e-01	4.451581e-07	
94	-6.600000e-01	-3.000000e-01	4.521461e-07	
95	-6.800000e-01	-3.000000e-01	4.591514e-07	
96	-7.000000e-01	-3.000000e-01	4.661742e-07	
97	-7.200000e-01	-3.000000e-01	4.732144e-07	
98	-7.400000e-01	-3.000000e-01	4.802720e-07	
99	-7.600000e-01	-3.000000e-01	4.873471e-07	
100	-7.800000e-01	-3.000000e-01	4.944395e-07	
101	-8.000000e-01	-3.000000e-01	5.015495e-07	
102	-8.200000e-01	-3.000000e-01	5.086768e-07	
103	-8.400000e-01	-3.000000e-01	5.158217e-07	
104	-8.600000e-01	-3.000000e-01	5.229841e-07	
105	-8.800000e-01	-3.000000e-01	5.301641e-07	
106	-9.000000e-01	-3.000000e-01	5.373618e-07	
107	-9.200000e-01	-3.000000e-01	5.445773e-07	
108	-9.400000e-01	-3.000000e-01	5.518107e-07	
109	-9.600000e-01	-3.000000e-01	5.590621e-07	
110	-9.800000e-01	-3.000000e-01	5.663318e-07	
111	-1.000000e+00	-3.000000e-01	5.736198e-07	
112	-1.020000e+00	-3.000000e-01	5.809265e-07	

Index   v-sweep         v(1)            vds#branch      
--------------------------------------------------------------------------------
113	-1.040000e+00	-3.000000e-01	5.882520e-07	
114	-1.060000e+00	-3.000000e-01	5.955967e-07	
115	-1.080000e+00	-3.000000e-01	6.029608e-07	
116	-1.100000e+00	-3.000000e-01	6.103448e-07	
117	-1.120000e+00	-3.000000e-01	6.177491e-07	
118	-1.140000e+00	-3.000000e-01	6.251741e-07	
119	-1.160000e+00	-3.000000e-01	6.326203e-07	
120	-1.180000e+00	-3.000000e-01	6.400885e-07	
121	-1.200000e+00	-3.000000e-01	6.475792e-07	
122	0.000000e+00	-6.000000e-01	-1.823767e-12	
123	-2.000000e-02	-6.000000e-01	4.532263e-05	
124	-4.000000e-02	-6.000000e-01	8.225115e-05	
125	-6.000000e-02	-6.000000e-01	1.111333e-04	
126	-8.000000e-02	-6.000000e-01	1.325175e-04	
127	-1.000000e-01	-6.000000e-01	1.473157e-04	
128	-1.200000e-01	-6.000000e-01	1.569173e-04	
129	-1.400000e-01	-6.000000e-01	1.629947e-04	
130	-1.600000e-01	-6.000000e-01	1.670116e-04	
131	-1.800000e-01	-6.000000e-01	1.699239e-04	
132	-2.000000e-01	-6.000000e-01	1.722501e-04	
133	-2.200000e-01	-6.000000e-01	1.742522e-04	
134	-2.400000e-01	-6.000000e-01	1.760639e-04	
135	-2.600000e-01	-6.000000e-01	1.777561e-04	
136	-2.800000e-01	-6.000000e-01	1.793691e-04	
137	-3.000000e-01	-6.000000e-01	1.809268e-04	
138	-3.200000e-01	-6.000000e-01	1.824443e-04	
139	-3.400000e-01	-6.000000e-01	1.839317e-04	
140	-3.600000e-01	-6.000000e-01	1.853956e-04	
141	-3.800000e-01	-6.000000e-01	1.868411e-04	
142	-4.000000e-01	-6.000000e-01	1.882717e-04	
143	-4.200000e-01	-6.000000e-01	1.896902e-04	
144	-4.400000e-01	-6.000000e-01	1.910985e-04	
145	-4.600000e-01	-6.000000e-01	1.924985e-04	
146	-4.800000e-01	-6.000000e-01	1.938913e-04	
147	-5.000000e-01	-6.000000e-01	1.952781e-04	
148	-5.200000e-01	-6.000000e-01	1.966598e-04	
149	-5.400000e-01	-6.000000e-01	1.980370e-04	
150	-5.600000e-01	-6.000000e-01	1.994105e-04	
151	-5.800000e-01	-6.000000e-01	2.007807e-04	
152	-6.000000e-01	-6.000000e-01	2.021480e-04	
153	-6.200000e-01	-6.000000e-01	2.035129e-04	
154	-6.400000e-01	-6.000000e-01	2.048757e-04	
155	-6.600000e-01	-6.000000e-01	2.062367e-04	
156	-6.800000e-01	-6.000000e-01	2.075961e-04	
157	-7.000000e-01	-6.000000e-01	2.089541e-04	
158	-7.200000e-01	-6.000000e-01	2.103109e-04	
159	-7.400000e-01	-6.000000e-01	2.116668e-04	
160	-7.600000e-01	-6.000000e-01	2.130218e-04	
161	-7.800000e-01	-6.000000e-01	2.143761e-04	
162	-8.000000e-01	-6.000000e-01	2.157299e-04	
163	-8.200000e-01	-6.000000e-01	2.170832e-04	
164	-8.400000e-01	-6.000000e-01	2.184361e-04	
165	-8.600000e-01	-6.000000e-01	2.197887e-04	
166	-8.800000e-01	-6.000000e-01	2.211412e-04	
167	-9.000000e-01	-6.000000e-01	2.224937e-04	
168	-9.200000e-01	-6.000000e-01	2.238461e-04	
169	-9.400000e-01	-6.000000e-01	2.251986e-04	
170	-9.600000e-01	-6.000000e-01	2.265514e-04	

Index   v-sweep         v(1)            vds#branch      
--------------------------------------------------------------------------------
171	-9.800000e-01	-6.000000e-01	2.279044e-04	
172	-1.000000e+00	-6.000000e-01	2.292577e-04	
173	-1.020000e+00	-6.000000e-01	2.306115e-04	
174	-1.040000e+00	-6.000000e-01	2.319658e-04	
175	-1.060000e+00	-6.000000e-01	2.333207e-04	
176	-1.080000e+00	-6.000000e-01	2.346764e-04	
177	-1.100000e+00	-6.000000e-01	2.360329e-04	
178	-1.120000e+00	-6.000000e-01	2.373903e-04	
179	-1.140000e+00	-6.000000e-01	2.387488e-04	
180	-1.160000e+00	-6.000000e-01	2.401085e-04	
181	-1.180000e+00	-6.000000e-01	2.414695e-04	
182	-1.200000e+00	-6.000000e-01	2.428319e-04	
183	0.000000e+00	-9.000000e-01	-2.858859e-11	
184	-2.000000e-02	-9.000000e-01	1.300046e-04	
185	-4.000000e-02	-9.000000e-01	2.513771e-04	
186	-6.000000e-02	-9.000000e-01	3.642232e-04	
187	-8.000000e-02	-9.000000e-01	4.686506e-04	
188	-1.000000e-01	-9.000000e-01	5.647701e-04	
189	-1.200000e-01	-9.000000e-01	6.526976e-04	
190	-1.400000e-01	-9.000000e-01	7.325570e-04	
191	-1.600000e-01	-9.000000e-01	8.044848e-04	
192	-1.800000e-01	-9.000000e-01	8.686371e-04	
193	-2.000000e-01	-9.000000e-01	9.252000e-04	
194	-2.200000e-01	-9.000000e-01	9.744070e-04	
195	-2.400000e-01	-9.000000e-01	1.016563e-03	
196	-2.600000e-01	-9.000000e-01	1.052076e-03	
197	-2.800000e-01	-9.000000e-01	1.081497e-03	
198	-3.000000e-01	-9.000000e-01	1.105540e-03	
199	-3.200000e-01	-9.000000e-01	1.125067e-03	
200	-3.400000e-01	-9.000000e-01	1.141012e-03	
201	-3.600000e-01	-9.000000e-01	1.154260e-03	
202	-3.800000e-01	-9.000000e-01	1.165555e-03	
203	-4.000000e-01	-9.000000e-01	1.175461e-03	
204	-4.200000e-01	-9.000000e-01	1.184376e-03	
205	-4.400000e-01	-9.000000e-01	1.192570e-03	
206	-4.600000e-01	-9.000000e-01	1.200228e-03	
207	-4.800000e-01	-9.000000e-01	1.207474e-03	
208	-5.000000e-01	-9.000000e-01	1.214395e-03	
209	-5.200000e-01	-9.000000e-01	1.221054e-03	
210	-5.400000e-01	-9.000000e-01	1.227497e-03	
211	-5.600000e-01	-9.000000e-01	1.233758e-03	
212	-5.800000e-01	-9.000000e-01	1.239863e-03	
213	-6.000000e-01	-9.000000e-01	1.245833e-03	
214	-6.200000e-01	-9.000000e-01	1.251687e-03	
215	-6.400000e-01	-9.000000e-01	1.257436e-03	
216	-6.600000e-01	-9.000000e-01	1.263093e-03	
217	-6.800000e-01	-9.000000e-01	1.268667e-03	
218	-7.000000e-01	-9.000000e-01	1.274166e-03	
219	-7.200000e-01	-9.000000e-01	1.279598e-03	
220	-7.400000e-01	-9.000000e-01	1.284968e-03	
221	-7.600000e-01	-9.000000e-01	1.290282e-03	
222	-7.800000e-01	-9.000000e-01	1.295544e-03	
223	-8.000000e-01	-9.000000e-01	1.300758e-03	
224	-8.200000e-01	-9.000000e-01	1.305928e-03	
225	-8.400000e-01	-9.000000e-01	1.311057e-03	
226	-8.600000e-01	-9.000000e-01	1.316148e-03	
227	-8.800000e-01	-9.000000e-01	1.321203e-03	
228	-9.000000e-01	-9.000000e-01	1.326225e-03	

Index   v-sweep         v(1)            vds#branch      
--------------------------------------------------------------------------------
229	-9.200000e-01	-9.000000e-01	1.331216e-03	
230	-9.400000e-01	-9.000000e-01	1.336177e-03	
231	-9.600000e-01	-9.000000e-01	1.341111e-03	
232	-9.800000e-01	-9.000000e-01	1.346019e-03	
233	-1.000000e+00	-9.000000e-01	1.350902e-03	
234	-1.020000e+00	-9.000000e-01	1.355762e-03	
235	-1.040000e+00	-9.000000e-01	1.360600e-03	
236	-1.060000e+00	-9.000000e-01	1.365417e-03	
237	-1.080000e+00	-9.000000e-01	1.370214e-03	
238	-1.100000e+00	-9.000000e-01	1.374992e-03	
239	-1.120000e+00	-9.000000e-01	1.379753e-03	
240	-1.140000e+00	-9.000000e-01	1.384497e-03	
241	-1.160000e+00	-9.000000e-01	1.389225e-03	
242	-1.180000e+00	-9.000000e-01	1.393938e-03	
243	-1.200000e+00	-9.000000e-01	1.398637e-03	
244	0.000000e+00	-1.200000e+00	-3.206250e-10	
245	-2.000000e-02	-1.200000e+00	1.749280e-04	
246	-4.000000e-02	-1.200000e+00	3.427490e-04	
247	-6.000000e-02	-1.200000e+00	5.035230e-04	
248	-8.000000e-02	-1.200000e+00	6.573100e-04	
249	-1.000000e-01	-1.200000e+00	8.041703e-04	
250	-1.200000e-01	-1.200000e+00	9.441643e-04	
251	-1.400000e-01	-1.200000e+00	1.077353e-03	
252	-1.600000e-01	-1.200000e+00	1.203797e-03	
253	-1.800000e-01	-1.200000e+00	1.323560e-03	
254	-2.000000e-01	-1.200000e+00	1.436704e-03	
255	-2.200000e-01	-1.200000e+00	1.543297e-03	
256	-2.400000e-01	-1.200000e+00	1.643405e-03	
257	-2.600000e-01	-1.200000e+00	1.737101e-03	
258	-2.800000e-01	-1.200000e+00	1.824462e-03	
259	-3.000000e-01	-1.200000e+00	1.905571e-03	
260	-3.200000e-01	-1.200000e+00	1.980522e-03	
261	-3.400000e-01	-1.200000e+00	2.049420e-03	
262	-3.600000e-01	-1.200000e+00	2.112387e-03	
263	-3.800000e-01	-1.200000e+00	2.169571e-03	
264	-4.000000e-01	-1.200000e+00	2.221150e-03	
265	-4.200000e-01	-1.200000e+00	2.267348e-03	
266	-4.400000e-01	-1.200000e+00	2.308440e-03	
267	-4.600000e-01	-1.200000e+00	2.344773e-03	
268	-4.800000e-01	-1.200000e+00	2.376766e-03	
269	-5.000000e-01	-1.200000e+00	2.404906e-03	
270	-5.200000e-01	-1.200000e+00	2.429732e-03	
271	-5.400000e-01	-1.200000e+00	2.451794e-03	
272	-5.600000e-01	-1.200000e+00	2.471612e-03	
273	-5.800000e-01	-1.200000e+00	2.489641e-03	
274	-6.000000e-01	-1.200000e+00	2.506252e-03	
275	-6.200000e-01	-1.200000e+00	2.521739e-03	
276	-6.400000e-01	-1.200000e+00	2.536321e-03	
277	-6.600000e-01	-1.200000e+00	2.550166e-03	
278	-6.800000e-01	-1.200000e+00	2.563397e-03	
279	-7.000000e-01	-1.200000e+00	2.576110e-03	
280	-7.200000e-01	-1.200000e+00	2.588379e-03	
281	-7.400000e-01	-1.200000e+00	2.600261e-03	
282	-7.600000e-01	-1.200000e+00	2.611803e-03	
283	-7.800000e-01	-1.200000e+00	2.623043e-03	
284	-8.000000e-01	-1.200000e+00	2.634013e-03	
285	-8.200000e-01	-1.200000e+00	2.644739e-03	
286	-8.400000e-01	-1.200000e+00	2.655244e-03	

Index   v-sweep         v(1)            vds#branch      
--------------------------------------------------------------------------------
287	-8.600000e-01	-1.200000e+00	2.665547e-03	
288	-8.800000e-01	-1.200000e+00	2.675666e-03	
289	-9.000000e-01	-1.200000e+00	2.685615e-03	
290	-9.200000e-01	-1.200000e+00	2.695407e-03	
291	-9.400000e-01	-1.200000e+00	2.705054e-03	
292	-9.600000e-01	-1.200000e+00	2.714566e-03	
293	-9.800000e-01	-1.200000e+00	2.723953e-03	
294	-1.000000e+00	-1.200000e+00	2.733222e-03	
295	-1.020000e+00	-1.200000e+00	2.742382e-03	
296	-1.040000e+00	-1.200000e+00	2.751438e-03	
297	-1.060000e+00	-1.200000e+00	2.760398e-03	
298	-1.080000e+00	-1.200000e+00	2.769266e-03	
299	-1.100000e+00	-1.200000e+00	2.778048e-03	
300	-1.120000e+00	-1.200000e+00	2.786748e-03	
301	-1.140000e+00	-1.200000e+00	2.795371e-03	
302	-1.160000e+00	-1.200000e+00	2.803920e-03	
303	-1.180000e+00	-1.200000e+00	2.812400e-03	
304	-1.200000e+00	-1.200000e+00	2.820813e-03	

CPU time since last call: 0.036 seconds.

Total CPU time: 0.037 seconds.

Current dynamic memory usage = 131072,
Dynamic memory limit = -491521.

