
No. of Data Rows : 259

Circuit: ** PMOSFET: Benchmarking Implementation of BSIM4.1.0 by Weidong Liu 10/11/2000.

Doing analysis at TEMP = 218.150000 and TNOM = 300.150000
Warning: This model is BSIM4.2.1; you specified a wrong version number.
** PMOSFET: Benchmarking Implementation of BSIM4.1.0 by Weidong Liu 10/11/2000.
--------------------------------------------------------------------------------
Index   v-sweep         v(1)            vds#branch      
--------------------------------------------------------------------------------
0	0.000000e+00	0.000000e+00	-2.897181e-34	
1	-5.000000e-02	0.000000e+00	5.024926e-14	
2	-1.000000e-01	0.000000e+00	1.001651e-13	
3	-1.500000e-01	0.000000e+00	1.501774e-13	
4	-2.000000e-01	0.000000e+00	2.002261e-13	
5	-2.500000e-01	0.000000e+00	2.502505e-13	
6	-3.000000e-01	0.000000e+00	3.002853e-13	
7	-3.500000e-01	0.000000e+00	3.503444e-13	
8	-4.000000e-01	0.000000e+00	4.003827e-13	
9	-4.500000e-01	0.000000e+00	4.504141e-13	
10	-5.000000e-01	0.000000e+00	5.004732e-13	
11	-5.500000e-01	0.000000e+00	5.505323e-13	
12	-6.000000e-01	0.000000e+00	6.005706e-13	
13	-6.500000e-01	0.000000e+00	6.506366e-13	
14	-7.000000e-01	0.000000e+00	7.007027e-13	
15	-7.500000e-01	0.000000e+00	7.508104e-13	
16	-8.000000e-01	0.000000e+00	8.008209e-13	
17	-8.500000e-01	0.000000e+00	8.509286e-13	
18	-9.000000e-01	0.000000e+00	9.010363e-13	
19	-9.500000e-01	0.000000e+00	9.511440e-13	
20	-1.000000e+00	0.000000e+00	1.001196e-12	
21	-1.050000e+00	0.000000e+00	1.051290e-12	
22	-1.100000e+00	0.000000e+00	1.101398e-12	
23	-1.150000e+00	0.000000e+00	1.151506e-12	
24	-1.200000e+00	0.000000e+00	1.201697e-12	
25	-1.250000e+00	0.000000e+00	1.251749e-12	
26	-1.300000e+00	0.000000e+00	1.301856e-12	
27	-1.350000e+00	0.000000e+00	1.351992e-12	
28	-1.400000e+00	0.000000e+00	1.402767e-12	
29	-1.450000e+00	0.000000e+00	1.462543e-12	
30	-1.500000e+00	0.000000e+00	1.614172e-12	
31	-1.550000e+00	0.000000e+00	3.430567e-12	
32	-1.600000e+00	0.000000e+00	1.127965e-11	
33	-1.650000e+00	0.000000e+00	4.291939e-11	
34	-1.700000e+00	0.000000e+00	1.519836e-10	
35	-1.750000e+00	0.000000e+00	4.808182e-10	
36	-1.800000e+00	0.000000e+00	1.365383e-09	
37	0.000000e+00	-3.000000e-01	-1.303081e-18	
38	-5.000000e-02	-3.000000e-01	1.589716e-10	
39	-1.000000e-01	-3.000000e-01	2.095691e-10	
40	-1.500000e-01	-3.000000e-01	2.547142e-10	
41	-2.000000e-01	-3.000000e-01	3.002615e-10	
42	-2.500000e-01	-3.000000e-01	3.514624e-10	
43	-3.000000e-01	-3.000000e-01	4.048342e-10	
44	-3.500000e-01	-3.000000e-01	4.619196e-10	
45	-4.000000e-01	-3.000000e-01	5.229614e-10	
46	-4.500000e-01	-3.000000e-01	5.881962e-10	
47	-5.000000e-01	-3.000000e-01	6.578647e-10	
48	-5.500000e-01	-3.000000e-01	7.322152e-10	
49	-6.000000e-01	-3.000000e-01	8.115063e-10	
50	-6.500000e-01	-3.000000e-01	8.960077e-10	
51	-7.000000e-01	-3.000000e-01	9.860017e-10	
52	-7.500000e-01	-3.000000e-01	1.081784e-09	
53	-8.000000e-01	-3.000000e-01	1.183662e-09	
54	-8.500000e-01	-3.000000e-01	1.291961e-09	

Index   v-sweep         v(1)            vds#branch      
--------------------------------------------------------------------------------
55	-9.000000e-01	-3.000000e-01	1.407019e-09	
56	-9.500000e-01	-3.000000e-01	1.529190e-09	
57	-1.000000e+00	-3.000000e-01	1.658847e-09	
58	-1.050000e+00	-3.000000e-01	1.796377e-09	
59	-1.100000e+00	-3.000000e-01	1.942187e-09	
60	-1.150000e+00	-3.000000e-01	2.096706e-09	
61	-1.200000e+00	-3.000000e-01	2.260381e-09	
62	-1.250000e+00	-3.000000e-01	2.433691e-09	
63	-1.300000e+00	-3.000000e-01	2.617153e-09	
64	-1.350000e+00	-3.000000e-01	2.811349e-09	
65	-1.400000e+00	-3.000000e-01	3.016972e-09	
66	-1.450000e+00	-3.000000e-01	3.234920e-09	
67	-1.500000e+00	-3.000000e-01	3.466450e-09	
68	-1.550000e+00	-3.000000e-01	3.713454e-09	
69	-1.600000e+00	-3.000000e-01	3.978905e-09	
70	-1.650000e+00	-3.000000e-01	4.267560e-09	
71	-1.700000e+00	-3.000000e-01	4.587029e-09	
72	-1.750000e+00	-3.000000e-01	4.949382e-09	
73	-1.800000e+00	-3.000000e-01	5.373575e-09	
74	0.000000e+00	-6.000000e-01	-9.408024e-18	
75	-5.000000e-02	-6.000000e-01	5.630617e-05	
76	-1.000000e-01	-6.000000e-01	7.365262e-05	
77	-1.500000e-01	-6.000000e-01	8.438245e-05	
78	-2.000000e-01	-6.000000e-01	9.425966e-05	
79	-2.500000e-01	-6.000000e-01	1.040786e-04	
80	-3.000000e-01	-6.000000e-01	1.140734e-04	
81	-3.500000e-01	-6.000000e-01	1.244879e-04	
82	-4.000000e-01	-6.000000e-01	1.350713e-04	
83	-4.500000e-01	-6.000000e-01	1.459467e-04	
84	-5.000000e-01	-6.000000e-01	1.569711e-04	
85	-5.500000e-01	-6.000000e-01	1.684496e-04	
86	-6.000000e-01	-6.000000e-01	1.802376e-04	
87	-6.500000e-01	-6.000000e-01	1.923373e-04	
88	-7.000000e-01	-6.000000e-01	2.047507e-04	
89	-7.500000e-01	-6.000000e-01	2.174793e-04	
90	-8.000000e-01	-6.000000e-01	2.305241e-04	
91	-8.500000e-01	-6.000000e-01	2.438861e-04	
92	-9.000000e-01	-6.000000e-01	2.575658e-04	
93	-9.500000e-01	-6.000000e-01	2.715636e-04	
94	-1.000000e+00	-6.000000e-01	2.858798e-04	
95	-1.050000e+00	-6.000000e-01	3.005144e-04	
96	-1.100000e+00	-6.000000e-01	3.154672e-04	
97	-1.150000e+00	-6.000000e-01	3.307381e-04	
98	-1.200000e+00	-6.000000e-01	3.463268e-04	
99	-1.250000e+00	-6.000000e-01	3.622331e-04	
100	-1.300000e+00	-6.000000e-01	3.784581e-04	
101	-1.350000e+00	-6.000000e-01	3.950050e-04	
102	-1.400000e+00	-6.000000e-01	4.118824e-04	
103	-1.450000e+00	-6.000000e-01	4.291101e-04	
104	-1.500000e+00	-6.000000e-01	4.467292e-04	
105	-1.550000e+00	-6.000000e-01	4.648199e-04	
106	-1.600000e+00	-6.000000e-01	4.835302e-04	
107	-1.650000e+00	-6.000000e-01	5.036561e-04	
108	-1.700000e+00	-6.000000e-01	5.248431e-04	
109	-1.750000e+00	-6.000000e-01	5.482280e-04	
110	-1.800000e+00	-6.000000e-01	5.750105e-04	
111	0.000000e+00	-9.000000e-01	-2.853929e-17	
112	-5.000000e-02	-9.000000e-01	5.728409e-04	

Index   v-sweep         v(1)            vds#branch      
--------------------------------------------------------------------------------
113	-1.000000e-01	-9.000000e-01	1.014447e-03	
114	-1.500000e-01	-9.000000e-01	1.337478e-03	
115	-2.000000e-01	-9.000000e-01	1.555254e-03	
116	-2.500000e-01	-9.000000e-01	1.690637e-03	
117	-3.000000e-01	-9.000000e-01	1.776875e-03	
118	-3.500000e-01	-9.000000e-01	1.839907e-03	
119	-4.000000e-01	-9.000000e-01	1.892454e-03	
120	-4.500000e-01	-9.000000e-01	1.939920e-03	
121	-5.000000e-01	-9.000000e-01	1.985779e-03	
122	-5.500000e-01	-9.000000e-01	2.028570e-03	
123	-6.000000e-01	-9.000000e-01	2.070645e-03	
124	-6.500000e-01	-9.000000e-01	2.112249e-03	
125	-7.000000e-01	-9.000000e-01	2.153547e-03	
126	-7.500000e-01	-9.000000e-01	2.194647e-03	
127	-8.000000e-01	-9.000000e-01	2.235624e-03	
128	-8.500000e-01	-9.000000e-01	2.276532e-03	
129	-9.000000e-01	-9.000000e-01	2.317406e-03	
130	-9.500000e-01	-9.000000e-01	2.358274e-03	
131	-1.000000e+00	-9.000000e-01	2.399154e-03	
132	-1.050000e+00	-9.000000e-01	2.440059e-03	
133	-1.100000e+00	-9.000000e-01	2.481001e-03	
134	-1.150000e+00	-9.000000e-01	2.521985e-03	
135	-1.200000e+00	-9.000000e-01	2.563017e-03	
136	-1.250000e+00	-9.000000e-01	2.604100e-03	
137	-1.300000e+00	-9.000000e-01	2.645236e-03	
138	-1.350000e+00	-9.000000e-01	2.686426e-03	
139	-1.400000e+00	-9.000000e-01	2.727676e-03	
140	-1.450000e+00	-9.000000e-01	2.768991e-03	
141	-1.500000e+00	-9.000000e-01	2.810393e-03	
142	-1.550000e+00	-9.000000e-01	2.851929e-03	
143	-1.600000e+00	-9.000000e-01	2.893701e-03	
144	-1.650000e+00	-9.000000e-01	2.936225e-03	
145	-1.700000e+00	-9.000000e-01	2.979542e-03	
146	-1.750000e+00	-9.000000e-01	3.024609e-03	
147	-1.800000e+00	-9.000000e-01	3.072775e-03	
148	0.000000e+00	-1.200000e+00	-5.706238e-17	
149	-5.000000e-02	-1.200000e+00	7.635936e-04	
150	-1.000000e-01	-1.200000e+00	1.424750e-03	
151	-1.500000e-01	-1.200000e+00	1.989151e-03	
152	-2.000000e-01	-1.200000e+00	2.461473e-03	
153	-2.500000e-01	-1.200000e+00	2.845061e-03	
154	-3.000000e-01	-1.200000e+00	3.142549e-03	
155	-3.500000e-01	-1.200000e+00	3.359794e-03	
156	-4.000000e-01	-1.200000e+00	3.512181e-03	
157	-4.500000e-01	-1.200000e+00	3.621991e-03	
158	-5.000000e-01	-1.200000e+00	3.707724e-03	
159	-5.500000e-01	-1.200000e+00	3.780335e-03	
160	-6.000000e-01	-1.200000e+00	3.848583e-03	
161	-6.500000e-01	-1.200000e+00	3.908208e-03	
162	-7.000000e-01	-1.200000e+00	3.965581e-03	
163	-7.500000e-01	-1.200000e+00	4.021392e-03	
164	-8.000000e-01	-1.200000e+00	4.076089e-03	
165	-8.500000e-01	-1.200000e+00	4.129970e-03	
166	-9.000000e-01	-1.200000e+00	4.183242e-03	
167	-9.500000e-01	-1.200000e+00	4.236048e-03	
168	-1.000000e+00	-1.200000e+00	4.288492e-03	
169	-1.050000e+00	-1.200000e+00	4.340648e-03	
170	-1.100000e+00	-1.200000e+00	4.392572e-03	

Index   v-sweep         v(1)            vds#branch      
--------------------------------------------------------------------------------
171	-1.150000e+00	-1.200000e+00	4.444306e-03	
172	-1.200000e+00	-1.200000e+00	4.495881e-03	
173	-1.250000e+00	-1.200000e+00	4.547320e-03	
174	-1.300000e+00	-1.200000e+00	4.598643e-03	
175	-1.350000e+00	-1.200000e+00	4.649864e-03	
176	-1.400000e+00	-1.200000e+00	4.700993e-03	
177	-1.450000e+00	-1.200000e+00	4.752039e-03	
178	-1.500000e+00	-1.200000e+00	4.803012e-03	
179	-1.550000e+00	-1.200000e+00	4.853925e-03	
180	-1.600000e+00	-1.200000e+00	4.904802e-03	
181	-1.650000e+00	-1.200000e+00	4.955696e-03	
182	-1.700000e+00	-1.200000e+00	5.006723e-03	
183	-1.750000e+00	-1.200000e+00	5.058402e-03	
184	-1.800000e+00	-1.200000e+00	5.110934e-03	
185	0.000000e+00	-1.500000e+00	-9.565718e-17	
186	-5.000000e-02	-1.500000e+00	8.608964e-04	
187	-1.000000e-01	-1.500000e+00	1.640861e-03	
188	-1.500000e-01	-1.500000e+00	2.343118e-03	
189	-2.000000e-01	-1.500000e+00	2.970575e-03	
190	-2.500000e-01	-1.500000e+00	3.525643e-03	
191	-3.000000e-01	-1.500000e+00	4.009978e-03	
192	-3.500000e-01	-1.500000e+00	4.424206e-03	
193	-4.000000e-01	-1.500000e+00	4.767994e-03	
194	-4.500000e-01	-1.500000e+00	5.041644e-03	
195	-5.000000e-01	-1.500000e+00	5.250303e-03	
196	-5.500000e-01	-1.500000e+00	5.406944e-03	
197	-6.000000e-01	-1.500000e+00	5.528132e-03	
198	-6.500000e-01	-1.500000e+00	5.627452e-03	
199	-7.000000e-01	-1.500000e+00	5.719101e-03	
200	-7.500000e-01	-1.500000e+00	5.795096e-03	
201	-8.000000e-01	-1.500000e+00	5.866768e-03	
202	-8.500000e-01	-1.500000e+00	5.935452e-03	
203	-9.000000e-01	-1.500000e+00	6.001991e-03	
204	-9.500000e-01	-1.500000e+00	6.066940e-03	
205	-1.000000e+00	-1.500000e+00	6.130679e-03	
206	-1.050000e+00	-1.500000e+00	6.193476e-03	
207	-1.100000e+00	-1.500000e+00	6.255518e-03	
208	-1.150000e+00	-1.500000e+00	6.316946e-03	
209	-1.200000e+00	-1.500000e+00	6.377861e-03	
210	-1.250000e+00	-1.500000e+00	6.438341e-03	
211	-1.300000e+00	-1.500000e+00	6.498444e-03	
212	-1.350000e+00	-1.500000e+00	6.558217e-03	
213	-1.400000e+00	-1.500000e+00	6.617694e-03	
214	-1.450000e+00	-1.500000e+00	6.676905e-03	
215	-1.500000e+00	-1.500000e+00	6.735869e-03	
216	-1.550000e+00	-1.500000e+00	6.794607e-03	
217	-1.600000e+00	-1.500000e+00	6.853133e-03	
218	-1.650000e+00	-1.500000e+00	6.911466e-03	
219	-1.700000e+00	-1.500000e+00	6.969631e-03	
220	-1.750000e+00	-1.500000e+00	7.027679e-03	
221	-1.800000e+00	-1.500000e+00	7.085718e-03	
222	0.000000e+00	-1.800000e+00	-1.433956e-16	
223	-5.000000e-02	-1.800000e+00	9.159540e-04	
224	-1.000000e-01	-1.800000e+00	1.765920e-03	
225	-1.500000e-01	-1.800000e+00	2.551928e-03	
226	-2.000000e-01	-1.800000e+00	3.275903e-03	
227	-2.500000e-01	-1.800000e+00	3.939593e-03	
228	-3.000000e-01	-1.800000e+00	4.544486e-03	

Index   v-sweep         v(1)            vds#branch      
--------------------------------------------------------------------------------
229	-3.500000e-01	-1.800000e+00	5.091673e-03	
230	-4.000000e-01	-1.800000e+00	5.581668e-03	
231	-4.500000e-01	-1.800000e+00	6.014184e-03	
232	-5.000000e-01	-1.800000e+00	6.388040e-03	
233	-5.500000e-01	-1.800000e+00	6.701776e-03	
234	-6.000000e-01	-1.800000e+00	6.955884e-03	
235	-6.500000e-01	-1.800000e+00	7.156095e-03	
236	-7.000000e-01	-1.800000e+00	7.313766e-03	
237	-7.500000e-01	-1.800000e+00	7.441740e-03	
238	-8.000000e-01	-1.800000e+00	7.550358e-03	
239	-8.500000e-01	-1.800000e+00	7.651861e-03	
240	-9.000000e-01	-1.800000e+00	7.738128e-03	
241	-9.500000e-01	-1.800000e+00	7.819606e-03	
242	-1.000000e+00	-1.800000e+00	7.897668e-03	
243	-1.050000e+00	-1.800000e+00	7.973205e-03	
244	-1.100000e+00	-1.800000e+00	8.046820e-03	
245	-1.150000e+00	-1.800000e+00	8.118933e-03	
246	-1.200000e+00	-1.800000e+00	8.189841e-03	
247	-1.250000e+00	-1.800000e+00	8.259763e-03	
248	-1.300000e+00	-1.800000e+00	8.328858e-03	
249	-1.350000e+00	-1.800000e+00	8.397248e-03	
250	-1.400000e+00	-1.800000e+00	8.465025e-03	
251	-1.450000e+00	-1.800000e+00	8.532260e-03	
252	-1.500000e+00	-1.800000e+00	8.599010e-03	
253	-1.550000e+00	-1.800000e+00	8.665318e-03	
254	-1.600000e+00	-1.800000e+00	8.731220e-03	
255	-1.650000e+00	-1.800000e+00	8.796745e-03	
256	-1.700000e+00	-1.800000e+00	8.861915e-03	
257	-1.750000e+00	-1.800000e+00	8.926755e-03	
258	-1.800000e+00	-1.800000e+00	8.991293e-03	




