
Circuit: ** NMOSFET: Benchmarking Implementation of BSIM4 by Jane Xi 05/09/2003.

Doing analysis at TEMP = 218.150000 and TNOM = 300.150000
Warning: toxe, toxp and dtox all given and toxe != toxp + dtox; dtox ignored.
    ** NMOSFET: Benchmarking Implementation of BSIM4 by Jane Xi 05/09/2003.
    DC transfer characteristic  Sat Aug 27 16:00:20  2005
--------------------------------------------------------------------------------
Index   v-sweep         v(1)            vds#branch      
--------------------------------------------------------------------------------
0	0.000000e+00	0.000000e+00	-7.785853e-46	
1	2.000000e-02	0.000000e+00	-7.942154e-12	
2	4.000000e-02	0.000000e+00	-1.099340e-11	
3	6.000000e-02	0.000000e+00	-1.264880e-11	
4	8.000000e-02	0.000000e+00	-1.413625e-11	
5	1.000000e-01	0.000000e+00	-1.578898e-11	
6	1.200000e-01	0.000000e+00	-1.773876e-11	
7	1.400000e-01	0.000000e+00	-2.007303e-11	
8	1.600000e-01	0.000000e+00	-2.287169e-11	
9	1.800000e-01	0.000000e+00	-2.621810e-11	
10	2.000000e-01	0.000000e+00	-3.020360e-11	
11	2.200000e-01	0.000000e+00	-3.493003e-11	
12	2.400000e-01	0.000000e+00	-4.051173e-11	
13	2.600000e-01	0.000000e+00	-4.707733e-11	
14	2.800000e-01	0.000000e+00	-5.477161e-11	
15	3.000000e-01	0.000000e+00	-6.375749e-11	
16	3.200000e-01	0.000000e+00	-7.421814e-11	
17	3.400000e-01	0.000000e+00	-8.635939e-11	
18	3.600000e-01	0.000000e+00	-1.004123e-10	
19	3.800000e-01	0.000000e+00	-1.166359e-10	
20	4.000000e-01	0.000000e+00	-1.353207e-10	
21	4.200000e-01	0.000000e+00	-1.567919e-10	
22	4.400000e-01	0.000000e+00	-1.814133e-10	
23	4.600000e-01	0.000000e+00	-2.095915e-10	
24	4.800000e-01	0.000000e+00	-2.417810e-10	
25	5.000000e-01	0.000000e+00	-2.784889e-10	
26	5.200000e-01	0.000000e+00	-3.202812e-10	
27	5.400000e-01	0.000000e+00	-3.677886e-10	
28	5.600000e-01	0.000000e+00	-4.217140e-10	
29	5.800000e-01	0.000000e+00	-4.828400e-10	
30	6.000000e-01	0.000000e+00	-5.520374e-10	
31	6.200000e-01	0.000000e+00	-6.302750e-10	
32	6.400000e-01	0.000000e+00	-7.186293e-10	
33	6.600000e-01	0.000000e+00	-8.182967e-10	
34	6.800000e-01	0.000000e+00	-9.306055e-10	
35	7.000000e-01	0.000000e+00	-1.057030e-09	
36	7.200000e-01	0.000000e+00	-1.199207e-09	
37	7.400000e-01	0.000000e+00	-1.358949e-09	
38	7.600000e-01	0.000000e+00	-1.538268e-09	
39	7.800000e-01	0.000000e+00	-1.739392e-09	
40	8.000000e-01	0.000000e+00	-1.964788e-09	
41	8.200000e-01	0.000000e+00	-2.217187e-09	
42	8.400000e-01	0.000000e+00	-2.499613e-09	
43	8.600000e-01	0.000000e+00	-2.815411e-09	
44	8.800000e-01	0.000000e+00	-3.168280e-09	
45	9.000000e-01	0.000000e+00	-3.562307e-09	
46	9.200000e-01	0.000000e+00	-4.002012e-09	
47	9.400000e-01	0.000000e+00	-4.492387e-09	
48	9.600000e-01	0.000000e+00	-5.038946e-09	
49	9.800000e-01	0.000000e+00	-5.647776e-09	
50	1.000000e+00	0.000000e+00	-6.325596e-09	
51	1.020000e+00	0.000000e+00	-7.079819e-09	
52	1.040000e+00	0.000000e+00	-7.918625e-09	
53	1.060000e+00	0.000000e+00	-8.851032e-09	
54	1.080000e+00	0.000000e+00	-9.886984e-09	

Index   v-sweep         v(1)            vds#branch      
--------------------------------------------------------------------------------
55	1.100000e+00	0.000000e+00	-1.103744e-08	
56	1.120000e+00	0.000000e+00	-1.231449e-08	
57	1.140000e+00	0.000000e+00	-1.373142e-08	
58	1.160000e+00	0.000000e+00	-1.530290e-08	
59	1.180000e+00	0.000000e+00	-1.704508e-08	
60	1.200000e+00	0.000000e+00	-1.897575e-08	
61	0.000000e+00	2.000000e-01	1.095271e-11	
62	2.000000e-02	2.000000e-01	-1.991113e-08	
63	4.000000e-02	2.000000e-01	-2.662445e-08	
64	6.000000e-02	2.000000e-01	-2.915085e-08	
65	8.000000e-02	2.000000e-01	-3.059058e-08	
66	1.000000e-01	2.000000e-01	-3.169279e-08	
67	1.200000e-01	2.000000e-01	-3.266326e-08	
68	1.400000e-01	2.000000e-01	-3.357268e-08	
69	1.600000e-01	2.000000e-01	-3.445025e-08	
70	1.800000e-01	2.000000e-01	-3.530991e-08	
71	2.000000e-01	2.000000e-01	-3.615921e-08	
72	2.200000e-01	2.000000e-01	-3.700243e-08	
73	2.400000e-01	2.000000e-01	-3.784218e-08	
74	2.600000e-01	2.000000e-01	-3.868016e-08	
75	2.800000e-01	2.000000e-01	-3.951755e-08	
76	3.000000e-01	2.000000e-01	-4.035516e-08	
77	3.200000e-01	2.000000e-01	-4.119361e-08	
78	3.400000e-01	2.000000e-01	-4.203338e-08	
79	3.600000e-01	2.000000e-01	-4.287484e-08	
80	3.800000e-01	2.000000e-01	-4.371831e-08	
81	4.000000e-01	2.000000e-01	-4.456406e-08	
82	4.200000e-01	2.000000e-01	-4.541232e-08	
83	4.400000e-01	2.000000e-01	-4.626333e-08	
84	4.600000e-01	2.000000e-01	-4.711730e-08	
85	4.800000e-01	2.000000e-01	-4.797446e-08	
86	5.000000e-01	2.000000e-01	-4.883502e-08	
87	5.200000e-01	2.000000e-01	-4.969922e-08	
88	5.400000e-01	2.000000e-01	-5.056730e-08	
89	5.600000e-01	2.000000e-01	-5.143954e-08	
90	5.800000e-01	2.000000e-01	-5.231620e-08	
91	6.000000e-01	2.000000e-01	-5.319762e-08	
92	6.200000e-01	2.000000e-01	-5.408414e-08	
93	6.400000e-01	2.000000e-01	-5.497614e-08	
94	6.600000e-01	2.000000e-01	-5.587404e-08	
95	6.800000e-01	2.000000e-01	-5.677832e-08	
96	7.000000e-01	2.000000e-01	-5.768950e-08	
97	7.200000e-01	2.000000e-01	-5.860816e-08	
98	7.400000e-01	2.000000e-01	-5.953494e-08	
99	7.600000e-01	2.000000e-01	-6.047058e-08	
100	7.800000e-01	2.000000e-01	-6.141586e-08	
101	8.000000e-01	2.000000e-01	-6.237168e-08	
102	8.200000e-01	2.000000e-01	-6.333904e-08	
103	8.400000e-01	2.000000e-01	-6.431903e-08	
104	8.600000e-01	2.000000e-01	-6.531287e-08	
105	8.800000e-01	2.000000e-01	-6.632192e-08	
106	9.000000e-01	2.000000e-01	-6.734770e-08	
107	9.200000e-01	2.000000e-01	-6.839188e-08	
108	9.400000e-01	2.000000e-01	-6.945631e-08	
109	9.600000e-01	2.000000e-01	-7.054305e-08	
110	9.800000e-01	2.000000e-01	-7.165437e-08	
111	1.000000e+00	2.000000e-01	-7.279281e-08	
112	1.020000e+00	2.000000e-01	-7.396115e-08	

Index   v-sweep         v(1)            vds#branch      
--------------------------------------------------------------------------------
113	1.040000e+00	2.000000e-01	-7.516248e-08	
114	1.060000e+00	2.000000e-01	-7.640023e-08	
115	1.080000e+00	2.000000e-01	-7.767817e-08	
116	1.100000e+00	2.000000e-01	-7.900047e-08	
117	1.120000e+00	2.000000e-01	-8.037176e-08	
118	1.140000e+00	2.000000e-01	-8.179713e-08	
119	1.160000e+00	2.000000e-01	-8.328221e-08	
120	1.180000e+00	2.000000e-01	-8.483322e-08	
121	1.200000e+00	2.000000e-01	-8.645703e-08	
122	0.000000e+00	4.000000e-01	1.171721e-09	
123	2.000000e-02	4.000000e-01	-6.739035e-06	
124	4.000000e-02	4.000000e-01	-9.426350e-06	
125	6.000000e-02	4.000000e-01	-1.045632e-05	
126	8.000000e-02	4.000000e-01	-1.098894e-05	
127	1.000000e-01	4.000000e-01	-1.136399e-05	
128	1.200000e-01	4.000000e-01	-1.167846e-05	
129	1.400000e-01	4.000000e-01	-1.196524e-05	
130	1.600000e-01	4.000000e-01	-1.223762e-05	
131	1.800000e-01	4.000000e-01	-1.250183e-05	
132	2.000000e-01	4.000000e-01	-1.276110e-05	
133	2.200000e-01	4.000000e-01	-1.301726e-05	
134	2.400000e-01	4.000000e-01	-1.327143e-05	
135	2.600000e-01	4.000000e-01	-1.352432e-05	
136	2.800000e-01	4.000000e-01	-1.377641e-05	
137	3.000000e-01	4.000000e-01	-1.402804e-05	
138	3.200000e-01	4.000000e-01	-1.427943e-05	
139	3.400000e-01	4.000000e-01	-1.453077e-05	
140	3.600000e-01	4.000000e-01	-1.478218e-05	
141	3.800000e-01	4.000000e-01	-1.503377e-05	
142	4.000000e-01	4.000000e-01	-1.528560e-05	
143	4.200000e-01	4.000000e-01	-1.553775e-05	
144	4.400000e-01	4.000000e-01	-1.579025e-05	
145	4.600000e-01	4.000000e-01	-1.604315e-05	
146	4.800000e-01	4.000000e-01	-1.629646e-05	
147	5.000000e-01	4.000000e-01	-1.655023e-05	
148	5.200000e-01	4.000000e-01	-1.680447e-05	
149	5.400000e-01	4.000000e-01	-1.705919e-05	
150	5.600000e-01	4.000000e-01	-1.731440e-05	
151	5.800000e-01	4.000000e-01	-1.757013e-05	
152	6.000000e-01	4.000000e-01	-1.782636e-05	
153	6.200000e-01	4.000000e-01	-1.808312e-05	
154	6.400000e-01	4.000000e-01	-1.834041e-05	
155	6.600000e-01	4.000000e-01	-1.859822e-05	
156	6.800000e-01	4.000000e-01	-1.885657e-05	
157	7.000000e-01	4.000000e-01	-1.911546e-05	
158	7.200000e-01	4.000000e-01	-1.937488e-05	
159	7.400000e-01	4.000000e-01	-1.963485e-05	
160	7.600000e-01	4.000000e-01	-1.989535e-05	
161	7.800000e-01	4.000000e-01	-2.015640e-05	
162	8.000000e-01	4.000000e-01	-2.041799e-05	
163	8.200000e-01	4.000000e-01	-2.068013e-05	
164	8.400000e-01	4.000000e-01	-2.094281e-05	
165	8.600000e-01	4.000000e-01	-2.120604e-05	
166	8.800000e-01	4.000000e-01	-2.146983e-05	
167	9.000000e-01	4.000000e-01	-2.173416e-05	
168	9.200000e-01	4.000000e-01	-2.199906e-05	
169	9.400000e-01	4.000000e-01	-2.226451e-05	
170	9.600000e-01	4.000000e-01	-2.253053e-05	

Index   v-sweep         v(1)            vds#branch      
--------------------------------------------------------------------------------
171	9.800000e-01	4.000000e-01	-2.279713e-05	
172	1.000000e+00	4.000000e-01	-2.306430e-05	
173	1.020000e+00	4.000000e-01	-2.333205e-05	
174	1.040000e+00	4.000000e-01	-2.360040e-05	
175	1.060000e+00	4.000000e-01	-2.386934e-05	
176	1.080000e+00	4.000000e-01	-2.413890e-05	
177	1.100000e+00	4.000000e-01	-2.440909e-05	
178	1.120000e+00	4.000000e-01	-2.467991e-05	
179	1.140000e+00	4.000000e-01	-2.495139e-05	
180	1.160000e+00	4.000000e-01	-2.522353e-05	
181	1.180000e+00	4.000000e-01	-2.549637e-05	
182	1.200000e+00	4.000000e-01	-2.576992e-05	
183	0.000000e+00	6.000000e-01	6.659582e-09	
184	2.000000e-02	6.000000e-01	-1.438171e-04	
185	4.000000e-02	6.000000e-01	-2.579297e-04	
186	6.000000e-02	6.000000e-01	-3.445062e-04	
187	8.000000e-02	6.000000e-01	-4.064235e-04	
188	1.000000e-01	6.000000e-01	-4.478431e-04	
189	1.200000e-01	6.000000e-01	-4.742727e-04	
190	1.400000e-01	6.000000e-01	-4.913010e-04	
191	1.600000e-01	6.000000e-01	-5.030566e-04	
192	1.800000e-01	6.000000e-01	-5.119414e-04	
193	2.000000e-01	6.000000e-01	-5.192098e-04	
194	2.200000e-01	6.000000e-01	-5.255120e-04	
195	2.400000e-01	6.000000e-01	-5.312004e-04	
196	2.600000e-01	6.000000e-01	-5.364773e-04	
197	2.800000e-01	6.000000e-01	-5.414658e-04	
198	3.000000e-01	6.000000e-01	-5.462448e-04	
199	3.200000e-01	6.000000e-01	-5.508670e-04	
200	3.400000e-01	6.000000e-01	-5.553690e-04	
201	3.600000e-01	6.000000e-01	-5.597771e-04	
202	3.800000e-01	6.000000e-01	-5.641104e-04	
203	4.000000e-01	6.000000e-01	-5.683835e-04	
204	4.200000e-01	6.000000e-01	-5.726074e-04	
205	4.400000e-01	6.000000e-01	-5.767908e-04	
206	4.600000e-01	6.000000e-01	-5.809404e-04	
207	4.800000e-01	6.000000e-01	-5.850618e-04	
208	5.000000e-01	6.000000e-01	-5.891593e-04	
209	5.200000e-01	6.000000e-01	-5.932366e-04	
210	5.400000e-01	6.000000e-01	-5.972967e-04	
211	5.600000e-01	6.000000e-01	-6.013421e-04	
212	5.800000e-01	6.000000e-01	-6.053748e-04	
213	6.000000e-01	6.000000e-01	-6.093966e-04	
214	6.200000e-01	6.000000e-01	-6.134090e-04	
215	6.400000e-01	6.000000e-01	-6.174133e-04	
216	6.600000e-01	6.000000e-01	-6.214105e-04	
217	6.800000e-01	6.000000e-01	-6.254018e-04	
218	7.000000e-01	6.000000e-01	-6.293877e-04	
219	7.200000e-01	6.000000e-01	-6.333692e-04	
220	7.400000e-01	6.000000e-01	-6.373468e-04	
221	7.600000e-01	6.000000e-01	-6.413210e-04	
222	7.800000e-01	6.000000e-01	-6.452925e-04	
223	8.000000e-01	6.000000e-01	-6.492615e-04	
224	8.200000e-01	6.000000e-01	-6.532286e-04	
225	8.400000e-01	6.000000e-01	-6.571941e-04	
226	8.600000e-01	6.000000e-01	-6.611584e-04	
227	8.800000e-01	6.000000e-01	-6.651218e-04	
228	9.000000e-01	6.000000e-01	-6.690845e-04	

Index   v-sweep         v(1)            vds#branch      
--------------------------------------------------------------------------------
229	9.200000e-01	6.000000e-01	-6.730469e-04	
230	9.400000e-01	6.000000e-01	-6.770092e-04	
231	9.600000e-01	6.000000e-01	-6.809718e-04	
232	9.800000e-01	6.000000e-01	-6.849350e-04	
233	1.000000e+00	6.000000e-01	-6.888989e-04	
234	1.020000e+00	6.000000e-01	-6.928640e-04	
235	1.040000e+00	6.000000e-01	-6.968304e-04	
236	1.060000e+00	6.000000e-01	-7.007985e-04	
237	1.080000e+00	6.000000e-01	-7.047686e-04	
238	1.100000e+00	6.000000e-01	-7.087411e-04	
239	1.120000e+00	6.000000e-01	-7.127163e-04	
240	1.140000e+00	6.000000e-01	-7.166945e-04	
241	1.160000e+00	6.000000e-01	-7.206762e-04	
242	1.180000e+00	6.000000e-01	-7.246616e-04	
243	1.200000e+00	6.000000e-01	-7.286514e-04	
244	0.000000e+00	8.000000e-01	2.847265e-08	
245	2.000000e-02	8.000000e-01	-3.284692e-04	
246	4.000000e-02	8.000000e-01	-6.236277e-04	
247	6.000000e-02	8.000000e-01	-8.867456e-04	
248	8.000000e-02	8.000000e-01	-1.119086e-03	
249	1.000000e-01	8.000000e-01	-1.321898e-03	
250	1.200000e-01	8.000000e-01	-1.496458e-03	
251	1.400000e-01	8.000000e-01	-1.644143e-03	
252	1.600000e-01	8.000000e-01	-1.766547e-03	
253	1.800000e-01	8.000000e-01	-1.865672e-03	
254	2.000000e-01	8.000000e-01	-1.944139e-03	
255	2.200000e-01	8.000000e-01	-2.005257e-03	
256	2.400000e-01	8.000000e-01	-2.052760e-03	
257	2.600000e-01	8.000000e-01	-2.090225e-03	
258	2.800000e-01	8.000000e-01	-2.120586e-03	
259	3.000000e-01	8.000000e-01	-2.145983e-03	
260	3.200000e-01	8.000000e-01	-2.167879e-03	
261	3.400000e-01	8.000000e-01	-2.187258e-03	
262	3.600000e-01	8.000000e-01	-2.204780e-03	
263	3.800000e-01	8.000000e-01	-2.220902e-03	
264	4.000000e-01	8.000000e-01	-2.235945e-03	
265	4.200000e-01	8.000000e-01	-2.250139e-03	
266	4.400000e-01	8.000000e-01	-2.263655e-03	
267	4.600000e-01	8.000000e-01	-2.276621e-03	
268	4.800000e-01	8.000000e-01	-2.289135e-03	
269	5.000000e-01	8.000000e-01	-2.301272e-03	
270	5.200000e-01	8.000000e-01	-2.313094e-03	
271	5.400000e-01	8.000000e-01	-2.324648e-03	
272	5.600000e-01	8.000000e-01	-2.335972e-03	
273	5.800000e-01	8.000000e-01	-2.347099e-03	
274	6.000000e-01	8.000000e-01	-2.358053e-03	
275	6.200000e-01	8.000000e-01	-2.368857e-03	
276	6.400000e-01	8.000000e-01	-2.379528e-03	
277	6.600000e-01	8.000000e-01	-2.390082e-03	
278	6.800000e-01	8.000000e-01	-2.400532e-03	
279	7.000000e-01	8.000000e-01	-2.410887e-03	
280	7.200000e-01	8.000000e-01	-2.421159e-03	
281	7.400000e-01	8.000000e-01	-2.431354e-03	
282	7.600000e-01	8.000000e-01	-2.441479e-03	
283	7.800000e-01	8.000000e-01	-2.451542e-03	
284	8.000000e-01	8.000000e-01	-2.461547e-03	
285	8.200000e-01	8.000000e-01	-2.471498e-03	
286	8.400000e-01	8.000000e-01	-2.481401e-03	

Index   v-sweep         v(1)            vds#branch      
--------------------------------------------------------------------------------
287	8.600000e-01	8.000000e-01	-2.491258e-03	
288	8.800000e-01	8.000000e-01	-2.501073e-03	
289	9.000000e-01	8.000000e-01	-2.510849e-03	
290	9.200000e-01	8.000000e-01	-2.520589e-03	
291	9.400000e-01	8.000000e-01	-2.530295e-03	
292	9.600000e-01	8.000000e-01	-2.539969e-03	
293	9.800000e-01	8.000000e-01	-2.549613e-03	
294	1.000000e+00	8.000000e-01	-2.559229e-03	
295	1.020000e+00	8.000000e-01	-2.568820e-03	
296	1.040000e+00	8.000000e-01	-2.578386e-03	
297	1.060000e+00	8.000000e-01	-2.587930e-03	
298	1.080000e+00	8.000000e-01	-2.597452e-03	
299	1.100000e+00	8.000000e-01	-2.606956e-03	
300	1.120000e+00	8.000000e-01	-2.616441e-03	
301	1.140000e+00	8.000000e-01	-2.625910e-03	
302	1.160000e+00	8.000000e-01	-2.635365e-03	
303	1.180000e+00	8.000000e-01	-2.644806e-03	
304	1.200000e+00	8.000000e-01	-2.654235e-03	
305	0.000000e+00	1.000000e+00	9.971299e-08	
306	2.000000e-02	1.000000e+00	-4.486013e-04	
307	4.000000e-02	1.000000e+00	-8.665773e-04	
308	6.000000e-02	1.000000e+00	-1.254759e-03	
309	8.000000e-02	1.000000e+00	-1.614045e-03	
310	1.000000e-01	1.000000e+00	-1.945304e-03	
311	1.200000e-01	1.000000e+00	-2.249382e-03	
312	1.400000e-01	1.000000e+00	-2.527102e-03	
313	1.600000e-01	1.000000e+00	-2.779278e-03	
314	1.800000e-01	1.000000e+00	-3.006720e-03	
315	2.000000e-01	1.000000e+00	-3.210260e-03	
316	2.200000e-01	1.000000e+00	-3.390772e-03	
317	2.400000e-01	1.000000e+00	-3.549224e-03	
318	2.600000e-01	1.000000e+00	-3.686746e-03	
319	2.800000e-01	1.000000e+00	-3.804720e-03	
320	3.000000e-01	1.000000e+00	-3.904868e-03	
321	3.200000e-01	1.000000e+00	-3.989289e-03	
322	3.400000e-01	1.000000e+00	-4.060360e-03	
323	3.600000e-01	1.000000e+00	-4.120518e-03	
324	3.800000e-01	1.000000e+00	-4.172007e-03	
325	4.000000e-01	1.000000e+00	-4.216721e-03	
326	4.200000e-01	1.000000e+00	-4.256160e-03	
327	4.400000e-01	1.000000e+00	-4.291471e-03	
328	4.600000e-01	1.000000e+00	-4.323523e-03	
329	4.800000e-01	1.000000e+00	-4.352972e-03	
330	5.000000e-01	1.000000e+00	-4.380318e-03	
331	5.200000e-01	1.000000e+00	-4.405945e-03	
332	5.400000e-01	1.000000e+00	-4.430153e-03	
333	5.600000e-01	1.000000e+00	-4.453176e-03	
334	5.800000e-01	1.000000e+00	-4.475202e-03	
335	6.000000e-01	1.000000e+00	-4.496382e-03	
336	6.200000e-01	1.000000e+00	-4.516837e-03	
337	6.400000e-01	1.000000e+00	-4.536668e-03	
338	6.600000e-01	1.000000e+00	-4.555957e-03	
339	6.800000e-01	1.000000e+00	-4.574772e-03	
340	7.000000e-01	1.000000e+00	-4.593171e-03	
341	7.200000e-01	1.000000e+00	-4.611201e-03	
342	7.400000e-01	1.000000e+00	-4.628905e-03	
343	7.600000e-01	1.000000e+00	-4.646317e-03	
344	7.800000e-01	1.000000e+00	-4.663466e-03	

Index   v-sweep         v(1)            vds#branch      
--------------------------------------------------------------------------------
345	8.000000e-01	1.000000e+00	-4.680378e-03	
346	8.200000e-01	1.000000e+00	-4.697076e-03	
347	8.400000e-01	1.000000e+00	-4.713578e-03	
348	8.600000e-01	1.000000e+00	-4.729903e-03	
349	8.800000e-01	1.000000e+00	-4.746063e-03	
350	9.000000e-01	1.000000e+00	-4.762074e-03	
351	9.200000e-01	1.000000e+00	-4.777945e-03	
352	9.400000e-01	1.000000e+00	-4.793687e-03	
353	9.600000e-01	1.000000e+00	-4.809309e-03	
354	9.800000e-01	1.000000e+00	-4.824820e-03	
355	1.000000e+00	1.000000e+00	-4.840226e-03	
356	1.020000e+00	1.000000e+00	-4.855535e-03	
357	1.040000e+00	1.000000e+00	-4.870752e-03	
358	1.060000e+00	1.000000e+00	-4.885883e-03	
359	1.080000e+00	1.000000e+00	-4.900933e-03	
360	1.100000e+00	1.000000e+00	-4.915907e-03	
361	1.120000e+00	1.000000e+00	-4.930809e-03	
362	1.140000e+00	1.000000e+00	-4.945643e-03	
363	1.160000e+00	1.000000e+00	-4.960414e-03	
364	1.180000e+00	1.000000e+00	-4.975125e-03	
365	1.200000e+00	1.000000e+00	-4.989779e-03	
366	0.000000e+00	1.200000e+00	3.102604e-07	
367	2.000000e-02	1.200000e+00	-5.223399e-04	
368	4.000000e-02	1.200000e+00	-1.017897e-03	
369	6.000000e-02	1.200000e+00	-1.487027e-03	
370	8.000000e-02	1.200000e+00	-1.930378e-03	
371	1.000000e-01	1.200000e+00	-2.348580e-03	
372	1.200000e-01	1.200000e+00	-2.742247e-03	
373	1.400000e-01	1.200000e+00	-3.111975e-03	
374	1.600000e-01	1.200000e+00	-3.458348e-03	
375	1.800000e-01	1.200000e+00	-3.781939e-03	
376	2.000000e-01	1.200000e+00	-4.083310e-03	
377	2.200000e-01	1.200000e+00	-4.363019e-03	
378	2.400000e-01	1.200000e+00	-4.621622e-03	
379	2.600000e-01	1.200000e+00	-4.859680e-03	
380	2.800000e-01	1.200000e+00	-5.077770e-03	
381	3.000000e-01	1.200000e+00	-5.276497e-03	
382	3.200000e-01	1.200000e+00	-5.456513e-03	
383	3.400000e-01	1.200000e+00	-5.618550e-03	
384	3.600000e-01	1.200000e+00	-5.763452e-03	
385	3.800000e-01	1.200000e+00	-5.892221e-03	
386	4.000000e-01	1.200000e+00	-6.006054e-03	
387	4.200000e-01	1.200000e+00	-6.106349e-03	
388	4.400000e-01	1.200000e+00	-6.194668e-03	
389	4.600000e-01	1.200000e+00	-6.272638e-03	
390	4.800000e-01	1.200000e+00	-6.341838e-03	
391	5.000000e-01	1.200000e+00	-6.403705e-03	
392	5.200000e-01	1.200000e+00	-6.459481e-03	
393	5.400000e-01	1.200000e+00	-6.510203e-03	
394	5.600000e-01	1.200000e+00	-6.556724e-03	
395	5.800000e-01	1.200000e+00	-6.599737e-03	
396	6.000000e-01	1.200000e+00	-6.639803e-03	
397	6.200000e-01	1.200000e+00	-6.677382e-03	
398	6.400000e-01	1.200000e+00	-6.712845e-03	
399	6.600000e-01	1.200000e+00	-6.746499e-03	
400	6.800000e-01	1.200000e+00	-6.778596e-03	
401	7.000000e-01	1.200000e+00	-6.809346e-03	
402	7.200000e-01	1.200000e+00	-6.838923e-03	

Index   v-sweep         v(1)            vds#branch      
--------------------------------------------------------------------------------
403	7.400000e-01	1.200000e+00	-6.867475e-03	
404	7.600000e-01	1.200000e+00	-6.895125e-03	
405	7.800000e-01	1.200000e+00	-6.921977e-03	
406	8.000000e-01	1.200000e+00	-6.948120e-03	
407	8.200000e-01	1.200000e+00	-6.973632e-03	
408	8.400000e-01	1.200000e+00	-6.998577e-03	
409	8.600000e-01	1.200000e+00	-7.023013e-03	
410	8.800000e-01	1.200000e+00	-7.046988e-03	
411	9.000000e-01	1.200000e+00	-7.070544e-03	
