
No. of Data Rows : 259

Circuit: ** PMOSFET: Benchmarking Implementation of BSIM4.1.0 by Weidong Liu 10/11/2000.

Doing analysis at TEMP = 300.150000 and TNOM = 300.150000
Warning: This model is BSIM4.2.1; you specified a wrong version number.
** PMOSFET: Benchmarking Implementation of BSIM4.1.0 by Weidong Liu 10/11/2000.
--------------------------------------------------------------------------------
Index   v-sweep         v(1)            vds#branch      
--------------------------------------------------------------------------------
0	0.000000e+00	0.000000e+00	-1.375069e-29	
1	-5.000000e-02	0.000000e+00	1.747624e-13	
2	-1.000000e-01	0.000000e+00	1.967844e-13	
3	-1.500000e-01	0.000000e+00	2.523446e-13	
4	-2.000000e-01	0.000000e+00	3.160316e-13	
5	-2.500000e-01	0.000000e+00	3.811009e-13	
6	-3.000000e-01	0.000000e+00	4.470869e-13	
7	-3.500000e-01	0.000000e+00	5.140246e-13	
8	-4.000000e-01	0.000000e+00	5.819000e-13	
9	-4.500000e-01	0.000000e+00	6.507269e-13	
10	-5.000000e-01	0.000000e+00	7.206027e-13	
11	-5.500000e-01	0.000000e+00	7.915829e-13	
12	-6.000000e-01	0.000000e+00	8.635841e-13	
13	-6.500000e-01	0.000000e+00	9.368217e-13	
14	-7.000000e-01	0.000000e+00	1.011268e-12	
15	-7.500000e-01	0.000000e+00	1.087048e-12	
16	-8.000000e-01	0.000000e+00	1.163980e-12	
17	-8.500000e-01	0.000000e+00	1.242427e-12	
18	-9.000000e-01	0.000000e+00	1.322291e-12	
19	-9.500000e-01	0.000000e+00	1.403572e-12	
20	-1.000000e+00	0.000000e+00	1.486423e-12	
21	-1.050000e+00	0.000000e+00	1.570899e-12	
22	-1.100000e+00	0.000000e+00	1.657014e-12	
23	-1.150000e+00	0.000000e+00	1.744880e-12	
24	-1.200000e+00	0.000000e+00	1.834579e-12	
25	-1.250000e+00	0.000000e+00	1.926140e-12	
26	-1.300000e+00	0.000000e+00	2.019757e-12	
27	-1.350000e+00	0.000000e+00	2.115236e-12	
28	-1.400000e+00	0.000000e+00	2.213520e-12	
29	-1.450000e+00	0.000000e+00	2.323224e-12	
30	-1.500000e+00	0.000000e+00	2.527280e-12	
31	-1.550000e+00	0.000000e+00	4.400438e-12	
32	-1.600000e+00	0.000000e+00	1.230828e-11	
33	-1.650000e+00	0.000000e+00	4.401162e-11	
34	-1.700000e+00	0.000000e+00	1.531452e-10	
35	-1.750000e+00	0.000000e+00	4.820579e-10	
36	-1.800000e+00	0.000000e+00	1.366714e-09	
37	0.000000e+00	-3.000000e-01	-1.305626e-18	
38	-5.000000e-02	-3.000000e-01	1.804718e-09	
39	-1.000000e-01	-3.000000e-01	2.357714e-09	
40	-1.500000e-01	-3.000000e-01	2.777053e-09	
41	-2.000000e-01	-3.000000e-01	3.197810e-09	
42	-2.500000e-01	-3.000000e-01	3.637349e-09	
43	-3.000000e-01	-3.000000e-01	4.100109e-09	
44	-3.500000e-01	-3.000000e-01	4.588173e-09	
45	-4.000000e-01	-3.000000e-01	5.103023e-09	
46	-4.500000e-01	-3.000000e-01	5.645973e-09	
47	-5.000000e-01	-3.000000e-01	6.218292e-09	
48	-5.500000e-01	-3.000000e-01	6.821257e-09	
49	-6.000000e-01	-3.000000e-01	7.456171e-09	
50	-6.500000e-01	-3.000000e-01	8.124373e-09	
51	-7.000000e-01	-3.000000e-01	8.827245e-09	
52	-7.500000e-01	-3.000000e-01	9.566213e-09	
53	-8.000000e-01	-3.000000e-01	1.034276e-08	
54	-8.500000e-01	-3.000000e-01	1.115840e-08	

Index   v-sweep         v(1)            vds#branch      
--------------------------------------------------------------------------------
55	-9.000000e-01	-3.000000e-01	1.201472e-08	
56	-9.500000e-01	-3.000000e-01	1.291335e-08	
57	-1.000000e+00	-3.000000e-01	1.385599e-08	
58	-1.050000e+00	-3.000000e-01	1.484438e-08	
59	-1.100000e+00	-3.000000e-01	1.588034e-08	
60	-1.150000e+00	-3.000000e-01	1.696574e-08	
61	-1.200000e+00	-3.000000e-01	1.810254e-08	
62	-1.250000e+00	-3.000000e-01	1.929283e-08	
63	-1.300000e+00	-3.000000e-01	2.053884e-08	
64	-1.350000e+00	-3.000000e-01	2.184317e-08	
65	-1.400000e+00	-3.000000e-01	2.320902e-08	
66	-1.450000e+00	-3.000000e-01	2.464077e-08	
67	-1.500000e+00	-3.000000e-01	2.614499e-08	
68	-1.550000e+00	-3.000000e-01	2.773207e-08	
69	-1.600000e+00	-3.000000e-01	2.941904e-08	
70	-1.650000e+00	-3.000000e-01	3.123383e-08	
71	-1.700000e+00	-3.000000e-01	3.322180e-08	
72	-1.750000e+00	-3.000000e-01	3.545534e-08	
73	-1.800000e+00	-3.000000e-01	3.804766e-08	
74	0.000000e+00	-6.000000e-01	-9.408570e-18	
75	-5.000000e-02	-6.000000e-01	1.819787e-05	
76	-1.000000e-01	-6.000000e-01	2.454873e-05	
77	-1.500000e-01	-6.000000e-01	2.808775e-05	
78	-2.000000e-01	-6.000000e-01	3.125422e-05	
79	-2.500000e-01	-6.000000e-01	3.439801e-05	
80	-3.000000e-01	-6.000000e-01	3.765444e-05	
81	-3.500000e-01	-6.000000e-01	4.098478e-05	
82	-4.000000e-01	-6.000000e-01	4.441828e-05	
83	-4.500000e-01	-6.000000e-01	4.795969e-05	
84	-5.000000e-01	-6.000000e-01	5.161213e-05	
85	-5.500000e-01	-6.000000e-01	5.537803e-05	
86	-6.000000e-01	-6.000000e-01	5.920134e-05	
87	-6.500000e-01	-6.000000e-01	6.319919e-05	
88	-7.000000e-01	-6.000000e-01	6.731618e-05	
89	-7.500000e-01	-6.000000e-01	7.155397e-05	
90	-8.000000e-01	-6.000000e-01	7.591415e-05	
91	-8.500000e-01	-6.000000e-01	8.039830e-05	
92	-9.000000e-01	-6.000000e-01	8.500793e-05	
93	-9.500000e-01	-6.000000e-01	8.974455e-05	
94	-1.000000e+00	-6.000000e-01	9.460961e-05	
95	-1.050000e+00	-6.000000e-01	9.960455e-05	
96	-1.100000e+00	-6.000000e-01	1.047308e-04	
97	-1.150000e+00	-6.000000e-01	1.099897e-04	
98	-1.200000e+00	-6.000000e-01	1.153826e-04	
99	-1.250000e+00	-6.000000e-01	1.209111e-04	
100	-1.300000e+00	-6.000000e-01	1.265769e-04	
101	-1.350000e+00	-6.000000e-01	1.323823e-04	
102	-1.400000e+00	-6.000000e-01	1.383314e-04	
103	-1.450000e+00	-6.000000e-01	1.444314e-04	
104	-1.500000e+00	-6.000000e-01	1.506959e-04	
105	-1.550000e+00	-6.000000e-01	1.571504e-04	
106	-1.600000e+00	-6.000000e-01	1.638412e-04	
107	-1.650000e+00	-6.000000e-01	1.710389e-04	
108	-1.700000e+00	-6.000000e-01	1.785910e-04	
109	-1.750000e+00	-6.000000e-01	1.868781e-04	
110	-1.800000e+00	-6.000000e-01	1.962841e-04	
111	0.000000e+00	-9.000000e-01	-2.853929e-17	
112	-5.000000e-02	-9.000000e-01	2.624487e-04	

Index   v-sweep         v(1)            vds#branch      
--------------------------------------------------------------------------------
113	-1.000000e-01	-9.000000e-01	4.779357e-04	
114	-1.500000e-01	-9.000000e-01	6.496158e-04	
115	-2.000000e-01	-9.000000e-01	7.807058e-04	
116	-2.500000e-01	-9.000000e-01	8.752738e-04	
117	-3.000000e-01	-9.000000e-01	9.400100e-04	
118	-3.500000e-01	-9.000000e-01	9.848288e-04	
119	-4.000000e-01	-9.000000e-01	1.019100e-03	
120	-4.500000e-01	-9.000000e-01	1.048435e-03	
121	-5.000000e-01	-9.000000e-01	1.076336e-03	
122	-5.500000e-01	-9.000000e-01	1.101776e-03	
123	-6.000000e-01	-9.000000e-01	1.126846e-03	
124	-6.500000e-01	-9.000000e-01	1.151705e-03	
125	-7.000000e-01	-9.000000e-01	1.176454e-03	
126	-7.500000e-01	-9.000000e-01	1.201158e-03	
127	-8.000000e-01	-9.000000e-01	1.225860e-03	
128	-8.500000e-01	-9.000000e-01	1.250590e-03	
129	-9.000000e-01	-9.000000e-01	1.275367e-03	
130	-9.500000e-01	-9.000000e-01	1.300203e-03	
131	-1.000000e+00	-9.000000e-01	1.325107e-03	
132	-1.050000e+00	-9.000000e-01	1.350087e-03	
133	-1.100000e+00	-9.000000e-01	1.375145e-03	
134	-1.150000e+00	-9.000000e-01	1.400285e-03	
135	-1.200000e+00	-9.000000e-01	1.425507e-03	
136	-1.250000e+00	-9.000000e-01	1.450813e-03	
137	-1.300000e+00	-9.000000e-01	1.476203e-03	
138	-1.350000e+00	-9.000000e-01	1.501676e-03	
139	-1.400000e+00	-9.000000e-01	1.527233e-03	
140	-1.450000e+00	-9.000000e-01	1.552872e-03	
141	-1.500000e+00	-9.000000e-01	1.578596e-03	
142	-1.550000e+00	-9.000000e-01	1.604412e-03	
143	-1.600000e+00	-9.000000e-01	1.630337e-03	
144	-1.650000e+00	-9.000000e-01	1.656410e-03	
145	-1.700000e+00	-9.000000e-01	1.682718e-03	
146	-1.750000e+00	-9.000000e-01	1.709425e-03	
147	-1.800000e+00	-9.000000e-01	1.737321e-03	
148	0.000000e+00	-1.200000e+00	-5.728902e-17	
149	-5.000000e-02	-1.200000e+00	3.749321e-04	
150	-1.000000e-01	-1.200000e+00	7.096261e-04	
151	-1.500000e-01	-1.200000e+00	1.005763e-03	
152	-2.000000e-01	-1.200000e+00	1.264935e-03	
153	-2.500000e-01	-1.200000e+00	1.488617e-03	
154	-3.000000e-01	-1.200000e+00	1.678174e-03	
155	-3.500000e-01	-1.200000e+00	1.834943e-03	
156	-4.000000e-01	-1.200000e+00	1.960572e-03	
157	-4.500000e-01	-1.200000e+00	2.057905e-03	
158	-5.000000e-01	-1.200000e+00	2.132063e-03	
159	-5.500000e-01	-1.200000e+00	2.189959e-03	
160	-6.000000e-01	-1.200000e+00	2.237930e-03	
161	-6.500000e-01	-1.200000e+00	2.280241e-03	
162	-7.000000e-01	-1.200000e+00	2.320648e-03	
163	-7.500000e-01	-1.200000e+00	2.357304e-03	
164	-8.000000e-01	-1.200000e+00	2.393029e-03	
165	-8.500000e-01	-1.200000e+00	2.428133e-03	
166	-9.000000e-01	-1.200000e+00	2.462815e-03	
167	-9.500000e-01	-1.200000e+00	2.497205e-03	
168	-1.000000e+00	-1.200000e+00	2.531390e-03	
169	-1.050000e+00	-1.200000e+00	2.565432e-03	
170	-1.100000e+00	-1.200000e+00	2.599372e-03	

Index   v-sweep         v(1)            vds#branch      
--------------------------------------------------------------------------------
171	-1.150000e+00	-1.200000e+00	2.633242e-03	
172	-1.200000e+00	-1.200000e+00	2.667063e-03	
173	-1.250000e+00	-1.200000e+00	2.700851e-03	
174	-1.300000e+00	-1.200000e+00	2.734619e-03	
175	-1.350000e+00	-1.200000e+00	2.768374e-03	
176	-1.400000e+00	-1.200000e+00	2.802124e-03	
177	-1.450000e+00	-1.200000e+00	2.835872e-03	
178	-1.500000e+00	-1.200000e+00	2.869623e-03	
179	-1.550000e+00	-1.200000e+00	2.903379e-03	
180	-1.600000e+00	-1.200000e+00	2.937141e-03	
181	-1.650000e+00	-1.200000e+00	2.970916e-03	
182	-1.700000e+00	-1.200000e+00	3.004712e-03	
183	-1.750000e+00	-1.200000e+00	3.038553e-03	
184	-1.800000e+00	-1.200000e+00	3.072493e-03	
185	0.000000e+00	-1.500000e+00	-9.565718e-17	
186	-5.000000e-02	-1.500000e+00	4.354321e-04	
187	-1.000000e-01	-1.500000e+00	8.374453e-04	
188	-1.500000e-01	-1.500000e+00	1.207057e-03	
189	-2.000000e-01	-1.500000e+00	1.545258e-03	
190	-2.500000e-01	-1.500000e+00	1.852993e-03	
191	-3.000000e-01	-1.500000e+00	2.131144e-03	
192	-3.500000e-01	-1.500000e+00	2.380518e-03	
193	-4.000000e-01	-1.500000e+00	2.601830e-03	
194	-4.500000e-01	-1.500000e+00	2.795700e-03	
195	-5.000000e-01	-1.500000e+00	2.962690e-03	
196	-5.500000e-01	-1.500000e+00	3.103487e-03	
197	-6.000000e-01	-1.500000e+00	3.219414e-03	
198	-6.500000e-01	-1.500000e+00	3.313211e-03	
199	-7.000000e-01	-1.500000e+00	3.389336e-03	
200	-7.500000e-01	-1.500000e+00	3.452945e-03	
201	-8.000000e-01	-1.500000e+00	3.511871e-03	
202	-8.500000e-01	-1.500000e+00	3.560972e-03	
203	-9.000000e-01	-1.500000e+00	3.607372e-03	
204	-9.500000e-01	-1.500000e+00	3.652013e-03	
205	-1.000000e+00	-1.500000e+00	3.695452e-03	
206	-1.050000e+00	-1.500000e+00	3.738037e-03	
207	-1.100000e+00	-1.500000e+00	3.780000e-03	
208	-1.150000e+00	-1.500000e+00	3.821496e-03	
209	-1.200000e+00	-1.500000e+00	3.862634e-03	
210	-1.250000e+00	-1.500000e+00	3.903490e-03	
211	-1.300000e+00	-1.500000e+00	3.944121e-03	
212	-1.350000e+00	-1.500000e+00	3.984568e-03	
213	-1.400000e+00	-1.500000e+00	4.024859e-03	
214	-1.450000e+00	-1.500000e+00	4.065020e-03	
215	-1.500000e+00	-1.500000e+00	4.105066e-03	
216	-1.550000e+00	-1.500000e+00	4.145010e-03	
217	-1.600000e+00	-1.500000e+00	4.184864e-03	
218	-1.650000e+00	-1.500000e+00	4.224635e-03	
219	-1.700000e+00	-1.500000e+00	4.264329e-03	
220	-1.750000e+00	-1.500000e+00	4.303952e-03	
221	-1.800000e+00	-1.500000e+00	4.343510e-03	
222	0.000000e+00	-1.800000e+00	-1.433956e-16	
223	-5.000000e-02	-1.800000e+00	4.691969e-04	
224	-1.000000e-01	-1.800000e+00	9.104853e-04	
225	-1.500000e-01	-1.800000e+00	1.324520e-03	
226	-2.000000e-01	-1.800000e+00	1.711953e-03	
227	-2.500000e-01	-1.800000e+00	2.073419e-03	
228	-3.000000e-01	-1.800000e+00	2.409527e-03	

Index   v-sweep         v(1)            vds#branch      
--------------------------------------------------------------------------------
229	-3.500000e-01	-1.800000e+00	2.720857e-03	
230	-4.000000e-01	-1.800000e+00	3.007950e-03	
231	-4.500000e-01	-1.800000e+00	3.271299e-03	
232	-5.000000e-01	-1.800000e+00	3.511336e-03	
233	-5.500000e-01	-1.800000e+00	3.728419e-03	
234	-6.000000e-01	-1.800000e+00	3.922821e-03	
235	-6.500000e-01	-1.800000e+00	4.094749e-03	
236	-7.000000e-01	-1.800000e+00	4.244457e-03	
237	-7.500000e-01	-1.800000e+00	4.372535e-03	
238	-8.000000e-01	-1.800000e+00	4.480443e-03	
239	-8.500000e-01	-1.800000e+00	4.570933e-03	
240	-9.000000e-01	-1.800000e+00	4.647791e-03	
241	-9.500000e-01	-1.800000e+00	4.719165e-03	
242	-1.000000e+00	-1.800000e+00	4.778224e-03	
243	-1.050000e+00	-1.800000e+00	4.833323e-03	
244	-1.100000e+00	-1.800000e+00	4.885794e-03	
245	-1.150000e+00	-1.800000e+00	4.936443e-03	
246	-1.200000e+00	-1.800000e+00	4.985784e-03	
247	-1.250000e+00	-1.800000e+00	5.034152e-03	
248	-1.300000e+00	-1.800000e+00	5.081777e-03	
249	-1.350000e+00	-1.800000e+00	5.128818e-03	
250	-1.400000e+00	-1.800000e+00	5.175391e-03	
251	-1.450000e+00	-1.800000e+00	5.221578e-03	
252	-1.500000e+00	-1.800000e+00	5.267439e-03	
253	-1.550000e+00	-1.800000e+00	5.313021e-03	
254	-1.600000e+00	-1.800000e+00	5.358358e-03	
255	-1.650000e+00	-1.800000e+00	5.403477e-03	
256	-1.700000e+00	-1.800000e+00	5.448399e-03	
257	-1.750000e+00	-1.800000e+00	5.493140e-03	
258	-1.800000e+00	-1.800000e+00	5.537712e-03	




