
No. of Data Rows : 259

Circuit: ** NMOSFET: Benchmarking Implementation of BSIM4.1.0 by Weidong Liu 10/11/2000.

Doing analysis at TEMP = 218.150000 and TNOM = 300.150000
Warning: This model is BSIM4.2.1; you specified a wrong version number.
** NMOSFET: Benchmarking Implementation of BSIM4.1.0 by Weidong Liu 10/11/2000.
--------------------------------------------------------------------------------
Index   v-sweep         v(1)            vds#branch      
--------------------------------------------------------------------------------
0	0.000000e+00	0.000000e+00	2.251601e-34	
1	5.000000e-02	0.000000e+00	-5.028052e-14	
2	1.000000e-01	0.000000e+00	-1.001808e-13	
3	1.500000e-01	0.000000e+00	-1.502086e-13	
4	2.000000e-01	0.000000e+00	-2.002469e-13	
5	2.500000e-01	0.000000e+00	-2.502817e-13	
6	3.000000e-01	0.000000e+00	-3.003270e-13	
7	3.500000e-01	0.000000e+00	-3.503861e-13	
8	4.000000e-01	0.000000e+00	-4.004452e-13	
9	4.500000e-01	0.000000e+00	-4.504766e-13	
10	5.000000e-01	0.000000e+00	-5.004940e-13	
11	5.500000e-01	0.000000e+00	-5.506156e-13	
12	6.000000e-01	0.000000e+00	-6.006539e-13	
13	6.500000e-01	0.000000e+00	-6.507616e-13	
14	7.000000e-01	0.000000e+00	-7.008277e-13	
15	7.500000e-01	0.000000e+00	-7.509354e-13	
16	8.000000e-01	0.000000e+00	-8.009459e-13	
17	8.500000e-01	0.000000e+00	-8.510536e-13	
18	9.000000e-01	0.000000e+00	-9.012030e-13	
19	9.500000e-01	0.000000e+00	-9.513524e-13	
20	1.000000e+00	0.000000e+00	-1.001405e-12	
21	1.050000e+00	0.000000e+00	-1.051457e-12	
22	1.100000e+00	0.000000e+00	-1.101648e-12	
23	1.150000e+00	0.000000e+00	-1.151756e-12	
24	1.200000e+00	0.000000e+00	-1.201863e-12	
25	1.250000e+00	0.000000e+00	-1.251915e-12	
26	1.300000e+00	0.000000e+00	-1.302190e-12	
27	1.350000e+00	0.000000e+00	-1.352325e-12	
28	1.400000e+00	0.000000e+00	-1.403017e-12	
29	1.450000e+00	0.000000e+00	-1.462876e-12	
30	1.500000e+00	0.000000e+00	-1.614505e-12	
31	1.550000e+00	0.000000e+00	-3.431067e-12	
32	1.600000e+00	0.000000e+00	-1.127998e-11	
33	1.650000e+00	0.000000e+00	-4.291980e-11	
34	1.700000e+00	0.000000e+00	-1.519840e-10	
35	1.750000e+00	0.000000e+00	-4.808186e-10	
36	1.800000e+00	0.000000e+00	-1.365384e-09	
37	0.000000e+00	3.000000e-01	1.891504e-18	
38	5.000000e-02	3.000000e-01	-1.602532e-10	
39	1.000000e-01	3.000000e-01	-2.112590e-10	
40	1.500000e-01	3.000000e-01	-2.567684e-10	
41	2.000000e-01	3.000000e-01	-3.026839e-10	
42	2.500000e-01	3.000000e-01	-3.542990e-10	
43	3.000000e-01	3.000000e-01	-4.081028e-10	
44	3.500000e-01	3.000000e-01	-4.656505e-10	
45	4.000000e-01	3.000000e-01	-5.271871e-10	
46	4.500000e-01	3.000000e-01	-5.929510e-10	
47	5.000000e-01	3.000000e-01	-6.631850e-10	
48	5.500000e-01	3.000000e-01	-7.381394e-10	
49	6.000000e-01	3.000000e-01	-8.180751e-10	
50	6.500000e-01	3.000000e-01	-9.032639e-10	
51	7.000000e-01	3.000000e-01	-9.939905e-10	
52	7.500000e-01	3.000000e-01	-1.090553e-09	
53	8.000000e-01	3.000000e-01	-1.193262e-09	
54	8.500000e-01	3.000000e-01	-1.302444e-09	

Index   v-sweep         v(1)            vds#branch      
--------------------------------------------------------------------------------
55	9.000000e-01	3.000000e-01	-1.418441e-09	
56	9.500000e-01	3.000000e-01	-1.541611e-09	
57	1.000000e+00	3.000000e-01	-1.672328e-09	
58	1.050000e+00	3.000000e-01	-1.810983e-09	
59	1.100000e+00	3.000000e-01	-1.957988e-09	
60	1.150000e+00	3.000000e-01	-2.113773e-09	
61	1.200000e+00	3.000000e-01	-2.278791e-09	
62	1.250000e+00	3.000000e-01	-2.453524e-09	
63	1.300000e+00	3.000000e-01	-2.638494e-09	
64	1.350000e+00	3.000000e-01	-2.834287e-09	
65	1.400000e+00	3.000000e-01	-3.041603e-09	
66	1.450000e+00	3.000000e-01	-3.261346e-09	
67	1.500000e+00	3.000000e-01	-3.494785e-09	
68	1.550000e+00	3.000000e-01	-3.743827e-09	
69	1.600000e+00	3.000000e-01	-4.011471e-09	
70	1.650000e+00	3.000000e-01	-4.302511e-09	
71	1.700000e+00	3.000000e-01	-4.624621e-09	
72	1.750000e+00	3.000000e-01	-4.989975e-09	
73	1.800000e+00	3.000000e-01	-5.417700e-09	
74	0.000000e+00	6.000000e-01	1.314361e-17	
75	5.000000e-02	6.000000e-01	-4.383438e-05	
76	1.000000e-01	6.000000e-01	-5.690885e-05	
77	1.500000e-01	6.000000e-01	-6.568577e-05	
78	2.000000e-01	6.000000e-01	-7.406846e-05	
79	2.500000e-01	6.000000e-01	-8.234394e-05	
80	3.000000e-01	6.000000e-01	-9.105090e-05	
81	3.500000e-01	6.000000e-01	-9.993850e-05	
82	4.000000e-01	6.000000e-01	-1.091055e-04	
83	4.500000e-01	6.000000e-01	-1.185630e-04	
84	5.000000e-01	6.000000e-01	-1.283180e-04	
85	5.500000e-01	6.000000e-01	-1.383757e-04	
86	6.000000e-01	6.000000e-01	-1.487401e-04	
87	6.500000e-01	6.000000e-01	-1.592591e-04	
88	7.000000e-01	6.000000e-01	-1.702454e-04	
89	7.500000e-01	6.000000e-01	-1.815475e-04	
90	8.000000e-01	6.000000e-01	-1.931675e-04	
91	8.500000e-01	6.000000e-01	-2.051076e-04	
92	9.000000e-01	6.000000e-01	-2.173695e-04	
93	9.500000e-01	6.000000e-01	-2.299548e-04	
94	1.000000e+00	6.000000e-01	-2.428650e-04	
95	1.050000e+00	6.000000e-01	-2.561011e-04	
96	1.100000e+00	6.000000e-01	-2.696644e-04	
97	1.150000e+00	6.000000e-01	-2.835557e-04	
98	1.200000e+00	6.000000e-01	-2.977760e-04	
99	1.250000e+00	6.000000e-01	-3.123262e-04	
100	1.300000e+00	6.000000e-01	-3.272086e-04	
101	1.350000e+00	6.000000e-01	-3.424273e-04	
102	1.400000e+00	6.000000e-01	-3.579918e-04	
103	1.450000e+00	6.000000e-01	-3.739224e-04	
104	1.500000e+00	6.000000e-01	-3.902598e-04	
105	1.550000e+00	6.000000e-01	-4.070823e-04	
106	1.600000e+00	6.000000e-01	-4.245326e-04	
107	1.650000e+00	6.000000e-01	-4.433914e-04	
108	1.700000e+00	6.000000e-01	-4.632834e-04	
109	1.750000e+00	6.000000e-01	-4.853120e-04	
110	1.800000e+00	6.000000e-01	-5.106203e-04	
111	0.000000e+00	9.000000e-01	3.929327e-17	
112	5.000000e-02	9.000000e-01	-5.608116e-04	

Index   v-sweep         v(1)            vds#branch      
--------------------------------------------------------------------------------
113	1.000000e-01	9.000000e-01	-9.872410e-04	
114	1.500000e-01	9.000000e-01	-1.292086e-03	
115	2.000000e-01	9.000000e-01	-1.490713e-03	
116	2.500000e-01	9.000000e-01	-1.611278e-03	
117	3.000000e-01	9.000000e-01	-1.689343e-03	
118	3.500000e-01	9.000000e-01	-1.748402e-03	
119	4.000000e-01	9.000000e-01	-1.798945e-03	
120	4.500000e-01	9.000000e-01	-1.846954e-03	
121	5.000000e-01	9.000000e-01	-1.890374e-03	
122	5.500000e-01	9.000000e-01	-1.932876e-03	
123	6.000000e-01	9.000000e-01	-1.974780e-03	
124	6.500000e-01	9.000000e-01	-2.016297e-03	
125	7.000000e-01	9.000000e-01	-2.057568e-03	
126	7.500000e-01	9.000000e-01	-2.098688e-03	
127	8.000000e-01	9.000000e-01	-2.139722e-03	
128	8.500000e-01	9.000000e-01	-2.180716e-03	
129	9.000000e-01	9.000000e-01	-2.221701e-03	
130	9.500000e-01	9.000000e-01	-2.262700e-03	
131	1.000000e+00	9.000000e-01	-2.303730e-03	
132	1.050000e+00	9.000000e-01	-2.344803e-03	
133	1.100000e+00	9.000000e-01	-2.385927e-03	
134	1.150000e+00	9.000000e-01	-2.427107e-03	
135	1.200000e+00	9.000000e-01	-2.468348e-03	
136	1.250000e+00	9.000000e-01	-2.509652e-03	
137	1.300000e+00	9.000000e-01	-2.551021e-03	
138	1.350000e+00	9.000000e-01	-2.592456e-03	
139	1.400000e+00	9.000000e-01	-2.633961e-03	
140	1.450000e+00	9.000000e-01	-2.675545e-03	
141	1.500000e+00	9.000000e-01	-2.717232e-03	
142	1.550000e+00	9.000000e-01	-2.759077e-03	
143	1.600000e+00	9.000000e-01	-2.801197e-03	
144	1.650000e+00	9.000000e-01	-2.844178e-03	
145	1.700000e+00	9.000000e-01	-2.888052e-03	
146	1.750000e+00	9.000000e-01	-2.933882e-03	
147	1.800000e+00	9.000000e-01	-2.983142e-03	
148	0.000000e+00	1.200000e+00	7.736934e-17	
149	5.000000e-02	1.200000e+00	-7.502740e-04	
150	1.000000e-01	1.200000e+00	-1.394897e-03	
151	1.500000e-01	1.200000e+00	-1.939530e-03	
152	2.000000e-01	1.200000e+00	-2.388654e-03	
153	2.500000e-01	1.200000e+00	-2.745385e-03	
154	3.000000e-01	1.200000e+00	-3.013158e-03	
155	3.500000e-01	1.200000e+00	-3.201947e-03	
156	4.000000e-01	1.200000e+00	-3.332833e-03	
157	4.500000e-01	1.200000e+00	-3.429215e-03	
158	5.000000e-01	1.200000e+00	-3.507025e-03	
159	5.500000e-01	1.200000e+00	-3.574790e-03	
160	6.000000e-01	1.200000e+00	-3.639194e-03	
161	6.500000e-01	1.200000e+00	-3.696875e-03	
162	7.000000e-01	1.200000e+00	-3.752734e-03	
163	7.500000e-01	1.200000e+00	-3.807321e-03	
164	8.000000e-01	1.200000e+00	-3.860996e-03	
165	8.500000e-01	1.200000e+00	-3.914001e-03	
166	9.000000e-01	1.200000e+00	-3.966506e-03	
167	9.500000e-01	1.200000e+00	-4.018630e-03	
168	1.000000e+00	1.200000e+00	-4.070458e-03	
169	1.050000e+00	1.200000e+00	-4.122052e-03	
170	1.100000e+00	1.200000e+00	-4.173460e-03	

Index   v-sweep         v(1)            vds#branch      
--------------------------------------------------------------------------------
171	1.150000e+00	1.200000e+00	-4.224716e-03	
172	1.200000e+00	1.200000e+00	-4.275846e-03	
173	1.250000e+00	1.200000e+00	-4.326871e-03	
174	1.300000e+00	1.200000e+00	-4.377806e-03	
175	1.350000e+00	1.200000e+00	-4.428663e-03	
176	1.400000e+00	1.200000e+00	-4.479450e-03	
177	1.450000e+00	1.200000e+00	-4.530176e-03	
178	1.500000e+00	1.200000e+00	-4.580851e-03	
179	1.550000e+00	1.200000e+00	-4.631488e-03	
180	1.600000e+00	1.200000e+00	-4.682121e-03	
181	1.650000e+00	1.200000e+00	-4.732818e-03	
182	1.700000e+00	1.200000e+00	-4.783727e-03	
183	1.750000e+00	1.200000e+00	-4.835527e-03	
184	1.800000e+00	1.200000e+00	-4.888404e-03	
185	0.000000e+00	1.500000e+00	1.277867e-16	
186	5.000000e-02	1.500000e+00	-8.474121e-04	
187	1.000000e-01	1.500000e+00	-1.610267e-03	
188	1.500000e-01	1.500000e+00	-2.291933e-03	
189	2.000000e-01	1.500000e+00	-2.895362e-03	
190	2.500000e-01	1.500000e+00	-3.422837e-03	
191	3.000000e-01	1.500000e+00	-3.875655e-03	
192	3.500000e-01	1.500000e+00	-4.253941e-03	
193	4.000000e-01	1.500000e+00	-4.557499e-03	
194	4.500000e-01	1.500000e+00	-4.789495e-03	
195	5.000000e-01	1.500000e+00	-4.961318e-03	
196	5.500000e-01	1.500000e+00	-5.090703e-03	
197	6.000000e-01	1.500000e+00	-5.193835e-03	
198	6.500000e-01	1.500000e+00	-5.281455e-03	
199	7.000000e-01	1.500000e+00	-5.363671e-03	
200	7.500000e-01	1.500000e+00	-5.434773e-03	
201	8.000000e-01	1.500000e+00	-5.502675e-03	
202	8.500000e-01	1.500000e+00	-5.568316e-03	
203	9.000000e-01	1.500000e+00	-5.632310e-03	
204	9.500000e-01	1.500000e+00	-5.695066e-03	
205	1.000000e+00	1.500000e+00	-5.756872e-03	
206	1.050000e+00	1.500000e+00	-5.817929e-03	
207	1.100000e+00	1.500000e+00	-5.878382e-03	
208	1.150000e+00	1.500000e+00	-5.938340e-03	
209	1.200000e+00	1.500000e+00	-5.997883e-03	
210	1.250000e+00	1.500000e+00	-6.057071e-03	
211	1.300000e+00	1.500000e+00	-6.115952e-03	
212	1.350000e+00	1.500000e+00	-6.174561e-03	
213	1.400000e+00	1.500000e+00	-6.232926e-03	
214	1.450000e+00	1.500000e+00	-6.291071e-03	
215	1.500000e+00	1.500000e+00	-6.349011e-03	
216	1.550000e+00	1.500000e+00	-6.406764e-03	
217	1.600000e+00	1.500000e+00	-6.464343e-03	
218	1.650000e+00	1.500000e+00	-6.521770e-03	
219	1.700000e+00	1.500000e+00	-6.579080e-03	
220	1.750000e+00	1.500000e+00	-6.636350e-03	
221	1.800000e+00	1.500000e+00	-6.693743e-03	
222	0.000000e+00	1.800000e+00	1.891469e-16	
223	5.000000e-02	1.800000e+00	-9.036920e-04	
224	1.000000e-01	1.800000e+00	-1.737519e-03	
225	1.500000e-01	1.800000e+00	-2.503695e-03	
226	2.000000e-01	1.800000e+00	-3.204279e-03	
227	2.500000e-01	1.800000e+00	-3.841077e-03	
228	3.000000e-01	1.800000e+00	-4.415505e-03	

Index   v-sweep         v(1)            vds#branch      
--------------------------------------------------------------------------------
229	3.500000e-01	1.800000e+00	-4.928401e-03	
230	4.000000e-01	1.800000e+00	-5.379768e-03	
231	4.500000e-01	1.800000e+00	-5.768612e-03	
232	5.000000e-01	1.800000e+00	-6.093435e-03	
233	5.500000e-01	1.800000e+00	-6.354520e-03	
234	6.000000e-01	1.800000e+00	-6.557754e-03	
235	6.500000e-01	1.800000e+00	-6.715491e-03	
236	7.000000e-01	1.800000e+00	-6.841903e-03	
237	7.500000e-01	1.800000e+00	-6.948287e-03	
238	8.000000e-01	1.800000e+00	-7.047410e-03	
239	8.500000e-01	1.800000e+00	-7.131196e-03	
240	9.000000e-01	1.800000e+00	-7.210319e-03	
241	9.500000e-01	1.800000e+00	-7.286144e-03	
242	1.000000e+00	1.800000e+00	-7.359549e-03	
243	1.050000e+00	1.800000e+00	-7.431125e-03	
244	1.100000e+00	1.800000e+00	-7.501281e-03	
245	1.150000e+00	1.800000e+00	-7.570308e-03	
246	1.200000e+00	1.800000e+00	-7.638416e-03	
247	1.250000e+00	1.800000e+00	-7.705759e-03	
248	1.300000e+00	1.800000e+00	-7.772453e-03	
249	1.350000e+00	1.800000e+00	-7.838588e-03	
250	1.400000e+00	1.800000e+00	-7.904230e-03	
251	1.450000e+00	1.800000e+00	-7.969434e-03	
252	1.500000e+00	1.800000e+00	-8.034241e-03	
253	1.550000e+00	1.800000e+00	-8.098684e-03	
254	1.600000e+00	1.800000e+00	-8.162790e-03	
255	1.650000e+00	1.800000e+00	-8.226581e-03	
256	1.700000e+00	1.800000e+00	-8.290079e-03	
257	1.750000e+00	1.800000e+00	-8.353309e-03	
258	1.800000e+00	1.800000e+00	-8.416310e-03	




