
Circuit: ** NMOSFET: Benchmarking Implementation of BSIM4.1.0 by Weidong Liu 10/11/2000.

** NMOSFET: Benchmarking Implementation of BSIM4.1.0 by Weidong Liu 10/11/2000.
--------------------------------------------------------------------------------
Index   v-sweep         v(1)            vds#branch      
--------------------------------------------------------------------------------
0	0.000000e+00	0.000000e+00	2.251599e-34	
1	5.000000e-02	0.000000e+00	-5.028052e-14	
2	1.000000e-01	0.000000e+00	-1.001703e-13	
3	1.500000e-01	0.000000e+00	-1.502086e-13	
4	2.000000e-01	0.000000e+00	-2.002573e-13	
5	2.500000e-01	0.000000e+00	-2.502921e-13	
6	3.000000e-01	0.000000e+00	-3.003270e-13	
7	3.500000e-01	0.000000e+00	-3.503861e-13	
8	4.000000e-01	0.000000e+00	-4.004452e-13	
9	4.500000e-01	0.000000e+00	-4.504557e-13	
10	5.000000e-01	0.000000e+00	-5.005357e-13	
11	5.500000e-01	0.000000e+00	-5.505740e-13	
12	6.000000e-01	0.000000e+00	-6.006539e-13	
13	6.500000e-01	0.000000e+00	-6.507200e-13	
14	7.000000e-01	0.000000e+00	-7.008277e-13	
15	7.500000e-01	0.000000e+00	-7.508937e-13	
16	8.000000e-01	0.000000e+00	-8.009459e-13	
17	8.500000e-01	0.000000e+00	-8.510953e-13	
18	9.000000e-01	0.000000e+00	-9.012030e-13	
19	9.500000e-01	0.000000e+00	-9.513107e-13	
20	1.000000e+00	0.000000e+00	-1.001363e-12	
21	1.050000e+00	0.000000e+00	-1.051457e-12	
22	1.100000e+00	0.000000e+00	-1.101648e-12	
23	1.150000e+00	0.000000e+00	-1.151756e-12	
24	1.200000e+00	0.000000e+00	-1.201863e-12	
25	1.250000e+00	0.000000e+00	-1.251999e-12	
26	1.300000e+00	0.000000e+00	-1.302107e-12	
27	1.350000e+00	0.000000e+00	-1.352409e-12	
28	1.400000e+00	0.000000e+00	-1.405267e-12	
29	1.450000e+00	0.000000e+00	-1.486298e-12	
30	1.500000e+00	0.000000e+00	-1.792543e-12	
31	1.550000e+00	0.000000e+00	-3.431067e-12	
32	1.600000e+00	0.000000e+00	-1.127998e-11	
33	1.650000e+00	0.000000e+00	-4.291980e-11	
34	1.700000e+00	0.000000e+00	-1.519840e-10	
35	1.750000e+00	0.000000e+00	-4.808186e-10	
36	1.800000e+00	0.000000e+00	-1.365384e-09	
37	0.000000e+00	3.000000e-01	1.891504e-18	
38	5.000000e-02	3.000000e-01	-1.602532e-10	
39	1.000000e-01	3.000000e-01	-2.112589e-10	
40	1.500000e-01	3.000000e-01	-2.566604e-10	
41	2.000000e-01	3.000000e-01	-3.039592e-10	
42	2.500000e-01	3.000000e-01	-3.542990e-10	
43	3.000000e-01	3.000000e-01	-4.081028e-10	
44	3.500000e-01	3.000000e-01	-4.656505e-10	
45	4.000000e-01	3.000000e-01	-5.271870e-10	
46	4.500000e-01	3.000000e-01	-5.929509e-10	
47	5.000000e-01	3.000000e-01	-6.631849e-10	
48	5.500000e-01	3.000000e-01	-7.381393e-10	
49	6.000000e-01	3.000000e-01	-8.180750e-10	
50	6.500000e-01	3.000000e-01	-9.032637e-10	
51	7.000000e-01	3.000000e-01	-9.939903e-10	
52	7.500000e-01	3.000000e-01	-1.090552e-09	
53	8.000000e-01	3.000000e-01	-1.193261e-09	
54	8.500000e-01	3.000000e-01	-1.302444e-09	

Index   v-sweep         v(1)            vds#branch      
--------------------------------------------------------------------------------
55	9.000000e-01	3.000000e-01	-1.418441e-09	
56	9.500000e-01	3.000000e-01	-1.541611e-09	
57	1.000000e+00	3.000000e-01	-1.672327e-09	
58	1.050000e+00	3.000000e-01	-1.810983e-09	
59	1.100000e+00	3.000000e-01	-1.957988e-09	
60	1.150000e+00	3.000000e-01	-2.113773e-09	
61	1.200000e+00	3.000000e-01	-2.278791e-09	
62	1.250000e+00	3.000000e-01	-2.453524e-09	
63	1.300000e+00	3.000000e-01	-2.638493e-09	
64	1.350000e+00	3.000000e-01	-2.834286e-09	
65	1.400000e+00	3.000000e-01	-3.041602e-09	
66	1.450000e+00	3.000000e-01	-3.261346e-09	
67	1.500000e+00	3.000000e-01	-3.494784e-09	
68	1.550000e+00	3.000000e-01	-3.743826e-09	
69	1.600000e+00	3.000000e-01	-4.011470e-09	
70	1.650000e+00	3.000000e-01	-4.302510e-09	
71	1.700000e+00	3.000000e-01	-4.624621e-09	
72	1.750000e+00	3.000000e-01	-4.989974e-09	
73	1.800000e+00	3.000000e-01	-5.417699e-09	
74	0.000000e+00	6.000000e-01	1.314519e-17	
75	5.000000e-02	6.000000e-01	-4.383437e-05	
76	1.000000e-01	6.000000e-01	-5.690861e-05	
77	1.500000e-01	6.000000e-01	-6.568574e-05	
78	2.000000e-01	6.000000e-01	-7.401033e-05	
79	2.500000e-01	6.000000e-01	-8.242285e-05	
80	3.000000e-01	6.000000e-01	-9.105087e-05	
81	3.500000e-01	6.000000e-01	-9.993847e-05	
82	4.000000e-01	6.000000e-01	-1.091055e-04	
83	4.500000e-01	6.000000e-01	-1.185630e-04	
84	5.000000e-01	6.000000e-01	-1.283180e-04	
85	5.500000e-01	6.000000e-01	-1.383756e-04	
86	6.000000e-01	6.000000e-01	-1.487401e-04	
87	6.500000e-01	6.000000e-01	-1.594146e-04	
88	7.000000e-01	6.000000e-01	-1.704023e-04	
89	7.500000e-01	6.000000e-01	-1.817055e-04	
90	8.000000e-01	6.000000e-01	-1.933267e-04	
91	8.500000e-01	6.000000e-01	-2.052677e-04	
92	9.000000e-01	6.000000e-01	-2.175305e-04	
93	9.500000e-01	6.000000e-01	-2.301166e-04	
94	1.000000e+00	6.000000e-01	-2.430274e-04	
95	1.050000e+00	6.000000e-01	-2.562641e-04	
96	1.100000e+00	6.000000e-01	-2.698279e-04	
97	1.150000e+00	6.000000e-01	-2.837197e-04	
98	1.200000e+00	6.000000e-01	-2.979404e-04	
99	1.250000e+00	6.000000e-01	-3.124915e-04	
100	1.300000e+00	6.000000e-01	-3.273754e-04	
101	1.350000e+00	6.000000e-01	-3.425974e-04	
102	1.400000e+00	6.000000e-01	-3.581692e-04	
103	1.450000e+00	6.000000e-01	-3.741145e-04	
104	1.500000e+00	6.000000e-01	-3.904806e-04	
105	1.550000e+00	6.000000e-01	-4.073564e-04	
106	1.600000e+00	6.000000e-01	-4.249015e-04	
107	1.650000e+00	6.000000e-01	-4.433913e-04	
108	1.700000e+00	6.000000e-01	-4.632832e-04	
109	1.750000e+00	6.000000e-01	-4.853119e-04	
110	1.800000e+00	6.000000e-01	-5.106202e-04	
111	0.000000e+00	9.000000e-01	3.929327e-17	
112	5.000000e-02	9.000000e-01	-5.608115e-04	

Index   v-sweep         v(1)            vds#branch      
--------------------------------------------------------------------------------
113	1.000000e-01	9.000000e-01	-9.872468e-04	
114	1.500000e-01	9.000000e-01	-1.292089e-03	
115	2.000000e-01	9.000000e-01	-1.490715e-03	
116	2.500000e-01	9.000000e-01	-1.611278e-03	
117	3.000000e-01	9.000000e-01	-1.689343e-03	
118	3.500000e-01	9.000000e-01	-1.748402e-03	
119	4.000000e-01	9.000000e-01	-1.798945e-03	
120	4.500000e-01	9.000000e-01	-1.845323e-03	
121	5.000000e-01	9.000000e-01	-1.889474e-03	
122	5.500000e-01	9.000000e-01	-1.932349e-03	
123	6.000000e-01	9.000000e-01	-1.974459e-03	
124	6.500000e-01	9.000000e-01	-2.016098e-03	
125	7.000000e-01	9.000000e-01	-2.057445e-03	
126	7.500000e-01	9.000000e-01	-2.098614e-03	
127	8.000000e-01	9.000000e-01	-2.139681e-03	
128	8.500000e-01	9.000000e-01	-2.180697e-03	
129	9.000000e-01	9.000000e-01	-2.221698e-03	
130	9.500000e-01	9.000000e-01	-2.262708e-03	
131	1.000000e+00	9.000000e-01	-2.303747e-03	
132	1.050000e+00	9.000000e-01	-2.344825e-03	
133	1.100000e+00	9.000000e-01	-2.385953e-03	
134	1.150000e+00	9.000000e-01	-2.427136e-03	
135	1.200000e+00	9.000000e-01	-2.468378e-03	
136	1.250000e+00	9.000000e-01	-2.509684e-03	
137	1.300000e+00	9.000000e-01	-2.551053e-03	
138	1.350000e+00	9.000000e-01	-2.592489e-03	
139	1.400000e+00	9.000000e-01	-2.633997e-03	
140	1.450000e+00	9.000000e-01	-2.675590e-03	
141	1.500000e+00	9.000000e-01	-2.717296e-03	
142	1.550000e+00	9.000000e-01	-2.759182e-03	
143	1.600000e+00	9.000000e-01	-2.801387e-03	
144	1.650000e+00	9.000000e-01	-2.844178e-03	
145	1.700000e+00	9.000000e-01	-2.888052e-03	
146	1.750000e+00	9.000000e-01	-2.933882e-03	
147	1.800000e+00	9.000000e-01	-2.983142e-03	
148	0.000000e+00	1.200000e+00	7.736933e-17	
149	5.000000e-02	1.200000e+00	-7.502740e-04	
150	1.000000e-01	1.200000e+00	-1.394901e-03	
151	1.500000e-01	1.200000e+00	-1.939533e-03	
152	2.000000e-01	1.200000e+00	-2.388657e-03	
153	2.500000e-01	1.200000e+00	-2.745387e-03	
154	3.000000e-01	1.200000e+00	-3.013160e-03	
155	3.500000e-01	1.200000e+00	-3.201948e-03	
156	4.000000e-01	1.200000e+00	-3.332833e-03	
157	4.500000e-01	1.200000e+00	-3.429214e-03	
158	5.000000e-01	1.200000e+00	-3.507025e-03	
159	5.500000e-01	1.200000e+00	-3.574790e-03	
160	6.000000e-01	1.200000e+00	-3.636832e-03	
161	6.500000e-01	1.200000e+00	-3.695413e-03	
162	7.000000e-01	1.200000e+00	-3.751783e-03	
163	7.500000e-01	1.200000e+00	-3.806675e-03	
164	8.000000e-01	1.200000e+00	-3.860541e-03	
165	8.500000e-01	1.200000e+00	-3.913672e-03	
166	9.000000e-01	1.200000e+00	-3.966262e-03	
167	9.500000e-01	1.200000e+00	-4.018444e-03	
168	1.000000e+00	1.200000e+00	-4.070314e-03	
169	1.050000e+00	1.200000e+00	-4.121939e-03	
170	1.100000e+00	1.200000e+00	-4.173369e-03	

Index   v-sweep         v(1)            vds#branch      
--------------------------------------------------------------------------------
171	1.150000e+00	1.200000e+00	-4.224642e-03	
172	1.200000e+00	1.200000e+00	-4.275785e-03	
173	1.250000e+00	1.200000e+00	-4.326820e-03	
174	1.300000e+00	1.200000e+00	-4.377762e-03	
175	1.350000e+00	1.200000e+00	-4.428624e-03	
176	1.400000e+00	1.200000e+00	-4.479416e-03	
177	1.450000e+00	1.200000e+00	-4.530147e-03	
178	1.500000e+00	1.200000e+00	-4.580827e-03	
179	1.550000e+00	1.200000e+00	-4.631476e-03	
180	1.600000e+00	1.200000e+00	-4.682134e-03	
181	1.650000e+00	1.200000e+00	-4.732883e-03	
182	1.700000e+00	1.200000e+00	-4.783900e-03	
183	1.750000e+00	1.200000e+00	-4.835527e-03	
184	1.800000e+00	1.200000e+00	-4.888404e-03	
185	0.000000e+00	1.500000e+00	1.277867e-16	
186	5.000000e-02	1.500000e+00	-8.474121e-04	
187	1.000000e-01	1.500000e+00	-1.610269e-03	
188	1.500000e-01	1.500000e+00	-2.291935e-03	
189	2.000000e-01	1.500000e+00	-2.895364e-03	
190	2.500000e-01	1.500000e+00	-3.422838e-03	
191	3.000000e-01	1.500000e+00	-3.875656e-03	
192	3.500000e-01	1.500000e+00	-4.253942e-03	
193	4.000000e-01	1.500000e+00	-4.557500e-03	
194	4.500000e-01	1.500000e+00	-4.789495e-03	
195	5.000000e-01	1.500000e+00	-4.961318e-03	
196	5.500000e-01	1.500000e+00	-5.090703e-03	
197	6.000000e-01	1.500000e+00	-5.193834e-03	
198	6.500000e-01	1.500000e+00	-5.281455e-03	
199	7.000000e-01	1.500000e+00	-5.359778e-03	
200	7.500000e-01	1.500000e+00	-5.432299e-03	
201	8.000000e-01	1.500000e+00	-5.501031e-03	
202	8.500000e-01	1.500000e+00	-5.567178e-03	
203	9.000000e-01	1.500000e+00	-5.631491e-03	
204	9.500000e-01	1.500000e+00	-5.694458e-03	
205	1.000000e+00	1.500000e+00	-5.756407e-03	
206	1.050000e+00	1.500000e+00	-5.817564e-03	
207	1.100000e+00	1.500000e+00	-5.878089e-03	
208	1.150000e+00	1.500000e+00	-5.938099e-03	
209	1.200000e+00	1.500000e+00	-5.997681e-03	
210	1.250000e+00	1.500000e+00	-6.056898e-03	
211	1.300000e+00	1.500000e+00	-6.115801e-03	
212	1.350000e+00	1.500000e+00	-6.174427e-03	
213	1.400000e+00	1.500000e+00	-6.232807e-03	
214	1.450000e+00	1.500000e+00	-6.290962e-03	
215	1.500000e+00	1.500000e+00	-6.348911e-03	
216	1.550000e+00	1.500000e+00	-6.406672e-03	
217	1.600000e+00	1.500000e+00	-6.464260e-03	
218	1.650000e+00	1.500000e+00	-6.521700e-03	
219	1.700000e+00	1.500000e+00	-6.579038e-03	
220	1.750000e+00	1.500000e+00	-6.636367e-03	
221	1.800000e+00	1.500000e+00	-6.693878e-03	
222	0.000000e+00	1.800000e+00	1.891468e-16	
223	5.000000e-02	1.800000e+00	-9.036920e-04	
224	1.000000e-01	1.800000e+00	-1.737520e-03	
225	1.500000e-01	1.800000e+00	-2.503696e-03	
226	2.000000e-01	1.800000e+00	-3.204280e-03	
227	2.500000e-01	1.800000e+00	-3.841078e-03	
228	3.000000e-01	1.800000e+00	-4.415506e-03	

Index   v-sweep         v(1)            vds#branch      
--------------------------------------------------------------------------------
229	3.500000e-01	1.800000e+00	-4.928402e-03	
230	4.000000e-01	1.800000e+00	-5.379768e-03	
231	4.500000e-01	1.800000e+00	-5.768612e-03	
232	5.000000e-01	1.800000e+00	-6.093435e-03	
233	5.500000e-01	1.800000e+00	-6.354521e-03	
234	6.000000e-01	1.800000e+00	-6.557754e-03	
235	6.500000e-01	1.800000e+00	-6.715490e-03	
236	7.000000e-01	1.800000e+00	-6.841903e-03	
237	7.500000e-01	1.800000e+00	-6.948286e-03	
238	8.000000e-01	1.800000e+00	-7.042052e-03	
239	8.500000e-01	1.800000e+00	-7.127707e-03	
240	9.000000e-01	1.800000e+00	-7.207965e-03	
241	9.500000e-01	1.800000e+00	-7.284495e-03	
242	1.000000e+00	1.800000e+00	-7.358351e-03	
243	1.050000e+00	1.800000e+00	-7.430226e-03	
244	1.100000e+00	1.800000e+00	-7.500587e-03	
245	1.150000e+00	1.800000e+00	-7.569757e-03	
246	1.200000e+00	1.800000e+00	-7.637968e-03	
247	1.250000e+00	1.800000e+00	-7.705386e-03	
248	1.300000e+00	1.800000e+00	-7.772137e-03	
249	1.350000e+00	1.800000e+00	-7.838314e-03	
250	1.400000e+00	1.800000e+00	-7.903989e-03	
251	1.450000e+00	1.800000e+00	-7.969219e-03	
252	1.500000e+00	1.800000e+00	-8.034045e-03	
253	1.550000e+00	1.800000e+00	-8.098504e-03	
254	1.600000e+00	1.800000e+00	-8.162624e-03	
255	1.650000e+00	1.800000e+00	-8.226426e-03	
256	1.700000e+00	1.800000e+00	-8.289936e-03	
257	1.750000e+00	1.800000e+00	-8.353182e-03	
258	1.800000e+00	1.800000e+00	-8.416212e-03	




