
No. of Data Rows : 222

Circuit: ** PMOSFET: Benchmarking Implementation of BSIM4.1.0 by Weidong Liu 10/11/2000.

Doing analysis at TEMP = 373.150000 and TNOM = 300.150000
Warning: This model is BSIM4.2.1; you specified a wrong version number.
** PMOSFET: Benchmarking Implementation of BSIM4.1.0 by Weidong Liu 10/11/2000.
--------------------------------------------------------------------------------
Index   v-sweep         v(1)            vds#branch      
--------------------------------------------------------------------------------
0	0.000000e+00	-3.000000e-01	-1.311633e-18	
1	-5.000000e-02	-3.000000e-01	6.295608e-09	
2	-1.000000e-01	-3.000000e-01	8.312678e-09	
3	-1.500000e-01	-3.000000e-01	9.616409e-09	
4	-2.000000e-01	-3.000000e-01	1.086702e-08	
5	-2.500000e-01	-3.000000e-01	1.216043e-08	
6	-3.000000e-01	-3.000000e-01	1.350623e-08	
7	-3.500000e-01	-3.000000e-01	1.491400e-08	
8	-4.000000e-01	-3.000000e-01	1.638754e-08	
9	-4.500000e-01	-3.000000e-01	1.792978e-08	
10	-5.000000e-01	-3.000000e-01	1.954340e-08	
11	-5.500000e-01	-3.000000e-01	2.123101e-08	
12	-6.000000e-01	-3.000000e-01	2.299523e-08	
13	-6.500000e-01	-3.000000e-01	2.483872e-08	
14	-7.000000e-01	-3.000000e-01	2.676419e-08	
15	-7.500000e-01	-3.000000e-01	2.877444e-08	
16	-8.000000e-01	-3.000000e-01	3.087232e-08	
17	-8.500000e-01	-3.000000e-01	3.306078e-08	
18	-9.000000e-01	-3.000000e-01	3.534283e-08	
19	-9.500000e-01	-3.000000e-01	3.772158e-08	
20	-1.000000e+00	-3.000000e-01	4.020022e-08	
21	-1.050000e+00	-3.000000e-01	4.278201e-08	
22	-1.100000e+00	-3.000000e-01	4.547034e-08	
23	-1.150000e+00	-3.000000e-01	4.826868e-08	
24	-1.200000e+00	-3.000000e-01	5.118064e-08	
25	-1.250000e+00	-3.000000e-01	5.421003e-08	
26	-1.300000e+00	-3.000000e-01	5.736100e-08	
27	-1.350000e+00	-3.000000e-01	6.063841e-08	
28	-1.400000e+00	-3.000000e-01	6.404849e-08	
29	-1.450000e+00	-3.000000e-01	6.760014e-08	
30	-1.500000e+00	-3.000000e-01	7.130723e-08	
31	-1.550000e+00	-3.000000e-01	7.519258e-08	
32	-1.600000e+00	-3.000000e-01	7.929438e-08	
33	-1.650000e+00	-3.000000e-01	8.367632e-08	
34	-1.700000e+00	-3.000000e-01	8.844284e-08	
35	-1.750000e+00	-3.000000e-01	9.376153e-08	
36	-1.800000e+00	-3.000000e-01	9.989507e-08	
37	0.000000e+00	-6.000000e-01	-9.409391e-18	
38	-5.000000e-02	-6.000000e-01	9.446743e-06	
39	-1.000000e-01	-6.000000e-01	1.310337e-05	
40	-1.500000e-01	-6.000000e-01	1.496078e-05	
41	-2.000000e-01	-6.000000e-01	1.653526e-05	
42	-2.500000e-01	-6.000000e-01	1.808514e-05	
43	-3.000000e-01	-6.000000e-01	1.965635e-05	
44	-3.500000e-01	-6.000000e-01	2.130351e-05	
45	-4.000000e-01	-6.000000e-01	2.298053e-05	
46	-4.500000e-01	-6.000000e-01	2.470850e-05	
47	-5.000000e-01	-6.000000e-01	2.646251e-05	
48	-5.500000e-01	-6.000000e-01	2.829610e-05	
49	-6.000000e-01	-6.000000e-01	3.018443e-05	
50	-6.500000e-01	-6.000000e-01	3.212839e-05	
51	-7.000000e-01	-6.000000e-01	3.412886e-05	
52	-7.500000e-01	-6.000000e-01	3.618668e-05	
53	-8.000000e-01	-6.000000e-01	3.830269e-05	
54	-8.500000e-01	-6.000000e-01	4.047773e-05	

Index   v-sweep         v(1)            vds#branch      
--------------------------------------------------------------------------------
55	-9.000000e-01	-6.000000e-01	4.271262e-05	
56	-9.500000e-01	-6.000000e-01	4.500818e-05	
57	-1.000000e+00	-6.000000e-01	4.736523e-05	
58	-1.050000e+00	-6.000000e-01	4.978458e-05	
59	-1.100000e+00	-6.000000e-01	5.226703e-05	
60	-1.150000e+00	-6.000000e-01	5.481340e-05	
61	-1.200000e+00	-6.000000e-01	5.742449e-05	
62	-1.250000e+00	-6.000000e-01	6.010117e-05	
63	-1.300000e+00	-6.000000e-01	6.284441e-05	
64	-1.350000e+00	-6.000000e-01	6.565547e-05	
65	-1.400000e+00	-6.000000e-01	6.853632e-05	
66	-1.450000e+00	-6.000000e-01	7.149032e-05	
67	-1.500000e+00	-6.000000e-01	7.452373e-05	
68	-1.550000e+00	-6.000000e-01	7.764807e-05	
69	-1.600000e+00	-6.000000e-01	8.088430e-05	
70	-1.650000e+00	-6.000000e-01	8.435740e-05	
71	-1.700000e+00	-6.000000e-01	8.799395e-05	
72	-1.750000e+00	-6.000000e-01	9.196988e-05	
73	-1.800000e+00	-6.000000e-01	9.646187e-05	
74	0.000000e+00	-9.000000e-01	-2.853929e-17	
75	-5.000000e-02	-9.000000e-01	1.445355e-04	
76	-1.000000e-01	-9.000000e-01	2.660718e-04	
77	-1.500000e-01	-9.000000e-01	3.657323e-04	
78	-2.000000e-01	-9.000000e-01	4.447311e-04	
79	-2.500000e-01	-9.000000e-01	5.046019e-04	
80	-3.000000e-01	-9.000000e-01	5.477507e-04	
81	-3.500000e-01	-9.000000e-01	5.781317e-04	
82	-4.000000e-01	-9.000000e-01	6.006846e-04	
83	-4.500000e-01	-9.000000e-01	6.193534e-04	
84	-5.000000e-01	-9.000000e-01	6.362830e-04	
85	-5.500000e-01	-9.000000e-01	6.527249e-04	
86	-6.000000e-01	-9.000000e-01	6.683758e-04	
87	-6.500000e-01	-9.000000e-01	6.839594e-04	
88	-7.000000e-01	-9.000000e-01	6.995298e-04	
89	-7.500000e-01	-9.000000e-01	7.151211e-04	
90	-8.000000e-01	-9.000000e-01	7.307550e-04	
91	-8.500000e-01	-9.000000e-01	7.464455e-04	
92	-9.000000e-01	-9.000000e-01	7.622014e-04	
93	-9.500000e-01	-9.000000e-01	7.780283e-04	
94	-1.000000e+00	-9.000000e-01	7.939298e-04	
95	-1.050000e+00	-9.000000e-01	8.099081e-04	
96	-1.100000e+00	-9.000000e-01	8.259644e-04	
97	-1.150000e+00	-9.000000e-01	8.420992e-04	
98	-1.200000e+00	-9.000000e-01	8.583126e-04	
99	-1.250000e+00	-9.000000e-01	8.746044e-04	
100	-1.300000e+00	-9.000000e-01	8.909740e-04	
101	-1.350000e+00	-9.000000e-01	9.074206e-04	
102	-1.400000e+00	-9.000000e-01	9.239436e-04	
103	-1.450000e+00	-9.000000e-01	9.405421e-04	
104	-1.500000e+00	-9.000000e-01	9.572158e-04	
105	-1.550000e+00	-9.000000e-01	9.739659e-04	
106	-1.600000e+00	-9.000000e-01	9.907967e-04	
107	-1.650000e+00	-9.000000e-01	1.007720e-03	
108	-1.700000e+00	-9.000000e-01	1.024763e-03	
109	-1.750000e+00	-9.000000e-01	1.041984e-03	
110	-1.800000e+00	-9.000000e-01	1.059496e-03	
111	0.000000e+00	-1.200000e+00	-5.728902e-17	
112	-5.000000e-02	-1.200000e+00	2.140754e-04	

Index   v-sweep         v(1)            vds#branch      
--------------------------------------------------------------------------------
113	-1.000000e-01	-1.200000e+00	4.081394e-04	
114	-1.500000e-01	-1.200000e+00	5.827826e-04	
115	-2.000000e-01	-1.200000e+00	7.385905e-04	
116	-2.500000e-01	-1.200000e+00	8.761372e-04	
117	-3.000000e-01	-1.200000e+00	9.959931e-04	
118	-3.500000e-01	-1.200000e+00	1.098747e-03	
119	-4.000000e-01	-1.200000e+00	1.185063e-03	
120	-4.500000e-01	-1.200000e+00	1.255820e-03	
121	-5.000000e-01	-1.200000e+00	1.312391e-03	
122	-5.500000e-01	-1.200000e+00	1.357009e-03	
123	-6.000000e-01	-1.200000e+00	1.392751e-03	
124	-6.500000e-01	-1.200000e+00	1.422780e-03	
125	-7.000000e-01	-1.200000e+00	1.450835e-03	
126	-7.500000e-01	-1.200000e+00	1.475104e-03	
127	-8.000000e-01	-1.200000e+00	1.498610e-03	
128	-8.500000e-01	-1.200000e+00	1.521664e-03	
129	-9.000000e-01	-1.200000e+00	1.544442e-03	
130	-9.500000e-01	-1.200000e+00	1.567048e-03	
131	-1.000000e+00	-1.200000e+00	1.589549e-03	
132	-1.050000e+00	-1.200000e+00	1.611989e-03	
133	-1.100000e+00	-1.200000e+00	1.634395e-03	
134	-1.150000e+00	-1.200000e+00	1.656788e-03	
135	-1.200000e+00	-1.200000e+00	1.679182e-03	
136	-1.250000e+00	-1.200000e+00	1.701586e-03	
137	-1.300000e+00	-1.200000e+00	1.724007e-03	
138	-1.350000e+00	-1.200000e+00	1.746448e-03	
139	-1.400000e+00	-1.200000e+00	1.768914e-03	
140	-1.450000e+00	-1.200000e+00	1.791406e-03	
141	-1.500000e+00	-1.200000e+00	1.813926e-03	
142	-1.550000e+00	-1.200000e+00	1.836474e-03	
143	-1.600000e+00	-1.200000e+00	1.859051e-03	
144	-1.650000e+00	-1.200000e+00	1.881657e-03	
145	-1.700000e+00	-1.200000e+00	1.904293e-03	
146	-1.750000e+00	-1.200000e+00	1.926961e-03	
147	-1.800000e+00	-1.200000e+00	1.949670e-03	
148	0.000000e+00	-1.500000e+00	-9.565718e-17	
149	-5.000000e-02	-1.500000e+00	2.497801e-04	
150	-1.000000e-01	-1.500000e+00	4.827905e-04	
151	-1.500000e-01	-1.500000e+00	6.993911e-04	
152	-2.000000e-01	-1.500000e+00	8.999450e-04	
153	-2.500000e-01	-1.500000e+00	1.084809e-03	
154	-3.000000e-01	-1.500000e+00	1.254330e-03	
155	-3.500000e-01	-1.500000e+00	1.408851e-03	
156	-4.000000e-01	-1.500000e+00	1.548703e-03	
157	-4.500000e-01	-1.500000e+00	1.674216e-03	
158	-5.000000e-01	-1.500000e+00	1.785723e-03	
159	-5.500000e-01	-1.500000e+00	1.883583e-03	
160	-6.000000e-01	-1.500000e+00	1.968229e-03	
161	-6.500000e-01	-1.500000e+00	2.040279e-03	
162	-7.000000e-01	-1.500000e+00	2.100721e-03	
163	-7.500000e-01	-1.500000e+00	2.151123e-03	
164	-8.000000e-01	-1.500000e+00	2.193631e-03	
165	-8.500000e-01	-1.500000e+00	2.230556e-03	
166	-9.000000e-01	-1.500000e+00	2.265389e-03	
167	-9.500000e-01	-1.500000e+00	2.295838e-03	
168	-1.000000e+00	-1.500000e+00	2.325114e-03	
169	-1.050000e+00	-1.500000e+00	2.353650e-03	
170	-1.100000e+00	-1.500000e+00	2.381696e-03	

Index   v-sweep         v(1)            vds#branch      
--------------------------------------------------------------------------------
171	-1.150000e+00	-1.500000e+00	2.409408e-03	
172	-1.200000e+00	-1.500000e+00	2.436884e-03	
173	-1.250000e+00	-1.500000e+00	2.464192e-03	
174	-1.300000e+00	-1.500000e+00	2.491375e-03	
175	-1.350000e+00	-1.500000e+00	2.518465e-03	
176	-1.400000e+00	-1.500000e+00	2.545485e-03	
177	-1.450000e+00	-1.500000e+00	2.572449e-03	
178	-1.500000e+00	-1.500000e+00	2.599370e-03	
179	-1.550000e+00	-1.500000e+00	2.626256e-03	
180	-1.600000e+00	-1.500000e+00	2.653113e-03	
181	-1.650000e+00	-1.500000e+00	2.679944e-03	
182	-1.700000e+00	-1.500000e+00	2.706754e-03	
183	-1.750000e+00	-1.500000e+00	2.733545e-03	
184	-1.800000e+00	-1.500000e+00	2.760318e-03	
185	0.000000e+00	-1.800000e+00	-1.433956e-16	
186	-5.000000e-02	-1.800000e+00	2.692839e-04	
187	-1.000000e-01	-1.800000e+00	5.245069e-04	
188	-1.500000e-01	-1.800000e+00	7.659006e-04	
189	-2.000000e-01	-1.800000e+00	9.937023e-04	
190	-2.500000e-01	-1.800000e+00	1.208147e-03	
191	-3.000000e-01	-1.800000e+00	1.409468e-03	
192	-3.500000e-01	-1.800000e+00	1.597892e-03	
193	-4.000000e-01	-1.800000e+00	1.773642e-03	
194	-4.500000e-01	-1.800000e+00	1.936937e-03	
195	-5.000000e-01	-1.800000e+00	2.087991e-03	
196	-5.500000e-01	-1.800000e+00	2.227012e-03	
197	-6.000000e-01	-1.800000e+00	2.354206e-03	
198	-6.500000e-01	-1.800000e+00	2.469779e-03	
199	-7.000000e-01	-1.800000e+00	2.573945e-03	
200	-7.500000e-01	-1.800000e+00	2.666947e-03	
201	-8.000000e-01	-1.800000e+00	2.749101e-03	
202	-8.500000e-01	-1.800000e+00	2.820876e-03	
203	-9.000000e-01	-1.800000e+00	2.883026e-03	
204	-9.500000e-01	-1.800000e+00	2.936718e-03	
205	-1.000000e+00	-1.800000e+00	2.983521e-03	
206	-1.050000e+00	-1.800000e+00	3.027463e-03	
207	-1.100000e+00	-1.800000e+00	3.064789e-03	
208	-1.150000e+00	-1.800000e+00	3.099909e-03	
209	-1.200000e+00	-1.800000e+00	3.133615e-03	
210	-1.250000e+00	-1.800000e+00	3.166381e-03	
211	-1.300000e+00	-1.800000e+00	3.198499e-03	
212	-1.350000e+00	-1.800000e+00	3.230154e-03	
213	-1.400000e+00	-1.800000e+00	3.261465e-03	
214	-1.450000e+00	-1.800000e+00	3.292516e-03	
215	-1.500000e+00	-1.800000e+00	3.323363e-03	
216	-1.550000e+00	-1.800000e+00	3.354044e-03	
217	-1.600000e+00	-1.800000e+00	3.384590e-03	
218	-1.650000e+00	-1.800000e+00	3.415020e-03	
219	-1.700000e+00	-1.800000e+00	3.445350e-03	
220	-1.750000e+00	-1.800000e+00	3.475592e-03	
221	-1.800000e+00	-1.800000e+00	3.505753e-03	




