
No. of Data Rows : 101

Circuit: VBIC Temp test

Doing analysis at TEMP = 423.150000 and TNOM = 300.150000
                                 VBIC Temp test
--------------------------------------------------------------------------------
Index   v-sweep         vc#branch       vb#branch       
--------------------------------------------------------------------------------
0	2.000000e-01	1.868249e-08	1.079689e-09	
1	2.100000e-01	2.453418e-08	1.153221e-09	
2	2.200000e-01	3.221038e-08	1.247754e-09	
3	2.300000e-01	4.227973e-08	1.369766e-09	
4	2.400000e-01	5.548800e-08	1.527717e-09	
5	2.500000e-01	7.281323e-08	1.732674e-09	
6	2.600000e-01	9.553798e-08	1.999129e-09	
7	2.700000e-01	1.253441e-07	2.346079e-09	
8	2.800000e-01	1.644367e-07	2.798443e-09	
9	2.900000e-01	2.157072e-07	3.388919e-09	
10	3.000000e-01	2.829459e-07	4.160429e-09	
11	3.100000e-01	3.711216e-07	5.169337e-09	
12	3.200000e-01	4.867465e-07	6.489673e-09	
13	3.300000e-01	6.383548e-07	8.218687e-09	
14	3.400000e-01	8.371283e-07	1.048415e-08	
15	3.500000e-01	1.097714e-06	1.345398e-08	
16	3.600000e-01	1.439291e-06	1.734884e-08	
17	3.700000e-01	1.886967e-06	2.245873e-08	
18	3.800000e-01	2.473592e-06	2.916484e-08	
19	3.900000e-01	3.242119e-06	3.796820e-08	
20	4.000000e-01	4.248673e-06	4.952732e-08	
21	4.100000e-01	5.566512e-06	6.470771e-08	
22	4.200000e-01	7.291143e-06	8.464678e-08	
23	4.300000e-01	9.546875e-06	1.108391e-07	
24	4.400000e-01	1.249517e-05	1.452480e-07	
25	4.500000e-01	1.634521e-05	1.904521e-07	
26	4.600000e-01	2.136704e-05	2.498366e-07	
27	4.700000e-01	2.790785e-05	3.278434e-07	
28	4.800000e-01	3.641147e-05	4.302969e-07	
29	4.900000e-01	4.744139e-05	5.648281e-07	
30	5.000000e-01	6.170667e-05	7.414238e-07	
31	5.100000e-01	8.008980e-05	9.731369e-07	
32	5.200000e-01	1.036773e-04	1.276999e-06	
33	5.300000e-01	1.337890e-04	1.675189e-06	
34	5.400000e-01	1.719999e-04	2.196519e-06	
35	5.500000e-01	2.201527e-04	2.878315e-06	
36	5.600000e-01	2.803579e-04	3.768776e-06	
37	5.700000e-01	3.549791e-04	4.929914e-06	
38	5.800000e-01	4.466032e-04	6.441185e-06	
39	5.900000e-01	5.580024e-04	8.403926e-06	
40	6.000000e-01	6.920914e-04	1.094672e-05	
41	6.100000e-01	8.518886e-04	1.423179e-05	
42	6.200000e-01	1.040483e-03	1.846243e-05	
43	6.300000e-01	1.261007e-03	2.389158e-05	
44	6.400000e-01	1.516613e-03	3.083127e-05	
45	6.500000e-01	1.810446e-03	3.966278e-05	
46	6.600000e-01	2.145602e-03	5.084699e-05	
47	6.700000e-01	2.525072e-03	6.493424e-05	
48	6.800000e-01	2.951665e-03	8.257291e-05	
49	6.900000e-01	3.427908e-03	1.045161e-04	
50	7.000000e-01	3.955907e-03	1.316270e-04	
51	7.100000e-01	4.537133e-03	1.648896e-04	
52	7.200000e-01	5.171970e-03	2.054502e-04	
53	7.300000e-01	5.858746e-03	2.547448e-04	
54	7.400000e-01	6.592797e-03	3.146449e-04	

Index   v-sweep         vc#branch       vb#branch       
--------------------------------------------------------------------------------
55	7.500000e-01	7.367415e-03	3.873157e-04	
56	7.600000e-01	8.175267e-03	4.749688e-04	
57	7.700000e-01	9.009833e-03	5.795844e-04	
58	7.800000e-01	9.865982e-03	7.027482e-04	
59	7.900000e-01	1.073875e-02	8.457598e-04	
60	8.000000e-01	1.162295e-02	1.009677e-03	
61	8.100000e-01	1.251340e-02	1.195290e-03	
62	8.200000e-01	1.340500e-02	1.403121e-03	
63	8.300000e-01	1.429291e-02	1.633450e-03	
64	8.400000e-01	1.517255e-02	1.886337e-03	
65	8.500000e-01	1.603975e-02	2.161654e-03	
66	8.600000e-01	1.689074e-02	2.459116e-03	
67	8.700000e-01	1.772222e-02	2.778308e-03	
68	8.800000e-01	1.853135e-02	3.118714e-03	
69	8.900000e-01	1.931576e-02	3.479738e-03	
70	9.000000e-01	2.007353e-02	3.860724e-03	
71	9.100000e-01	2.080318e-02	4.260973e-03	
72	9.200000e-01	2.150364e-02	4.679752e-03	
73	9.300000e-01	2.217421e-02	5.116308e-03	
74	9.400000e-01	2.281456e-02	5.569875e-03	
75	9.500000e-01	2.342467e-02	6.039681e-03	
76	9.600000e-01	2.400479e-02	6.524953e-03	
77	9.700000e-01	2.455544e-02	7.024925e-03	
78	9.800000e-01	2.507733e-02	7.538840e-03	
79	9.900000e-01	2.557136e-02	8.065956e-03	
80	1.000000e+00	2.603855e-02	8.605550e-03	
81	1.010000e+00	2.648003e-02	9.156921e-03	
82	1.020000e+00	2.689700e-02	9.719393e-03	
83	1.030000e+00	2.729072e-02	1.029232e-02	
84	1.040000e+00	2.766244e-02	1.087508e-02	
85	1.050000e+00	2.801343e-02	1.146708e-02	
86	1.060000e+00	2.834495e-02	1.206777e-02	
87	1.070000e+00	2.865820e-02	1.267662e-02	
88	1.080000e+00	2.895436e-02	1.329314e-02	
89	1.090000e+00	2.923457e-02	1.391687e-02	
90	1.100000e+00	2.949988e-02	1.454736e-02	
91	1.110000e+00	2.975132e-02	1.518422e-02	
92	1.120000e+00	2.998984e-02	1.582707e-02	
93	1.130000e+00	3.021634e-02	1.647555e-02	
94	1.140000e+00	3.043165e-02	1.712934e-02	
95	1.150000e+00	3.063654e-02	1.778813e-02	
96	1.160000e+00	3.083176e-02	1.845164e-02	
97	1.170000e+00	3.101797e-02	1.911962e-02	
98	1.180000e+00	3.119579e-02	1.979180e-02	
99	1.190000e+00	3.136580e-02	2.046798e-02	
100	1.200000e+00	3.152854e-02	2.114793e-02	




