
No. of Data Rows : 501

Circuit: Test of MOS BSIM1 implementation; DC transfer curve

Doing analysis at TEMP = 300.150000 and TNOM = 300.150000
              Test of MOS BSIM1 implementation; DC transfer curve
--------------------------------------------------------------------------------
Index   v-sweep         v1#branch       v2#branch       v3#branch       
--------------------------------------------------------------------------------
0	0.000000e+00	1.029690e-13	2.140597e-12	4.179260e-12	
1	1.000000e-02	1.032273e-13	2.140597e-12	4.179260e-12	
2	2.000000e-02	1.036387e-13	2.140597e-12	4.179260e-12	
3	3.000000e-02	1.041220e-13	2.140597e-12	4.179260e-12	
4	4.000000e-02	1.047426e-13	2.140597e-12	4.179260e-12	
5	5.000000e-02	1.055384e-13	2.140597e-12	4.179260e-12	
6	6.000000e-02	1.065598e-13	2.140597e-12	4.179260e-12	
7	7.000000e-02	1.078704e-13	2.140597e-12	4.179260e-12	
8	8.000000e-02	1.095526e-13	2.140597e-12	4.179260e-12	
9	9.000000e-02	1.117108e-13	2.140597e-12	4.179260e-12	
10	1.000000e-01	1.144812e-13	2.140597e-12	4.179260e-12	
11	1.100000e-01	1.180363e-13	2.140597e-12	4.179260e-12	
12	1.200000e-01	1.225983e-13	2.140597e-12	4.179260e-12	
13	1.300000e-01	1.284530e-13	2.140597e-12	4.179260e-12	
14	1.400000e-01	1.359664e-13	2.140597e-12	4.179260e-12	
15	1.500000e-01	1.456081e-13	2.140597e-12	4.179260e-12	
16	1.600000e-01	1.579815e-13	2.140597e-12	4.179260e-12	
17	1.700000e-01	1.738607e-13	2.140597e-12	4.179260e-12	
18	1.800000e-01	1.942384e-13	2.140597e-12	4.179260e-12	
19	1.900000e-01	2.203893e-13	2.140597e-12	4.179260e-12	
20	2.000000e-01	2.539490e-13	2.140597e-12	4.179260e-12	
21	2.100000e-01	2.970167e-13	2.140597e-12	4.179260e-12	
22	2.200000e-01	3.522858e-13	2.140598e-12	4.179260e-12	
23	2.300000e-01	4.232128e-13	2.140598e-12	4.179260e-12	
24	2.400000e-01	5.142343e-13	2.140598e-12	4.179260e-12	
25	2.500000e-01	6.310428e-13	2.140599e-12	4.179260e-12	
26	2.600000e-01	7.809437e-13	2.140599e-12	4.179260e-12	
27	2.700000e-01	9.733137e-13	2.140600e-12	4.179260e-12	
28	2.800000e-01	1.220183e-12	2.140601e-12	4.179260e-12	
29	2.900000e-01	1.536993e-12	2.140602e-12	4.179260e-12	
30	3.000000e-01	1.943558e-12	2.140605e-12	4.179260e-12	
31	3.100000e-01	2.465306e-12	2.140607e-12	4.179260e-12	
32	3.200000e-01	3.134869e-12	2.140610e-12	4.179260e-12	
33	3.300000e-01	3.994123e-12	2.140614e-12	4.179260e-12	
34	3.400000e-01	5.096810e-12	2.140619e-12	4.179260e-12	
35	3.500000e-01	6.511895e-12	2.140625e-12	4.179260e-12	
36	3.600000e-01	8.327881e-12	2.140634e-12	4.179260e-12	
37	3.700000e-01	1.065834e-11	2.140646e-12	4.179260e-12	
38	3.800000e-01	1.364903e-11	2.140660e-12	4.179260e-12	
39	3.900000e-01	1.748697e-11	2.140679e-12	4.179260e-12	
40	4.000000e-01	2.241220e-11	2.140705e-12	4.179260e-12	
41	4.100000e-01	2.873272e-11	2.140737e-12	4.179260e-12	
42	4.200000e-01	3.684378e-11	2.140780e-12	4.179260e-12	
43	4.300000e-01	4.725259e-11	2.140836e-12	4.179260e-12	
44	4.400000e-01	6.060999e-11	2.140908e-12	4.179260e-12	
45	4.500000e-01	7.775113e-11	2.141002e-12	4.179260e-12	
46	4.600000e-01	9.974764e-11	2.141125e-12	4.179260e-12	
47	4.700000e-01	1.279745e-10	2.141286e-12	4.179260e-12	
48	4.800000e-01	1.641960e-10	2.141494e-12	4.179260e-12	
49	4.900000e-01	2.106755e-10	2.141766e-12	4.179260e-12	
50	5.000000e-01	2.703167e-10	2.142121e-12	4.179260e-12	
51	5.100000e-01	3.468443e-10	2.142583e-12	4.179260e-12	
52	5.200000e-01	4.450357e-10	2.143185e-12	4.179260e-12	
53	5.300000e-01	5.710171e-10	2.143970e-12	4.179260e-12	
54	5.400000e-01	7.326434e-10	2.144993e-12	4.179260e-12	

Index   v-sweep         v1#branch       v2#branch       v3#branch       
--------------------------------------------------------------------------------
55	5.500000e-01	9.399828e-10	2.146326e-12	4.179260e-12	
56	5.600000e-01	1.205937e-09	2.148063e-12	4.179261e-12	
57	5.700000e-01	1.547029e-09	2.150327e-12	4.179261e-12	
58	5.800000e-01	1.984413e-09	2.153278e-12	4.179262e-12	
59	5.900000e-01	2.545148e-09	2.157122e-12	4.179262e-12	
60	6.000000e-01	3.263817e-09	2.162133e-12	4.179262e-12	
61	6.100000e-01	4.184566e-09	2.168662e-12	4.179263e-12	
62	6.200000e-01	5.363670e-09	2.177172e-12	4.179264e-12	
63	6.300000e-01	6.872717e-09	2.188261e-12	4.179266e-12	
64	6.400000e-01	8.802558e-09	2.202713e-12	4.179267e-12	
65	6.500000e-01	1.126812e-08	2.221546e-12	4.179270e-12	
66	6.600000e-01	1.441419e-08	2.246090e-12	4.179273e-12	
67	6.700000e-01	1.842219e-08	2.278075e-12	4.179277e-12	
68	6.800000e-01	2.351792e-08	2.319757e-12	4.179282e-12	
69	6.900000e-01	2.997991e-08	2.374078e-12	4.179289e-12	
70	7.000000e-01	3.814771e-08	2.444868e-12	4.179299e-12	
71	7.100000e-01	4.842908e-08	2.537121e-12	4.179312e-12	
72	7.200000e-01	6.130388e-08	2.657346e-12	4.179329e-12	
73	7.300000e-01	7.732184e-08	2.814021e-12	4.179352e-12	
74	7.400000e-01	9.708992e-08	3.018199e-12	4.179381e-12	
75	7.500000e-01	1.212443e-07	3.284283e-12	4.179421e-12	
76	7.600000e-01	1.504017e-07	3.631042e-12	4.179473e-12	
77	7.700000e-01	1.850865e-07	4.082936e-12	4.179543e-12	
78	7.800000e-01	2.256347e-07	4.671840e-12	4.179635e-12	
79	7.900000e-01	2.720848e-07	5.439297e-12	4.179758e-12	
80	8.000000e-01	3.240742e-07	6.439440e-12	4.179920e-12	
81	8.100000e-01	3.807731e-07	7.742818e-12	4.180135e-12	
82	8.200000e-01	4.408848e-07	9.441368e-12	4.180420e-12	
83	8.300000e-01	5.027355e-07	1.165490e-11	4.180798e-12	
84	8.400000e-01	5.674928e-07	1.453955e-11	4.181300e-12	
85	8.500000e-01	6.505536e-07	1.829878e-11	4.181964e-12	
86	8.600000e-01	7.529665e-07	2.319775e-11	4.182846e-12	
87	8.700000e-01	8.734589e-07	2.958198e-11	4.184015e-12	
88	8.800000e-01	1.011230e-06	3.790175e-11	4.185566e-12	
89	8.900000e-01	1.165941e-06	4.874383e-11	4.187622e-12	
90	9.000000e-01	1.337638e-06	6.287281e-11	4.190348e-12	
91	9.100000e-01	1.525369e-06	8.128501e-11	4.193964e-12	
92	9.200000e-01	1.713052e-06	1.052787e-10	4.198758e-12	
93	9.300000e-01	1.896207e-06	1.365453e-10	4.205116e-12	
94	9.400000e-01	2.075469e-06	1.772889e-10	4.213547e-12	
95	9.500000e-01	2.251436e-06	2.303807e-10	4.224726e-12	
96	9.600000e-01	2.424650e-06	2.995612e-10	4.239551e-12	
97	9.700000e-01	2.595580e-06	3.897023e-10	4.259209e-12	
98	9.800000e-01	2.764623e-06	5.071492e-10	4.285278e-12	
99	9.900000e-01	2.932109e-06	6.601637e-10	4.319847e-12	
100	1.000000e+00	3.098311e-06	8.595007e-10	4.365687e-12	
101	1.010000e+00	3.263446e-06	1.119156e-09	4.426475e-12	
102	1.020000e+00	3.427691e-06	1.457333e-09	4.507082e-12	
103	1.030000e+00	3.591186e-06	1.897698e-09	4.613973e-12	
104	1.040000e+00	3.754043e-06	2.470994e-09	4.755718e-12	
105	1.050000e+00	3.916350e-06	3.217117e-09	4.943679e-12	
106	1.060000e+00	4.078176e-06	4.187779e-09	5.192929e-12	
107	1.070000e+00	4.239577e-06	5.449890e-09	5.523450e-12	
108	1.080000e+00	4.400596e-06	7.089848e-09	5.961741e-12	
109	1.090000e+00	4.561266e-06	9.218890e-09	6.542943e-12	
110	1.100000e+00	4.721615e-06	1.197971e-08	7.313654e-12	
111	1.110000e+00	4.881662e-06	1.555446e-08	8.335663e-12	
112	1.120000e+00	5.041425e-06	2.017422e-08	9.690910e-12	

Index   v-sweep         v1#branch       v2#branch       v3#branch       
--------------------------------------------------------------------------------
113	1.130000e+00	5.200916e-06	2.612964e-08	1.148805e-11	
114	1.140000e+00	5.360145e-06	3.378235e-08	1.387116e-11	
115	1.150000e+00	5.519122e-06	4.357571e-08	1.703130e-11	
116	1.160000e+00	5.677851e-06	5.604277e-08	2.122182e-11	
117	1.170000e+00	5.836339e-06	7.180765e-08	2.677866e-11	
118	1.180000e+00	5.994588e-06	9.157492e-08	3.414730e-11	
119	1.190000e+00	6.152603e-06	1.160997e-07	4.391841e-11	
120	1.200000e+00	6.310387e-06	1.461308e-07	5.687524e-11	
121	1.210000e+00	6.467940e-06	1.823195e-07	7.405631e-11	
122	1.220000e+00	6.625266e-06	2.250958e-07	9.683860e-11	
123	1.230000e+00	6.782365e-06	2.745216e-07	1.270478e-10	
124	1.240000e+00	6.939239e-06	3.301523e-07	1.671042e-10	
125	1.250000e+00	7.095890e-06	3.909487e-07	2.202167e-10	
126	1.260000e+00	7.252317e-06	4.552882e-07	2.906385e-10	
127	1.270000e+00	7.408522e-06	5.211018e-07	3.840069e-10	
128	1.280000e+00	7.564506e-06	5.943443e-07	5.077924e-10	
129	1.290000e+00	7.720269e-06	6.885987e-07	6.718925e-10	
130	1.300000e+00	7.875811e-06	8.024296e-07	8.894161e-10	
131	1.310000e+00	8.031135e-06	9.345693e-07	1.177720e-09	
132	1.320000e+00	8.186239e-06	1.084353e-06	1.559771e-09	
133	1.330000e+00	8.341126e-06	1.251658e-06	2.065942e-09	
134	1.340000e+00	8.495794e-06	1.436637e-06	2.736363e-09	
135	1.350000e+00	8.650245e-06	1.625407e-06	3.623988e-09	
136	1.360000e+00	8.804479e-06	1.808956e-06	4.798590e-09	
137	1.370000e+00	8.958497e-06	1.988043e-06	6.351899e-09	
138	1.380000e+00	9.112299e-06	2.163394e-06	8.404185e-09	
139	1.390000e+00	9.265886e-06	2.335659e-06	1.111254e-08	
140	1.400000e+00	9.419257e-06	2.505399e-06	1.468114e-08	
141	1.410000e+00	9.572415e-06	2.673085e-06	1.937359e-08	
142	1.420000e+00	9.725358e-06	2.839103e-06	2.552721e-08	
143	1.430000e+00	9.878088e-06	3.003763e-06	3.356857e-08	
144	1.440000e+00	1.003060e-05	3.167315e-06	4.402840e-08	
145	1.450000e+00	1.018291e-05	3.329955e-06	5.755277e-08	
146	1.460000e+00	1.033500e-05	3.491836e-06	7.490465e-08	
147	1.470000e+00	1.048688e-05	3.653081e-06	9.694747e-08	
148	1.480000e+00	1.063855e-05	3.813782e-06	1.245992e-07	
149	1.490000e+00	1.079001e-05	3.974013e-06	1.587447e-07	
150	1.500000e+00	1.094125e-05	4.133829e-06	2.000981e-07	
151	1.510000e+00	1.109229e-05	4.293275e-06	2.490193e-07	
152	1.520000e+00	1.124312e-05	4.452384e-06	3.053127e-07	
153	1.530000e+00	1.139374e-05	4.611183e-06	3.680621e-07	
154	1.540000e+00	1.154415e-05	4.769691e-06	4.355775e-07	
155	1.550000e+00	1.169435e-05	4.927925e-06	5.055123e-07	
156	1.560000e+00	1.184435e-05	5.085895e-06	5.798000e-07	
157	1.570000e+00	1.199413e-05	5.243613e-06	6.741507e-07	
158	1.580000e+00	1.214371e-05	5.401085e-06	7.881829e-07	
159	1.590000e+00	1.229309e-05	5.558317e-06	9.203181e-07	
160	1.600000e+00	1.244225e-05	5.715313e-06	1.069754e-06	
161	1.610000e+00	1.259121e-05	5.872077e-06	1.236378e-06	
162	1.620000e+00	1.273997e-05	6.028613e-06	1.420444e-06	
163	1.630000e+00	1.288852e-05	6.184921e-06	1.607826e-06	
164	1.640000e+00	1.303687e-05	6.341005e-06	1.789563e-06	
165	1.650000e+00	1.318501e-05	6.496865e-06	1.966567e-06	
166	1.660000e+00	1.333295e-05	6.652503e-06	2.139683e-06	
167	1.670000e+00	1.348069e-05	6.807921e-06	2.309651e-06	
168	1.680000e+00	1.362822e-05	6.963118e-06	2.477093e-06	
169	1.690000e+00	1.377555e-05	7.118096e-06	2.642517e-06	
170	1.700000e+00	1.392268e-05	7.272855e-06	2.806329e-06	

Index   v-sweep         v1#branch       v2#branch       v3#branch       
--------------------------------------------------------------------------------
171	1.710000e+00	1.406961e-05	7.427397e-06	2.968852e-06	
172	1.720000e+00	1.421634e-05	7.581722e-06	3.130336e-06	
173	1.730000e+00	1.436287e-05	7.735830e-06	3.290974e-06	
174	1.740000e+00	1.450919e-05	7.889722e-06	3.450916e-06	
175	1.750000e+00	1.465532e-05	8.043399e-06	3.610275e-06	
176	1.760000e+00	1.480125e-05	8.196861e-06	3.769140e-06	
177	1.770000e+00	1.494697e-05	8.350108e-06	3.927576e-06	
178	1.780000e+00	1.509250e-05	8.503141e-06	4.085634e-06	
179	1.790000e+00	1.523783e-05	8.655961e-06	4.243352e-06	
180	1.800000e+00	1.538297e-05	8.808568e-06	4.400759e-06	
181	1.810000e+00	1.552790e-05	8.960962e-06	4.557878e-06	
182	1.820000e+00	1.567264e-05	9.113144e-06	4.714725e-06	
183	1.830000e+00	1.581719e-05	9.265115e-06	4.871314e-06	
184	1.840000e+00	1.596153e-05	9.416874e-06	5.027653e-06	
185	1.850000e+00	1.610568e-05	9.568422e-06	5.183751e-06	
186	1.860000e+00	1.624964e-05	9.719760e-06	5.339613e-06	
187	1.870000e+00	1.639340e-05	9.870889e-06	5.495244e-06	
188	1.880000e+00	1.653696e-05	1.002181e-05	5.650647e-06	
189	1.890000e+00	1.668034e-05	1.017252e-05	5.805825e-06	
190	1.900000e+00	1.682351e-05	1.032302e-05	5.960780e-06	
191	1.910000e+00	1.696650e-05	1.047331e-05	6.115514e-06	
192	1.920000e+00	1.710929e-05	1.062340e-05	6.270029e-06	
193	1.930000e+00	1.725189e-05	1.077327e-05	6.424325e-06	
194	1.940000e+00	1.739429e-05	1.092295e-05	6.578403e-06	
195	1.950000e+00	1.753651e-05	1.107241e-05	6.732265e-06	
196	1.960000e+00	1.767853e-05	1.122167e-05	6.885912e-06	
197	1.970000e+00	1.782036e-05	1.137072e-05	7.039343e-06	
198	1.980000e+00	1.796201e-05	1.151957e-05	7.192559e-06	
199	1.990000e+00	1.810346e-05	1.166821e-05	7.345562e-06	
200	2.000000e+00	1.824472e-05	1.181665e-05	7.498352e-06	
201	2.010000e+00	1.838579e-05	1.196489e-05	7.650928e-06	
202	2.020000e+00	1.852667e-05	1.211292e-05	7.803292e-06	
203	2.030000e+00	1.866736e-05	1.226075e-05	7.955445e-06	
204	2.040000e+00	1.880787e-05	1.240837e-05	8.107386e-06	
205	2.050000e+00	1.894819e-05	1.255580e-05	8.259116e-06	
206	2.060000e+00	1.908832e-05	1.270302e-05	8.410636e-06	
207	2.070000e+00	1.922826e-05	1.285004e-05	8.561945e-06	
208	2.080000e+00	1.936801e-05	1.299686e-05	8.713046e-06	
209	2.090000e+00	1.950758e-05	1.314348e-05	8.863937e-06	
210	2.100000e+00	1.964697e-05	1.328990e-05	9.014619e-06	
211	2.110000e+00	1.978616e-05	1.343612e-05	9.165093e-06	
212	2.120000e+00	1.992517e-05	1.358214e-05	9.315360e-06	
213	2.130000e+00	2.006400e-05	1.372796e-05	9.465419e-06	
214	2.140000e+00	2.020264e-05	1.387358e-05	9.615271e-06	
215	2.150000e+00	2.034110e-05	1.401901e-05	9.764916e-06	
216	2.160000e+00	2.047937e-05	1.416423e-05	9.914356e-06	
217	2.170000e+00	2.061746e-05	1.430926e-05	1.006359e-05	
218	2.180000e+00	2.075537e-05	1.445409e-05	1.021262e-05	
219	2.190000e+00	2.089310e-05	1.459873e-05	1.036144e-05	
220	2.200000e+00	2.103064e-05	1.474317e-05	1.051006e-05	
221	2.210000e+00	2.116800e-05	1.488741e-05	1.065848e-05	
222	2.220000e+00	2.130517e-05	1.503146e-05	1.080669e-05	
223	2.230000e+00	2.144217e-05	1.517532e-05	1.095470e-05	
224	2.240000e+00	2.157899e-05	1.531898e-05	1.110250e-05	
225	2.250000e+00	2.171562e-05	1.546244e-05	1.125011e-05	
226	2.260000e+00	2.185208e-05	1.560571e-05	1.139751e-05	
227	2.270000e+00	2.198835e-05	1.574879e-05	1.154471e-05	
228	2.280000e+00	2.212444e-05	1.589168e-05	1.169171e-05	

Index   v-sweep         v1#branch       v2#branch       v3#branch       
--------------------------------------------------------------------------------
229	2.290000e+00	2.226036e-05	1.603437e-05	1.183851e-05	
230	2.300000e+00	2.239610e-05	1.617687e-05	1.198511e-05	
231	2.310000e+00	2.253166e-05	1.631918e-05	1.213151e-05	
232	2.320000e+00	2.266704e-05	1.646130e-05	1.227771e-05	
233	2.330000e+00	2.280224e-05	1.660322e-05	1.242371e-05	
234	2.340000e+00	2.293726e-05	1.674496e-05	1.256951e-05	
235	2.350000e+00	2.307211e-05	1.688650e-05	1.271511e-05	
236	2.360000e+00	2.320678e-05	1.702786e-05	1.286052e-05	
237	2.370000e+00	2.334127e-05	1.716903e-05	1.300573e-05	
238	2.380000e+00	2.347559e-05	1.731000e-05	1.315074e-05	
239	2.390000e+00	2.360973e-05	1.745079e-05	1.329555e-05	
240	2.400000e+00	2.374370e-05	1.759139e-05	1.344017e-05	
241	2.410000e+00	2.387749e-05	1.773180e-05	1.358460e-05	
242	2.420000e+00	2.401111e-05	1.787203e-05	1.372882e-05	
243	2.430000e+00	2.414455e-05	1.801207e-05	1.387286e-05	
244	2.440000e+00	2.427782e-05	1.815192e-05	1.401669e-05	
245	2.450000e+00	2.441092e-05	1.829158e-05	1.416034e-05	
246	2.460000e+00	2.454384e-05	1.843106e-05	1.430379e-05	
247	2.470000e+00	2.467659e-05	1.857035e-05	1.444704e-05	
248	2.480000e+00	2.480917e-05	1.870946e-05	1.459011e-05	
249	2.490000e+00	2.494157e-05	1.884838e-05	1.473298e-05	
250	2.500000e+00	2.507380e-05	1.898712e-05	1.487566e-05	
251	2.510000e+00	2.520586e-05	1.912567e-05	1.501815e-05	
252	2.520000e+00	2.533775e-05	1.926404e-05	1.516044e-05	
253	2.530000e+00	2.546947e-05	1.940223e-05	1.530255e-05	
254	2.540000e+00	2.560101e-05	1.954023e-05	1.544446e-05	
255	2.550000e+00	2.573239e-05	1.967805e-05	1.558618e-05	
256	2.560000e+00	2.586360e-05	1.981569e-05	1.572772e-05	
257	2.570000e+00	2.599463e-05	1.995314e-05	1.586906e-05	
258	2.580000e+00	2.612550e-05	2.009042e-05	1.601021e-05	
259	2.590000e+00	2.625620e-05	2.022751e-05	1.615118e-05	
260	2.600000e+00	2.638673e-05	2.036442e-05	1.629196e-05	
261	2.610000e+00	2.651709e-05	2.050115e-05	1.643255e-05	
262	2.620000e+00	2.664729e-05	2.063770e-05	1.657295e-05	
263	2.630000e+00	2.677731e-05	2.077407e-05	1.671316e-05	
264	2.640000e+00	2.690717e-05	2.091026e-05	1.685319e-05	
265	2.650000e+00	2.703686e-05	2.104628e-05	1.699303e-05	
266	2.660000e+00	2.716639e-05	2.118211e-05	1.713269e-05	
267	2.670000e+00	2.729575e-05	2.131776e-05	1.727216e-05	
268	2.680000e+00	2.742494e-05	2.145324e-05	1.741144e-05	
269	2.690000e+00	2.755396e-05	2.158854e-05	1.755054e-05	
270	2.700000e+00	2.768282e-05	2.172366e-05	1.768945e-05	
271	2.710000e+00	2.781152e-05	2.185860e-05	1.782818e-05	
272	2.720000e+00	2.794005e-05	2.199337e-05	1.796673e-05	
273	2.730000e+00	2.806842e-05	2.212796e-05	1.810509e-05	
274	2.740000e+00	2.819662e-05	2.226238e-05	1.824327e-05	
275	2.750000e+00	2.832466e-05	2.239662e-05	1.838127e-05	
276	2.760000e+00	2.845253e-05	2.253068e-05	1.851908e-05	
277	2.770000e+00	2.858024e-05	2.266457e-05	1.865671e-05	
278	2.780000e+00	2.870779e-05	2.279829e-05	1.879416e-05	
279	2.790000e+00	2.883518e-05	2.293183e-05	1.893143e-05	
280	2.800000e+00	2.896240e-05	2.306519e-05	1.906852e-05	
281	2.810000e+00	2.908946e-05	2.319838e-05	1.920542e-05	
282	2.820000e+00	2.921636e-05	2.333140e-05	1.934215e-05	
283	2.830000e+00	2.934310e-05	2.346425e-05	1.947870e-05	
284	2.840000e+00	2.946968e-05	2.359692e-05	1.961506e-05	
285	2.850000e+00	2.959610e-05	2.372942e-05	1.975125e-05	
286	2.860000e+00	2.972235e-05	2.386175e-05	1.988726e-05	

Index   v-sweep         v1#branch       v2#branch       v3#branch       
--------------------------------------------------------------------------------
287	2.870000e+00	2.984845e-05	2.399391e-05	2.002309e-05	
288	2.880000e+00	2.997438e-05	2.412590e-05	2.015874e-05	
289	2.890000e+00	3.010016e-05	2.425771e-05	2.029422e-05	
290	2.900000e+00	3.022578e-05	2.438936e-05	2.042951e-05	
291	2.910000e+00	3.035124e-05	2.452083e-05	2.056463e-05	
292	2.920000e+00	3.047653e-05	2.465214e-05	2.069957e-05	
293	2.930000e+00	3.060168e-05	2.478327e-05	2.083434e-05	
294	2.940000e+00	3.072666e-05	2.491424e-05	2.096893e-05	
295	2.950000e+00	3.085148e-05	2.504503e-05	2.110334e-05	
296	2.960000e+00	3.097615e-05	2.517566e-05	2.123758e-05	
297	2.970000e+00	3.110066e-05	2.530612e-05	2.137165e-05	
298	2.980000e+00	3.122502e-05	2.543641e-05	2.150553e-05	
299	2.990000e+00	3.134921e-05	2.556654e-05	2.163925e-05	
300	3.000000e+00	3.147326e-05	2.569649e-05	2.177279e-05	
301	3.010000e+00	3.159714e-05	2.582628e-05	2.190616e-05	
302	3.020000e+00	3.172087e-05	2.595591e-05	2.203935e-05	
303	3.030000e+00	3.184444e-05	2.608536e-05	2.217237e-05	
304	3.040000e+00	3.196786e-05	2.621465e-05	2.230522e-05	
305	3.050000e+00	3.209113e-05	2.634378e-05	2.243789e-05	
306	3.060000e+00	3.221424e-05	2.647274e-05	2.257040e-05	
307	3.070000e+00	3.233719e-05	2.660153e-05	2.270273e-05	
308	3.080000e+00	3.245999e-05	2.673016e-05	2.283489e-05	
309	3.090000e+00	3.258264e-05	2.685863e-05	2.296688e-05	
310	3.100000e+00	3.270514e-05	2.698693e-05	2.309869e-05	
311	3.110000e+00	3.282748e-05	2.711506e-05	2.323034e-05	
312	3.120000e+00	3.294967e-05	2.724304e-05	2.336182e-05	
313	3.130000e+00	3.307170e-05	2.737085e-05	2.349313e-05	
314	3.140000e+00	3.319359e-05	2.749849e-05	2.362427e-05	
315	3.150000e+00	3.331532e-05	2.762598e-05	2.375524e-05	
316	3.160000e+00	3.343690e-05	2.775330e-05	2.388604e-05	
317	3.170000e+00	3.355833e-05	2.788046e-05	2.401667e-05	
318	3.180000e+00	3.367960e-05	2.800746e-05	2.414713e-05	
319	3.190000e+00	3.380073e-05	2.813430e-05	2.427743e-05	
320	3.200000e+00	3.392171e-05	2.826097e-05	2.440756e-05	
321	3.210000e+00	3.404253e-05	2.838749e-05	2.453752e-05	
322	3.220000e+00	3.416321e-05	2.851384e-05	2.466732e-05	
323	3.230000e+00	3.428374e-05	2.864004e-05	2.479695e-05	
324	3.240000e+00	3.440411e-05	2.876607e-05	2.492641e-05	
325	3.250000e+00	3.452434e-05	2.889195e-05	2.505571e-05	
326	3.260000e+00	3.464442e-05	2.901767e-05	2.518484e-05	
327	3.270000e+00	3.476435e-05	2.914322e-05	2.531380e-05	
328	3.280000e+00	3.488413e-05	2.926862e-05	2.544260e-05	
329	3.290000e+00	3.500377e-05	2.939386e-05	2.557124e-05	
330	3.300000e+00	3.512326e-05	2.951895e-05	2.569971e-05	
