
No. of Data Rows : 201

No. of Data Rows : 1

Circuit: A paralled resistor array

Doing analysis at TEMP = 300.150000 and TNOM = 300.150000

Initial Transient Solution
--------------------------

Node                                   Voltage
----                                   -------
1                                            0
2                                            0
3                                            0
4                                            0
5                                            0
6                                            0
vr5#branch                                   0
vr4#branch                                   0
vr3#branch                                   0
vr2#branch                                   0
vr1#branch                                   0
vin#branch                                   0


No. of Data Rows : 60
	Node                                  Voltage
	----                                  -------
	----	-------
	V(6)                             1.000000e+00
	V(5)                             1.000000e+00
	V(4)                             1.000000e+00
	V(3)                             1.000000e+00
	V(2)                             1.000000e+00
	V(1)                             1.000000e+00

	Source	Current
	------	-------

	vin#branch                       -5.90909e-04
	vr1#branch                       1.000000e-04
	vr2#branch                       1.000000e-04
	vr3#branch                       9.090909e-05
	vr4#branch                       2.000000e-04
	vr5#branch                       1.000000e-04

 Resistor models (Simple linear resistor)
      model               rmodel1                     R

        rsh                  1000                     0
     narrow                 1e-06                     0
      short                     0                     0
        tc1                     0                     0
        tc2                     0                     0
       defw                 1e-05                 1e-05
         kf                     0                     0
         af                     0                     0

 Resistor: Simple linear resistor
     device                    r3                    r5                    r4
      model               rmodel1                     R                     R
 resistance                 11000                    10                  5000
         ac                  2500                     5                  2500
      dtemp                     0                     0                     0
      noisy                     1                     1                     1
          i           -5.3435e-05          -5.87785e-05          -0.000117557
          p           3.14083e-05           3.45492e-05           6.90983e-05

 Resistor: Simple linear resistor
     device                    r2                    r1
      model                     R                     R
 resistance                 10000                 10000
         ac                  5000                 10000
      dtemp                     0                     0
      noisy                     1                     1
          i          -5.87785e-05          -5.87785e-05
          p           3.45492e-05           3.45492e-05

 Vsource: Independent voltage source
     device                   vr5                   vr4                   vr3
         dc                     0                     0                     0
      acmag                     0                     0                     0
          i          -5.87785e-05          -0.000117557           -5.3435e-05
          p                     0                     0                     0

 Vsource: Independent voltage source
     device                   vr2                   vr1                   vin
         dc                     0                     0                     1
      acmag                     0                     0                     1
          i          -5.87785e-05          -5.87785e-05           0.000347328
          p                     0                     0           0.000204154

                           A paralled resistor array
--------------------------------------------------------------------------------
Index   time            vr1#branch      vr2#branch      vr3#branch      
--------------------------------------------------------------------------------
0	0.000000e+00	0.000000e+00	0.000000e+00	0.000000e+00	
1	5.000000e-13	0.000000e+00	0.000000e+00	0.000000e+00	
2	1.000000e-12	0.000000e+00	0.000000e+00	0.000000e+00	
3	2.000000e-12	0.000000e+00	0.000000e+00	0.000000e+00	
4	4.000000e-12	0.000000e+00	0.000000e+00	0.000000e+00	
5	8.000000e-12	0.000000e+00	0.000000e+00	0.000000e+00	
6	1.600000e-11	0.000000e+00	0.000000e+00	0.000000e+00	
7	3.200000e-11	0.000000e+00	0.000000e+00	0.000000e+00	
8	6.400000e-11	0.000000e+00	0.000000e+00	0.000000e+00	
9	1.280000e-10	0.000000e+00	0.000000e+00	0.000000e+00	
10	2.560000e-10	0.000000e+00	0.000000e+00	0.000000e+00	
11	4.560000e-10	0.000000e+00	0.000000e+00	0.000000e+00	
12	6.560000e-10	0.000000e+00	0.000000e+00	0.000000e+00	
13	8.560000e-10	0.000000e+00	0.000000e+00	0.000000e+00	
14	1.056000e-09	3.517858e-06	3.517858e-06	3.198053e-06	
15	1.256000e-09	1.601568e-05	1.601568e-05	1.455971e-05	
16	1.456000e-09	2.826093e-05	2.826093e-05	2.569176e-05	
17	1.656000e-09	4.006049e-05	4.006049e-05	3.641863e-05	
18	1.856000e-09	5.122827e-05	5.122827e-05	4.657116e-05	
19	2.056000e-09	6.158815e-05	6.158815e-05	5.598923e-05	
20	2.256000e-09	7.097675e-05	7.097675e-05	6.452432e-05	
21	2.456000e-09	7.924600e-05	7.924600e-05	7.204182e-05	
22	2.656000e-09	8.626549e-05	8.626549e-05	7.842318e-05	
23	2.856000e-09	9.192453e-05	9.192453e-05	8.356776e-05	
24	3.056000e-09	9.613386e-05	9.613386e-05	8.739442e-05	
25	3.256000e-09	9.882711e-05	9.882711e-05	8.984282e-05	
26	3.456000e-09	9.996179e-05	9.996179e-05	9.087435e-05	
27	3.656000e-09	9.952001e-05	9.952001e-05	9.047274e-05	
28	3.856000e-09	9.750874e-05	9.750874e-05	8.864431e-05	
29	4.056000e-09	9.395971e-05	9.395971e-05	8.541792e-05	
30	4.256000e-09	8.892887e-05	8.892887e-05	8.084443e-05	
31	4.456000e-09	8.249557e-05	8.249557e-05	7.499597e-05	
32	4.656000e-09	7.476127e-05	7.476127e-05	6.796479e-05	
33	4.856000e-09	6.584793e-05	6.584793e-05	5.986176e-05	
34	5.056000e-09	5.589614e-05	5.589614e-05	5.081467e-05	
35	5.256000e-09	4.506283e-05	4.506283e-05	4.096621e-05	
36	5.456000e-09	3.351885e-05	3.351885e-05	3.047168e-05	
37	5.656000e-09	2.144626e-05	2.144626e-05	1.949660e-05	
38	5.856000e-09	9.035447e-06	9.035447e-06	8.214043e-06	
39	6.056000e-09	-3.517858e-06	-3.517858e-06	-3.198053e-06	
40	6.256000e-09	-1.601568e-05	-1.601568e-05	-1.455971e-05	
41	6.456000e-09	-2.826093e-05	-2.826093e-05	-2.569176e-05	
42	6.656000e-09	-4.006049e-05	-4.006049e-05	-3.641863e-05	
43	6.856000e-09	-5.122827e-05	-5.122827e-05	-4.657116e-05	
44	7.056000e-09	-6.158815e-05	-6.158815e-05	-5.598923e-05	
45	7.256000e-09	-7.097675e-05	-7.097675e-05	-6.452432e-05	
46	7.456000e-09	-7.924600e-05	-7.924600e-05	-7.204182e-05	
47	7.656000e-09	-8.626549e-05	-8.626549e-05	-7.842318e-05	
48	7.856000e-09	-9.192453e-05	-9.192453e-05	-8.356776e-05	
49	8.056000e-09	-9.613386e-05	-9.613386e-05	-8.739442e-05	
50	8.256000e-09	-9.882711e-05	-9.882711e-05	-8.984282e-05	
51	8.456000e-09	-9.996179e-05	-9.996179e-05	-9.087435e-05	
52	8.656000e-09	-9.952001e-05	-9.952001e-05	-9.047274e-05	
53	8.856000e-09	-9.750874e-05	-9.750874e-05	-8.864431e-05	
54	9.056000e-09	-9.395971e-05	-9.395971e-05	-8.541792e-05	

Index   time            vr1#branch      vr2#branch      vr3#branch      
--------------------------------------------------------------------------------
55	9.256000e-09	-8.892887e-05	-8.892887e-05	-8.084443e-05	
56	9.456000e-09	-8.249557e-05	-8.249557e-05	-7.499597e-05	
57	9.656000e-09	-7.476127e-05	-7.476127e-05	-6.796479e-05	
58	9.856000e-09	-6.584793e-05	-6.584793e-05	-5.986176e-05	
59	1.000000e-08	-5.877853e-05	-5.877853e-05	-5.343502e-05	

                           A paralled resistor array
--------------------------------------------------------------------------------
Index   time            vr4#branch      vr5#branch      
--------------------------------------------------------------------------------
0	0.000000e+00	0.000000e+00	0.000000e+00	
1	5.000000e-13	0.000000e+00	0.000000e+00	
2	1.000000e-12	0.000000e+00	0.000000e+00	
3	2.000000e-12	0.000000e+00	0.000000e+00	
4	4.000000e-12	0.000000e+00	0.000000e+00	
5	8.000000e-12	0.000000e+00	0.000000e+00	
6	1.600000e-11	0.000000e+00	0.000000e+00	
7	3.200000e-11	0.000000e+00	0.000000e+00	
8	6.400000e-11	0.000000e+00	0.000000e+00	
9	1.280000e-10	0.000000e+00	0.000000e+00	
10	2.560000e-10	0.000000e+00	0.000000e+00	
11	4.560000e-10	0.000000e+00	0.000000e+00	
12	6.560000e-10	0.000000e+00	0.000000e+00	
13	8.560000e-10	0.000000e+00	0.000000e+00	
14	1.056000e-09	7.035716e-06	3.517858e-06	
15	1.256000e-09	3.203137e-05	1.601568e-05	
16	1.456000e-09	5.652187e-05	2.826093e-05	
17	1.656000e-09	8.012098e-05	4.006049e-05	
18	1.856000e-09	1.024565e-04	5.122827e-05	
19	2.056000e-09	1.231763e-04	6.158815e-05	
20	2.256000e-09	1.419535e-04	7.097675e-05	
21	2.456000e-09	1.584920e-04	7.924600e-05	
22	2.656000e-09	1.725310e-04	8.626549e-05	
23	2.856000e-09	1.838491e-04	9.192453e-05	
24	3.056000e-09	1.922677e-04	9.613386e-05	
25	3.256000e-09	1.976542e-04	9.882711e-05	
26	3.456000e-09	1.999236e-04	9.996179e-05	
27	3.656000e-09	1.990400e-04	9.952001e-05	
28	3.856000e-09	1.950175e-04	9.750874e-05	
29	4.056000e-09	1.879194e-04	9.395971e-05	
30	4.256000e-09	1.778577e-04	8.892887e-05	
31	4.456000e-09	1.649911e-04	8.249557e-05	
32	4.656000e-09	1.495225e-04	7.476127e-05	
33	4.856000e-09	1.316959e-04	6.584793e-05	
34	5.056000e-09	1.117923e-04	5.589614e-05	
35	5.256000e-09	9.012565e-05	4.506283e-05	
36	5.456000e-09	6.703770e-05	3.351885e-05	
37	5.656000e-09	4.289252e-05	2.144626e-05	
38	5.856000e-09	1.807089e-05	9.035447e-06	
39	6.056000e-09	-7.035716e-06	-3.517858e-06	
40	6.256000e-09	-3.203137e-05	-1.601568e-05	
41	6.456000e-09	-5.652187e-05	-2.826093e-05	
42	6.656000e-09	-8.012098e-05	-4.006049e-05	
43	6.856000e-09	-1.024565e-04	-5.122827e-05	
44	7.056000e-09	-1.231763e-04	-6.158815e-05	
45	7.256000e-09	-1.419535e-04	-7.097675e-05	
46	7.456000e-09	-1.584920e-04	-7.924600e-05	
47	7.656000e-09	-1.725310e-04	-8.626549e-05	
48	7.856000e-09	-1.838491e-04	-9.192453e-05	
49	8.056000e-09	-1.922677e-04	-9.613386e-05	
50	8.256000e-09	-1.976542e-04	-9.882711e-05	
51	8.456000e-09	-1.999236e-04	-9.996179e-05	
52	8.656000e-09	-1.990400e-04	-9.952001e-05	
53	8.856000e-09	-1.950175e-04	-9.750874e-05	
54	9.056000e-09	-1.879194e-04	-9.395971e-05	

Index   time            vr4#branch      vr5#branch      
--------------------------------------------------------------------------------
55	9.256000e-09	-1.778577e-04	-8.892887e-05	
56	9.456000e-09	-1.649911e-04	-8.249557e-05	
57	9.656000e-09	-1.495225e-04	-7.476127e-05	
58	9.856000e-09	-1.316959e-04	-6.584793e-05	
59	1.000000e-08	-1.175571e-04	-5.877853e-05	

                           A paralled resistor array
--------------------------------------------------------------------------------
Index   frequency                       vr1#branch                      
--------------------------------------------------------------------------------
0	1.000000e+06,	0.000000e+00	1.000000e-04,	0.000000e+00	
1	1.023293e+06,	0.000000e+00	1.000000e-04,	0.000000e+00	
2	1.047129e+06,	0.000000e+00	1.000000e-04,	0.000000e+00	
3	1.071519e+06,	0.000000e+00	1.000000e-04,	0.000000e+00	
4	1.096478e+06,	0.000000e+00	1.000000e-04,	0.000000e+00	
5	1.122018e+06,	0.000000e+00	1.000000e-04,	0.000000e+00	
6	1.148154e+06,	0.000000e+00	1.000000e-04,	0.000000e+00	
7	1.174898e+06,	0.000000e+00	1.000000e-04,	0.000000e+00	
8	1.202264e+06,	0.000000e+00	1.000000e-04,	0.000000e+00	
9	1.230269e+06,	0.000000e+00	1.000000e-04,	0.000000e+00	
10	1.258925e+06,	0.000000e+00	1.000000e-04,	0.000000e+00	
11	1.288250e+06,	0.000000e+00	1.000000e-04,	0.000000e+00	
12	1.318257e+06,	0.000000e+00	1.000000e-04,	0.000000e+00	
13	1.348963e+06,	0.000000e+00	1.000000e-04,	0.000000e+00	
14	1.380384e+06,	0.000000e+00	1.000000e-04,	0.000000e+00	
15	1.412538e+06,	0.000000e+00	1.000000e-04,	0.000000e+00	
16	1.445440e+06,	0.000000e+00	1.000000e-04,	0.000000e+00	
17	1.479108e+06,	0.000000e+00	1.000000e-04,	0.000000e+00	
18	1.513561e+06,	0.000000e+00	1.000000e-04,	0.000000e+00	
19	1.548817e+06,	0.000000e+00	1.000000e-04,	0.000000e+00	
20	1.584893e+06,	0.000000e+00	1.000000e-04,	0.000000e+00	
21	1.621810e+06,	0.000000e+00	1.000000e-04,	0.000000e+00	
22	1.659587e+06,	0.000000e+00	1.000000e-04,	0.000000e+00	
23	1.698244e+06,	0.000000e+00	1.000000e-04,	0.000000e+00	
24	1.737801e+06,	0.000000e+00	1.000000e-04,	0.000000e+00	
25	1.778279e+06,	0.000000e+00	1.000000e-04,	0.000000e+00	
26	1.819701e+06,	0.000000e+00	1.000000e-04,	0.000000e+00	
27	1.862087e+06,	0.000000e+00	1.000000e-04,	0.000000e+00	
28	1.905461e+06,	0.000000e+00	1.000000e-04,	0.000000e+00	
29	1.949845e+06,	0.000000e+00	1.000000e-04,	0.000000e+00	
30	1.995262e+06,	0.000000e+00	1.000000e-04,	0.000000e+00	
31	2.041738e+06,	0.000000e+00	1.000000e-04,	0.000000e+00	
32	2.089296e+06,	0.000000e+00	1.000000e-04,	0.000000e+00	
33	2.137962e+06,	0.000000e+00	1.000000e-04,	0.000000e+00	
34	2.187762e+06,	0.000000e+00	1.000000e-04,	0.000000e+00	
35	2.238721e+06,	0.000000e+00	1.000000e-04,	0.000000e+00	
36	2.290868e+06,	0.000000e+00	1.000000e-04,	0.000000e+00	
37	2.344229e+06,	0.000000e+00	1.000000e-04,	0.000000e+00	
38	2.398833e+06,	0.000000e+00	1.000000e-04,	0.000000e+00	
39	2.454709e+06,	0.000000e+00	1.000000e-04,	0.000000e+00	
40	2.511886e+06,	0.000000e+00	1.000000e-04,	0.000000e+00	
41	2.570396e+06,	0.000000e+00	1.000000e-04,	0.000000e+00	
42	2.630268e+06,	0.000000e+00	1.000000e-04,	0.000000e+00	
43	2.691535e+06,	0.000000e+00	1.000000e-04,	0.000000e+00	
44	2.754229e+06,	0.000000e+00	1.000000e-04,	0.000000e+00	
45	2.818383e+06,	0.000000e+00	1.000000e-04,	0.000000e+00	
46	2.884032e+06,	0.000000e+00	1.000000e-04,	0.000000e+00	
47	2.951209e+06,	0.000000e+00	1.000000e-04,	0.000000e+00	
48	3.019952e+06,	0.000000e+00	1.000000e-04,	0.000000e+00	
49	3.090295e+06,	0.000000e+00	1.000000e-04,	0.000000e+00	
50	3.162278e+06,	0.000000e+00	1.000000e-04,	0.000000e+00	
51	3.235937e+06,	0.000000e+00	1.000000e-04,	0.000000e+00	
52	3.311311e+06,	0.000000e+00	1.000000e-04,	0.000000e+00	
53	3.388442e+06,	0.000000e+00	1.000000e-04,	0.000000e+00	
54	3.467369e+06,	0.000000e+00	1.000000e-04,	0.000000e+00	

Index   frequency                       vr1#branch                      
--------------------------------------------------------------------------------
55	3.548134e+06,	0.000000e+00	1.000000e-04,	0.000000e+00	
56	3.630781e+06,	0.000000e+00	1.000000e-04,	0.000000e+00	
57	3.715352e+06,	0.000000e+00	1.000000e-04,	0.000000e+00	
58	3.801894e+06,	0.000000e+00	1.000000e-04,	0.000000e+00	
59	3.890451e+06,	0.000000e+00	1.000000e-04,	0.000000e+00	
60	3.981072e+06,	0.000000e+00	1.000000e-04,	0.000000e+00	
61	4.073803e+06,	0.000000e+00	1.000000e-04,	0.000000e+00	
62	4.168694e+06,	0.000000e+00	1.000000e-04,	0.000000e+00	
63	4.265795e+06,	0.000000e+00	1.000000e-04,	0.000000e+00	
64	4.365158e+06,	0.000000e+00	1.000000e-04,	0.000000e+00	
65	4.466836e+06,	0.000000e+00	1.000000e-04,	0.000000e+00	
66	4.570882e+06,	0.000000e+00	1.000000e-04,	0.000000e+00	
67	4.677351e+06,	0.000000e+00	1.000000e-04,	0.000000e+00	
68	4.786301e+06,	0.000000e+00	1.000000e-04,	0.000000e+00	
69	4.897788e+06,	0.000000e+00	1.000000e-04,	0.000000e+00	
70	5.011872e+06,	0.000000e+00	1.000000e-04,	0.000000e+00	
71	5.128614e+06,	0.000000e+00	1.000000e-04,	0.000000e+00	
72	5.248075e+06,	0.000000e+00	1.000000e-04,	0.000000e+00	
73	5.370318e+06,	0.000000e+00	1.000000e-04,	0.000000e+00	
74	5.495409e+06,	0.000000e+00	1.000000e-04,	0.000000e+00	
75	5.623413e+06,	0.000000e+00	1.000000e-04,	0.000000e+00	
76	5.754399e+06,	0.000000e+00	1.000000e-04,	0.000000e+00	
77	5.888437e+06,	0.000000e+00	1.000000e-04,	0.000000e+00	
78	6.025596e+06,	0.000000e+00	1.000000e-04,	0.000000e+00	
79	6.165950e+06,	0.000000e+00	1.000000e-04,	0.000000e+00	
80	6.309573e+06,	0.000000e+00	1.000000e-04,	0.000000e+00	
81	6.456542e+06,	0.000000e+00	1.000000e-04,	0.000000e+00	
82	6.606934e+06,	0.000000e+00	1.000000e-04,	0.000000e+00	
83	6.760830e+06,	0.000000e+00	1.000000e-04,	0.000000e+00	
84	6.918310e+06,	0.000000e+00	1.000000e-04,	0.000000e+00	
85	7.079458e+06,	0.000000e+00	1.000000e-04,	0.000000e+00	
86	7.244360e+06,	0.000000e+00	1.000000e-04,	0.000000e+00	
87	7.413102e+06,	0.000000e+00	1.000000e-04,	0.000000e+00	
88	7.585776e+06,	0.000000e+00	1.000000e-04,	0.000000e+00	
89	7.762471e+06,	0.000000e+00	1.000000e-04,	0.000000e+00	
90	7.943282e+06,	0.000000e+00	1.000000e-04,	0.000000e+00	
91	8.128305e+06,	0.000000e+00	1.000000e-04,	0.000000e+00	
92	8.317638e+06,	0.000000e+00	1.000000e-04,	0.000000e+00	
93	8.511380e+06,	0.000000e+00	1.000000e-04,	0.000000e+00	
94	8.709636e+06,	0.000000e+00	1.000000e-04,	0.000000e+00	
95	8.912509e+06,	0.000000e+00	1.000000e-04,	0.000000e+00	
96	9.120108e+06,	0.000000e+00	1.000000e-04,	0.000000e+00	
97	9.332543e+06,	0.000000e+00	1.000000e-04,	0.000000e+00	
98	9.549926e+06,	0.000000e+00	1.000000e-04,	0.000000e+00	
99	9.772372e+06,	0.000000e+00	1.000000e-04,	0.000000e+00	
100	1.000000e+07,	0.000000e+00	1.000000e-04,	0.000000e+00	
101	1.023293e+07,	0.000000e+00	1.000000e-04,	0.000000e+00	
102	1.047129e+07,	0.000000e+00	1.000000e-04,	0.000000e+00	
103	1.071519e+07,	0.000000e+00	1.000000e-04,	0.000000e+00	
104	1.096478e+07,	0.000000e+00	1.000000e-04,	0.000000e+00	
105	1.122018e+07,	0.000000e+00	1.000000e-04,	0.000000e+00	
106	1.148154e+07,	0.000000e+00	1.000000e-04,	0.000000e+00	
107	1.174898e+07,	0.000000e+00	1.000000e-04,	0.000000e+00	
108	1.202264e+07,	0.000000e+00	1.000000e-04,	0.000000e+00	
109	1.230269e+07,	0.000000e+00	1.000000e-04,	0.000000e+00	
110	1.258925e+07,	0.000000e+00	1.000000e-04,	0.000000e+00	
111	1.288250e+07,	0.000000e+00	1.000000e-04,	0.000000e+00	
112	1.318257e+07,	0.000000e+00	1.000000e-04,	0.000000e+00	

Index   frequency                       vr1#branch                      
--------------------------------------------------------------------------------
113	1.348963e+07,	0.000000e+00	1.000000e-04,	0.000000e+00	
114	1.380384e+07,	0.000000e+00	1.000000e-04,	0.000000e+00	
115	1.412538e+07,	0.000000e+00	1.000000e-04,	0.000000e+00	
116	1.445440e+07,	0.000000e+00	1.000000e-04,	0.000000e+00	
117	1.479108e+07,	0.000000e+00	1.000000e-04,	0.000000e+00	
118	1.513561e+07,	0.000000e+00	1.000000e-04,	0.000000e+00	
119	1.548817e+07,	0.000000e+00	1.000000e-04,	0.000000e+00	
120	1.584893e+07,	0.000000e+00	1.000000e-04,	0.000000e+00	
121	1.621810e+07,	0.000000e+00	1.000000e-04,	0.000000e+00	
122	1.659587e+07,	0.000000e+00	1.000000e-04,	0.000000e+00	
123	1.698244e+07,	0.000000e+00	1.000000e-04,	0.000000e+00	
124	1.737801e+07,	0.000000e+00	1.000000e-04,	0.000000e+00	
125	1.778279e+07,	0.000000e+00	1.000000e-04,	0.000000e+00	
126	1.819701e+07,	0.000000e+00	1.000000e-04,	0.000000e+00	
127	1.862087e+07,	0.000000e+00	1.000000e-04,	0.000000e+00	
128	1.905461e+07,	0.000000e+00	1.000000e-04,	0.000000e+00	
129	1.949845e+07,	0.000000e+00	1.000000e-04,	0.000000e+00	
130	1.995262e+07,	0.000000e+00	1.000000e-04,	0.000000e+00	
131	2.041738e+07,	0.000000e+00	1.000000e-04,	0.000000e+00	
132	2.089296e+07,	0.000000e+00	1.000000e-04,	0.000000e+00	
133	2.137962e+07,	0.000000e+00	1.000000e-04,	0.000000e+00	
134	2.187762e+07,	0.000000e+00	1.000000e-04,	0.000000e+00	
135	2.238721e+07,	0.000000e+00	1.000000e-04,	0.000000e+00	
136	2.290868e+07,	0.000000e+00	1.000000e-04,	0.000000e+00	
137	2.344229e+07,	0.000000e+00	1.000000e-04,	0.000000e+00	
138	2.398833e+07,	0.000000e+00	1.000000e-04,	0.000000e+00	
139	2.454709e+07,	0.000000e+00	1.000000e-04,	0.000000e+00	
140	2.511886e+07,	0.000000e+00	1.000000e-04,	0.000000e+00	
141	2.570396e+07,	0.000000e+00	1.000000e-04,	0.000000e+00	
142	2.630268e+07,	0.000000e+00	1.000000e-04,	0.000000e+00	
