
Circuit: A paralled resistor array


Initial Transient Solution
--------------------------

Node                                   Voltage
----                                   -------
1                                            0
2                                            0
3                                            0
4                                            0
5                                            0
6                                            0
vr5#branch                                   0
vr4#branch                                   0
vr3#branch                                   0
vr2#branch                                   0
vr1#branch                                   0
vin#branch                                   0

	Node                                  Voltage
	----                                  -------
	----	-------
	V(6)                             1.000000e+00
	V(5)                             1.000000e+00
	V(4)                             1.000000e+00
	V(3)                             1.000000e+00
	V(2)                             1.000000e+00
	V(1)                             1.000000e+00

	Source	Current
	------	-------

	vin#branch                       -5.90909e-04
	vr1#branch                       1.000000e-04
	vr2#branch                       1.000000e-04
	vr3#branch                       9.090909e-05
	vr4#branch                       2.000000e-04
	vr5#branch                       1.000000e-04

 Resistor models (Simple linear resistor)
      model               rmodel1                     R

        rsh                  1000                     0
     narrow                 1e-06                     0
      short                     0                     0
        tc1                     0                     0
        tc2                     0                     0
       defw                 1e-05                 1e-05

 Resistor: Simple linear resistor
     device                    r3                    r5                    r4
      model               rmodel1                     R                     R
 resistance                 11000                    10                 10000
         ac                  2500                     5                  5000
          i           -5.3435e-05          -5.87785e-05          -0.000117557
          p           3.14083e-05           3.45492e-05           6.90983e-05

 Resistor: Simple linear resistor
     device                    r2                    r1
      model                     R                     R
 resistance                 10000                 10000
         ac                  5000                     0
          i          -5.87785e-05          -5.87785e-05
          p           3.45492e-05           3.45492e-05

 Vsource: Independent voltage source
     device                   vr5                   vr4                   vr3
         dc                     0                     0                     0
      acmag                     0                     0                     0
          i          -5.87785e-05          -0.000117557           -5.3435e-05
          p                     0                     0                     0

 Vsource: Independent voltage source
     device                   vr2                   vr1                   vin
         dc                     0                     0                     1
      acmag                     0                     0                     1
          i          -5.87785e-05          -5.87785e-05           0.000347328
          p                     0                     0           0.000204154

                           A paralled resistor array
--------------------------------------------------------------------------------
Index   time            vr1#branch      vr2#branch      vr3#branch      
--------------------------------------------------------------------------------
0	0.000000e+00	0.000000e+00	0.000000e+00	0.000000e+00	
1	1.000000e-12	0.000000e+00	0.000000e+00	0.000000e+00	
2	2.000000e-12	0.000000e+00	0.000000e+00	0.000000e+00	
3	4.000000e-12	0.000000e+00	0.000000e+00	0.000000e+00	
4	8.000000e-12	0.000000e+00	0.000000e+00	0.000000e+00	
5	1.600000e-11	0.000000e+00	0.000000e+00	0.000000e+00	
6	3.200000e-11	0.000000e+00	0.000000e+00	0.000000e+00	
7	6.400000e-11	0.000000e+00	0.000000e+00	0.000000e+00	
8	1.280000e-10	0.000000e+00	0.000000e+00	0.000000e+00	
9	2.280000e-10	0.000000e+00	0.000000e+00	0.000000e+00	
10	3.280000e-10	0.000000e+00	0.000000e+00	0.000000e+00	
11	4.280000e-10	0.000000e+00	0.000000e+00	0.000000e+00	
12	5.280000e-10	0.000000e+00	0.000000e+00	0.000000e+00	
13	6.280000e-10	0.000000e+00	0.000000e+00	0.000000e+00	
14	7.280000e-10	0.000000e+00	0.000000e+00	0.000000e+00	
15	8.280000e-10	0.000000e+00	0.000000e+00	0.000000e+00	
16	9.280000e-10	0.000000e+00	0.000000e+00	0.000000e+00	
17	1.028000e-09	1.759201e-06	1.759201e-06	1.599274e-06	
18	1.128000e-09	8.033810e-06	8.033810e-06	7.303464e-06	
19	1.228000e-09	1.427671e-05	1.427671e-05	1.297883e-05	
20	1.328000e-09	2.046327e-05	2.046327e-05	1.860298e-05	
21	1.428000e-09	2.656907e-05	2.656907e-05	2.415370e-05	
22	1.528000e-09	3.257002e-05	3.257002e-05	2.960911e-05	
23	1.628000e-09	3.844242e-05	3.844242e-05	3.494766e-05	
24	1.728000e-09	4.416311e-05	4.416311e-05	4.014828e-05	
25	1.828000e-09	4.970951e-05	4.970951e-05	4.519047e-05	
26	1.928000e-09	5.505973e-05	5.505973e-05	5.005430e-05	
27	2.028000e-09	6.019265e-05	6.019265e-05	5.472059e-05	
28	2.128000e-09	6.508802e-05	6.508802e-05	5.917093e-05	
29	2.228000e-09	6.972652e-05	6.972652e-05	6.338775e-05	
30	2.328000e-09	7.408984e-05	7.408984e-05	6.735440e-05	
31	2.428000e-09	7.816076e-05	7.816076e-05	7.105523e-05	
32	2.528000e-09	8.192321e-05	8.192321e-05	7.447565e-05	
33	2.628000e-09	8.536235e-05	8.536235e-05	7.760214e-05	
34	2.728000e-09	8.846461e-05	8.846461e-05	8.042237e-05	
35	2.828000e-09	9.121773e-05	9.121773e-05	8.292521e-05	
36	2.928000e-09	9.361087e-05	9.361087e-05	8.510079e-05	
37	3.028000e-09	9.563456e-05	9.563456e-05	8.694051e-05	
38	3.128000e-09	9.728082e-05	9.728082e-05	8.843711e-05	
39	3.228000e-09	9.854317e-05	9.854317e-05	8.958470e-05	
40	3.328000e-09	9.941660e-05	9.941660e-05	9.037873e-05	
41	3.428000e-09	9.989769e-05	9.989769e-05	9.081608e-05	
42	3.528000e-09	9.998452e-05	9.998452e-05	9.089502e-05	
43	3.628000e-09	9.967677e-05	9.967677e-05	9.061524e-05	
44	3.728000e-09	9.897563e-05	9.897563e-05	8.997785e-05	
45	3.828000e-09	9.788388e-05	9.788388e-05	8.898535e-05	
46	3.928000e-09	9.640583e-05	9.640583e-05	8.764167e-05	
47	4.028000e-09	9.454731e-05	9.454731e-05	8.595210e-05	
48	4.128000e-09	9.231566e-05	9.231566e-05	8.392332e-05	
49	4.228000e-09	8.971967e-05	8.971967e-05	8.156334e-05	
50	4.328000e-09	8.676961e-05	8.676961e-05	7.888146e-05	
51	4.428000e-09	8.347710e-05	8.347710e-05	7.588827e-05	
52	4.528000e-09	7.985515e-05	7.985515e-05	7.259559e-05	
53	4.628000e-09	7.591804e-05	7.591804e-05	6.901640e-05	
54	4.728000e-09	7.168133e-05	7.168133e-05	6.516484e-05	

Index   time            vr1#branch      vr2#branch      vr3#branch      
--------------------------------------------------------------------------------
55	4.828000e-09	6.716171e-05	6.716171e-05	6.105610e-05	
56	4.928000e-09	6.237705e-05	6.237705e-05	5.670641e-05	
57	5.028000e-09	5.734621e-05	5.734621e-05	5.213291e-05	
58	5.128000e-09	5.208904e-05	5.208904e-05	4.735368e-05	
59	5.228000e-09	4.662631e-05	4.662631e-05	4.238756e-05	
60	5.328000e-09	4.097957e-05	4.097957e-05	3.725415e-05	
61	5.428000e-09	3.517109e-05	3.517109e-05	3.197372e-05	
62	5.528000e-09	2.922382e-05	2.922382e-05	2.656711e-05	
63	5.628000e-09	2.316121e-05	2.316121e-05	2.105564e-05	
64	5.728000e-09	1.700719e-05	1.700719e-05	1.546108e-05	
65	5.828000e-09	1.078605e-05	1.078605e-05	9.805504e-06	
66	5.928000e-09	4.522351e-06	4.522351e-06	4.111228e-06	
67	6.028000e-09	-1.759201e-06	-1.759201e-06	-1.599274e-06	
68	6.128000e-09	-8.033810e-06	-8.033810e-06	-7.303464e-06	
69	6.228000e-09	-1.427671e-05	-1.427671e-05	-1.297883e-05	
70	6.328000e-09	-2.046327e-05	-2.046327e-05	-1.860298e-05	
71	6.428000e-09	-2.656907e-05	-2.656907e-05	-2.415370e-05	
72	6.528000e-09	-3.257002e-05	-3.257002e-05	-2.960911e-05	
73	6.628000e-09	-3.844242e-05	-3.844242e-05	-3.494766e-05	
74	6.728000e-09	-4.416311e-05	-4.416311e-05	-4.014828e-05	
75	6.828000e-09	-4.970951e-05	-4.970951e-05	-4.519047e-05	
76	6.928000e-09	-5.505973e-05	-5.505973e-05	-5.005430e-05	
77	7.028000e-09	-6.019265e-05	-6.019265e-05	-5.472059e-05	
78	7.128000e-09	-6.508802e-05	-6.508802e-05	-5.917093e-05	
79	7.228000e-09	-6.972652e-05	-6.972652e-05	-6.338775e-05	
80	7.328000e-09	-7.408984e-05	-7.408984e-05	-6.735440e-05	
81	7.428000e-09	-7.816076e-05	-7.816076e-05	-7.105523e-05	
82	7.528000e-09	-8.192321e-05	-8.192321e-05	-7.447565e-05	
83	7.628000e-09	-8.536235e-05	-8.536235e-05	-7.760214e-05	
84	7.728000e-09	-8.846461e-05	-8.846461e-05	-8.042237e-05	
85	7.828000e-09	-9.121773e-05	-9.121773e-05	-8.292521e-05	
86	7.928000e-09	-9.361087e-05	-9.361087e-05	-8.510079e-05	
87	8.028000e-09	-9.563456e-05	-9.563456e-05	-8.694051e-05	
88	8.128000e-09	-9.728082e-05	-9.728082e-05	-8.843711e-05	
89	8.228000e-09	-9.854317e-05	-9.854317e-05	-8.958470e-05	
90	8.328000e-09	-9.941660e-05	-9.941660e-05	-9.037873e-05	
91	8.428000e-09	-9.989769e-05	-9.989769e-05	-9.081608e-05	
92	8.528000e-09	-9.998452e-05	-9.998452e-05	-9.089502e-05	
93	8.628000e-09	-9.967677e-05	-9.967677e-05	-9.061524e-05	
94	8.728000e-09	-9.897563e-05	-9.897563e-05	-8.997785e-05	
95	8.828000e-09	-9.788388e-05	-9.788388e-05	-8.898535e-05	
96	8.928000e-09	-9.640583e-05	-9.640583e-05	-8.764167e-05	
97	9.028000e-09	-9.454731e-05	-9.454731e-05	-8.595210e-05	
98	9.128000e-09	-9.231566e-05	-9.231566e-05	-8.392332e-05	
99	9.228000e-09	-8.971967e-05	-8.971967e-05	-8.156334e-05	
100	9.328000e-09	-8.676961e-05	-8.676961e-05	-7.888146e-05	
101	9.428000e-09	-8.347710e-05	-8.347710e-05	-7.588827e-05	
102	9.528000e-09	-7.985515e-05	-7.985515e-05	-7.259559e-05	
103	9.628000e-09	-7.591804e-05	-7.591804e-05	-6.901640e-05	
104	9.728000e-09	-7.168133e-05	-7.168133e-05	-6.516484e-05	
105	9.828000e-09	-6.716171e-05	-6.716171e-05	-6.105610e-05	
106	9.928000e-09	-6.237705e-05	-6.237705e-05	-5.670641e-05	
107	1.000000e-08	-5.877853e-05	-5.877853e-05	-5.343502e-05	

                           A paralled resistor array
--------------------------------------------------------------------------------
Index   time            vr4#branch      vr5#branch      
--------------------------------------------------------------------------------
0	0.000000e+00	0.000000e+00	0.000000e+00	
1	1.000000e-12	0.000000e+00	0.000000e+00	
2	2.000000e-12	0.000000e+00	0.000000e+00	
3	4.000000e-12	0.000000e+00	0.000000e+00	
4	8.000000e-12	0.000000e+00	0.000000e+00	
5	1.600000e-11	0.000000e+00	0.000000e+00	
6	3.200000e-11	0.000000e+00	0.000000e+00	
7	6.400000e-11	0.000000e+00	0.000000e+00	
8	1.280000e-10	0.000000e+00	0.000000e+00	
9	2.280000e-10	0.000000e+00	0.000000e+00	
10	3.280000e-10	0.000000e+00	0.000000e+00	
11	4.280000e-10	0.000000e+00	0.000000e+00	
12	5.280000e-10	0.000000e+00	0.000000e+00	
13	6.280000e-10	0.000000e+00	0.000000e+00	
14	7.280000e-10	0.000000e+00	0.000000e+00	
15	8.280000e-10	0.000000e+00	0.000000e+00	
16	9.280000e-10	0.000000e+00	0.000000e+00	
17	1.028000e-09	3.518402e-06	1.759201e-06	
18	1.128000e-09	1.606762e-05	8.033810e-06	
19	1.228000e-09	2.855343e-05	1.427671e-05	
20	1.328000e-09	4.092655e-05	2.046327e-05	
21	1.428000e-09	5.313815e-05	2.656907e-05	
22	1.528000e-09	6.514003e-05	3.257002e-05	
23	1.628000e-09	7.688484e-05	3.844242e-05	
24	1.728000e-09	8.832623e-05	4.416311e-05	
25	1.828000e-09	9.941902e-05	4.970951e-05	
26	1.928000e-09	1.101195e-04	5.505973e-05	
27	2.028000e-09	1.203853e-04	6.019265e-05	
28	2.128000e-09	1.301760e-04	6.508802e-05	
29	2.228000e-09	1.394530e-04	6.972652e-05	
30	2.328000e-09	1.481797e-04	7.408984e-05	
31	2.428000e-09	1.563215e-04	7.816076e-05	
32	2.528000e-09	1.638464e-04	8.192321e-05	
33	2.628000e-09	1.707247e-04	8.536235e-05	
34	2.728000e-09	1.769292e-04	8.846461e-05	
35	2.828000e-09	1.824355e-04	9.121773e-05	
36	2.928000e-09	1.872217e-04	9.361087e-05	
37	3.028000e-09	1.912691e-04	9.563456e-05	
38	3.128000e-09	1.945616e-04	9.728082e-05	
39	3.228000e-09	1.970863e-04	9.854317e-05	
40	3.328000e-09	1.988332e-04	9.941660e-05	
41	3.428000e-09	1.997954e-04	9.989769e-05	
42	3.528000e-09	1.999690e-04	9.998452e-05	
43	3.628000e-09	1.993535e-04	9.967677e-05	
44	3.728000e-09	1.979513e-04	9.897563e-05	
45	3.828000e-09	1.957678e-04	9.788388e-05	
46	3.928000e-09	1.928117e-04	9.640583e-05	
47	4.028000e-09	1.890946e-04	9.454731e-05	
48	4.128000e-09	1.846313e-04	9.231566e-05	
49	4.228000e-09	1.794393e-04	8.971967e-05	
50	4.328000e-09	1.735392e-04	8.676961e-05	
51	4.428000e-09	1.669542e-04	8.347710e-05	
52	4.528000e-09	1.597103e-04	7.985515e-05	
53	4.628000e-09	1.518361e-04	7.591804e-05	
54	4.728000e-09	1.433627e-04	7.168133e-05	

Index   time            vr4#branch      vr5#branch      
--------------------------------------------------------------------------------
55	4.828000e-09	1.343234e-04	6.716171e-05	
56	4.928000e-09	1.247541e-04	6.237705e-05	
57	5.028000e-09	1.146924e-04	5.734621e-05	
58	5.128000e-09	1.041781e-04	5.208904e-05	
59	5.228000e-09	9.325262e-05	4.662631e-05	
60	5.328000e-09	8.195913e-05	4.097957e-05	
61	5.428000e-09	7.034219e-05	3.517109e-05	
62	5.528000e-09	5.844764e-05	2.922382e-05	
63	5.628000e-09	4.632242e-05	2.316121e-05	
64	5.728000e-09	3.401438e-05	1.700719e-05	
65	5.828000e-09	2.157211e-05	1.078605e-05	
66	5.928000e-09	9.044701e-06	4.522351e-06	
67	6.028000e-09	-3.518402e-06	-1.759201e-06	
68	6.128000e-09	-1.606762e-05	-8.033810e-06	
69	6.228000e-09	-2.855343e-05	-1.427671e-05	
70	6.328000e-09	-4.092655e-05	-2.046327e-05	
71	6.428000e-09	-5.313815e-05	-2.656907e-05	
72	6.528000e-09	-6.514003e-05	-3.257002e-05	
73	6.628000e-09	-7.688484e-05	-3.844242e-05	
74	6.728000e-09	-8.832623e-05	-4.416311e-05	
75	6.828000e-09	-9.941902e-05	-4.970951e-05	
76	6.928000e-09	-1.101195e-04	-5.505973e-05	
77	7.028000e-09	-1.203853e-04	-6.019265e-05	
78	7.128000e-09	-1.301760e-04	-6.508802e-05	
79	7.228000e-09	-1.394530e-04	-6.972652e-05	
80	7.328000e-09	-1.481797e-04	-7.408984e-05	
81	7.428000e-09	-1.563215e-04	-7.816076e-05	
82	7.528000e-09	-1.638464e-04	-8.192321e-05	
83	7.628000e-09	-1.707247e-04	-8.536235e-05	
84	7.728000e-09	-1.769292e-04	-8.846461e-05	
85	7.828000e-09	-1.824355e-04	-9.121773e-05	
86	7.928000e-09	-1.872217e-04	-9.361087e-05	
87	8.028000e-09	-1.912691e-04	-9.563456e-05	
88	8.128000e-09	-1.945616e-04	-9.728082e-05	
89	8.228000e-09	-1.970863e-04	-9.854317e-05	
90	8.328000e-09	-1.988332e-04	-9.941660e-05	
91	8.428000e-09	-1.997954e-04	-9.989769e-05	
92	8.528000e-09	-1.999690e-04	-9.998452e-05	
93	8.628000e-09	-1.993535e-04	-9.967677e-05	
94	8.728000e-09	-1.979513e-04	-9.897563e-05	
95	8.828000e-09	-1.957678e-04	-9.788388e-05	
96	8.928000e-09	-1.928117e-04	-9.640583e-05	
97	9.028000e-09	-1.890946e-04	-9.454731e-05	
98	9.128000e-09	-1.846313e-04	-9.231566e-05	
99	9.228000e-09	-1.794393e-04	-8.971967e-05	
100	9.328000e-09	-1.735392e-04	-8.676961e-05	
101	9.428000e-09	-1.669542e-04	-8.347710e-05	
102	9.528000e-09	-1.597103e-04	-7.985515e-05	
103	9.628000e-09	-1.518361e-04	-7.591804e-05	
104	9.728000e-09	-1.433627e-04	-7.168133e-05	
105	9.828000e-09	-1.343234e-04	-6.716171e-05	
106	9.928000e-09	-1.247541e-04	-6.237705e-05	
107	1.000000e-08	-1.175571e-04	-5.877853e-05	

                           A paralled resistor array
--------------------------------------------------------------------------------
Index   frequency                       vr1#branch                      
--------------------------------------------------------------------------------
0	1.000000e+06,	0.000000e+00	1.000000e-04,	0.000000e+00	
1	1.023293e+06,	0.000000e+00	1.000000e-04,	0.000000e+00	
2	1.047129e+06,	0.000000e+00	1.000000e-04,	0.000000e+00	
3	1.071519e+06,	0.000000e+00	1.000000e-04,	0.000000e+00	
4	1.096478e+06,	0.000000e+00	1.000000e-04,	0.000000e+00	
5	1.122018e+06,	0.000000e+00	1.000000e-04,	0.000000e+00	
6	1.148154e+06,	0.000000e+00	1.000000e-04,	0.000000e+00	
7	1.174898e+06,	0.000000e+00	1.000000e-04,	0.000000e+00	
8	1.202264e+06,	0.000000e+00	1.000000e-04,	0.000000e+00	
9	1.230269e+06,	0.000000e+00	1.000000e-04,	0.000000e+00	
10	1.258925e+06,	0.000000e+00	1.000000e-04,	0.000000e+00	
11	1.288250e+06,	0.000000e+00	1.000000e-04,	0.000000e+00	
12	1.318257e+06,	0.000000e+00	1.000000e-04,	0.000000e+00	
13	1.348963e+06,	0.000000e+00	1.000000e-04,	0.000000e+00	
14	1.380384e+06,	0.000000e+00	1.000000e-04,	0.000000e+00	
15	1.412538e+06,	0.000000e+00	1.000000e-04,	0.000000e+00	
16	1.445440e+06,	0.000000e+00	1.000000e-04,	0.000000e+00	
17	1.479108e+06,	0.000000e+00	1.000000e-04,	0.000000e+00	
18	1.513561e+06,	0.000000e+00	1.000000e-04,	0.000000e+00	
19	1.548817e+06,	0.000000e+00	1.000000e-04,	0.000000e+00	
20	1.584893e+06,	0.000000e+00	1.000000e-04,	0.000000e+00	
21	1.621810e+06,	0.000000e+00	1.000000e-04,	0.000000e+00	
22	1.659587e+06,	0.000000e+00	1.000000e-04,	0.000000e+00	
23	1.698244e+06,	0.000000e+00	1.000000e-04,	0.000000e+00	
24	1.737801e+06,	0.000000e+00	1.000000e-04,	0.000000e+00	
25	1.778279e+06,	0.000000e+00	1.000000e-04,	0.000000e+00	
26	1.819701e+06,	0.000000e+00	1.000000e-04,	0.000000e+00	
27	1.862087e+06,	0.000000e+00	1.000000e-04,	0.000000e+00	
28	1.905461e+06,	0.000000e+00	1.000000e-04,	0.000000e+00	
29	1.949845e+06,	0.000000e+00	1.000000e-04,	0.000000e+00	
30	1.995262e+06,	0.000000e+00	1.000000e-04,	0.000000e+00	
31	2.041738e+06,	0.000000e+00	1.000000e-04,	0.000000e+00	
32	2.089296e+06,	0.000000e+00	1.000000e-04,	0.000000e+00	
33	2.137962e+06,	0.000000e+00	1.000000e-04,	0.000000e+00	
34	2.187762e+06,	0.000000e+00	1.000000e-04,	0.000000e+00	
35	2.238721e+06,	0.000000e+00	1.000000e-04,	0.000000e+00	
36	2.290868e+06,	0.000000e+00	1.000000e-04,	0.000000e+00	
37	2.344229e+06,	0.000000e+00	1.000000e-04,	0.000000e+00	
38	2.398833e+06,	0.000000e+00	1.000000e-04,	0.000000e+00	
39	2.454709e+06,	0.000000e+00	1.000000e-04,	0.000000e+00	
40	2.511886e+06,	0.000000e+00	1.000000e-04,	0.000000e+00	
41	2.570396e+06,	0.000000e+00	1.000000e-04,	0.000000e+00	
42	2.630268e+06,	0.000000e+00	1.000000e-04,	0.000000e+00	
43	2.691535e+06,	0.000000e+00	1.000000e-04,	0.000000e+00	
44	2.754229e+06,	0.000000e+00	1.000000e-04,	0.000000e+00	
45	2.818383e+06,	0.000000e+00	1.000000e-04,	0.000000e+00	
46	2.884032e+06,	0.000000e+00	1.000000e-04,	0.000000e+00	
47	2.951209e+06,	0.000000e+00	1.000000e-04,	0.000000e+00	
48	3.019952e+06,	0.000000e+00	1.000000e-04,	0.000000e+00	
49	3.090295e+06,	0.000000e+00	1.000000e-04,	0.000000e+00	
50	3.162278e+06,	0.000000e+00	1.000000e-04,	0.000000e+00	
51	3.235937e+06,	0.000000e+00	1.000000e-04,	0.000000e+00	
52	3.311311e+06,	0.000000e+00	1.000000e-04,	0.000000e+00	
53	3.388442e+06,	0.000000e+00	1.000000e-04,	0.000000e+00	
54	3.467369e+06,	0.000000e+00	1.000000e-04,	0.000000e+00	

Index   frequency                       vr1#branch                      
--------------------------------------------------------------------------------
55	3.548134e+06,	0.000000e+00	1.000000e-04,	0.000000e+00	
56	3.630781e+06,	0.000000e+00	1.000000e-04,	0.000000e+00	
57	3.715352e+06,	0.000000e+00	1.000000e-04,	0.000000e+00	
58	3.801894e+06,	0.000000e+00	1.000000e-04,	0.000000e+00	
59	3.890451e+06,	0.000000e+00	1.000000e-04,	0.000000e+00	
60	3.981072e+06,	0.000000e+00	1.000000e-04,	0.000000e+00	
61	4.073803e+06,	0.000000e+00	1.000000e-04,	0.000000e+00	
62	4.168694e+06,	0.000000e+00	1.000000e-04,	0.000000e+00	
63	4.265795e+06,	0.000000e+00	1.000000e-04,	0.000000e+00	
64	4.365158e+06,	0.000000e+00	1.000000e-04,	0.000000e+00	
65	4.466836e+06,	0.000000e+00	1.000000e-04,	0.000000e+00	
66	4.570882e+06,	0.000000e+00	1.000000e-04,	0.000000e+00	
67	4.677351e+06,	0.000000e+00	1.000000e-04,	0.000000e+00	
68	4.786301e+06,	0.000000e+00	1.000000e-04,	0.000000e+00	
69	4.897788e+06,	0.000000e+00	1.000000e-04,	0.000000e+00	
70	5.011872e+06,	0.000000e+00	1.000000e-04,	0.000000e+00	
71	5.128614e+06,	0.000000e+00	1.000000e-04,	0.000000e+00	
