Title: Device qj1 external state
Plotname: Device Operating Point
Command: deftype v conductance S
Flags: real
No. Variables: 10
No. Points: 1
Variables:
	0	sweep	unknown
	1	v13	voltage
	2	v23	voltage
	3	i1	current
	4	i2	current
	5	i3	current
	6	g22	conductance
	7	g21	conductance
	8	g12	conductance
	9	g11	conductance
Values:
0	-1.200000e+00
	 5.000000e-01
	-1.200000e+00
	 9.820897e-08
	-9.629301e-14
	-9.820888e-08
	-3.439942e-06
	-8.515791e-07
	 1.719971e-06
	 4.257880e-07
Title: Device qj1 internal state
Plotname: Device Cross Section
Flags: real
Command: deftype p xs cross
Command: deftype v distance m
Command: deftype v concentration cm^-3
Command: deftype v electric_field V/cm
Command: deftype v current_density A/cm^2
Command: deftype v concentration/time cm^-3/s
Command: deftype v mobility cm^2/Vs
No. Variables: 18
No. Points: 720
Dimensions: 45,16
Variables:
	0	y	distance
	1	x	distance
	2	psi	voltage
	3	equ.psi	voltage
	4	vac.psi	voltage
	5	phin	voltage
	6	phip	voltage
	7	dop	concentration
	8	n	concentration
	9	p	concentration
	10	ex	electric_field
	11	ey	electric_field
	12	jdx	current_density
	13	jdy	current_density
	14	jnx	current_density
	15	jny	current_density
	16	jpx	current_density
	17	jpy	current_density
Values:
0	0.000000e+00
	0.000000e+00
	8.225952e-01
	3.225952e-01
	-3.790354e+00
	5.000000e-01
	5.000000e-01
	3.000000e+15
	3.000000e+15
	4.400555e+04
	1.019801e+05
	-0.000000e+00
	0.000000e+00
	0.000000e+00
	4.069339e-10
	0.000000e+00
	5.392944e-08
	0.000000e+00
1	9.043580e-08
	0.000000e+00
	8.225952e-01
	3.225952e-01
	-3.790354e+00
	5.000000e-01
	5.000000e-01
	3.000000e+15
	3.000000e+15
	4.400555e+04
	9.838393e+04
	-0.000000e+00
	0.000000e+00
	0.000000e+00
	4.380061e-10
	0.000000e+00
	5.363515e-08
	0.000000e+00
2	1.425859e-07
	0.000000e+00
	8.225952e-01
	3.225952e-01
	-3.790354e+00
	5.000000e-01
	5.000000e-01
	3.000000e+15
	3.000000e+15
	4.400555e+04
	9.209571e+04
	-0.000000e+00
	0.000000e+00
	0.000000e+00
	4.958172e-10
	0.000000e+00
	5.307435e-08
	0.000000e+00
3	1.726585e-07
	0.000000e+00
	8.225952e-01
	3.225952e-01
	-3.790354e+00
	5.000000e-01
	5.000000e-01
	3.000000e+15
	3.000000e+15
	4.400555e+04
	8.696810e+04
	-0.000000e+00
	0.000000e+00
	0.000000e+00
	5.405763e-10
	0.000000e+00
	5.256734e-08
	0.000000e+00
4	1.899999e-07
	0.000000e+00
	8.225952e-01
	3.225952e-01
	-3.790354e+00
	5.000000e-01
	5.000000e-01
	3.000000e+15
	3.000000e+15
	4.400555e+04
	8.358962e+04
	-0.000000e+00
	0.000000e+00
	0.000000e+00
	5.724452e-10
	0.000000e+00
	5.220531e-08
	0.000000e+00
5	2.000000e-07
	0.000000e+00
	8.225952e-01
	3.225952e-01
	-3.790354e+00
	5.000000e-01
	5.000000e-01
	3.000000e+15
	3.000000e+15
	4.400555e+04
	8.152807e+04
	-0.000000e+00
	0.000000e+00
	0.000000e+00
	5.948285e-10
	0.000000e+00
	5.197232e-08
	0.000000e+00
6	2.100000e-07
	0.000000e+00
	8.225952e-01
	3.225952e-01
	-3.790354e+00
	5.000000e-01
	5.000000e-01
	3.000000e+15
	3.000000e+15
	4.400555e+04
	7.939709e+04
	-0.000000e+00
	0.000000e+00
	0.000000e+00
	6.218238e-10
	0.000000e+00
	5.172112e-08
	0.000000e+00
7	2.354138e-07
	0.000000e+00
	8.225952e-01
	3.225952e-01
	-3.790354e+00
	5.000000e-01
	5.000000e-01
	3.000000e+15
	3.000000e+15
	4.400555e+04
	7.373369e+04
	-0.000000e+00
	0.000000e+00
	0.000000e+00
	7.143846e-10
	0.000000e+00
	5.099682e-08
	0.000000e+00
8	3.000000e-07
	0.000000e+00
	8.225952e-01
	3.225952e-01
	-3.790354e+00
	5.000000e-01
	5.000000e-01
	3.000000e+15
	3.000000e+15
	4.400555e+04
	5.884684e+04
	-0.000000e+00
	0.000000e+00
	0.000000e+00
	1.213182e-09
	0.000000e+00
	4.858383e-08
	0.000000e+00
9	4.000000e-07
	0.000000e+00
	8.225952e-01
	3.225952e-01
	-3.790354e+00
	5.000000e-01
	5.000000e-01
	3.000000e+15
	3.000000e+15
	4.400555e+04
	3.957350e+04
	-0.000000e+00
	0.000000e+00
	0.000000e+00
	4.056366e-07
	0.000000e+00
	4.360669e-08
	0.000000e+00
10	5.000000e-07
	0.000000e+00
	8.225952e-01
	3.225952e-01
	-3.790354e+00
	5.000000e-01
	5.000000e-01
	3.000000e+15
	3.000000e+15
	4.400555e+04
	2.580821e+04
	-0.000000e+00
	0.000000e+00
	0.000000e+00
	1.089452e-04
	0.000000e+00
	3.737261e-08
	0.000000e+00
11	6.000000e-07
	0.000000e+00
	8.225952e-01
	3.225952e-01
	-3.790354e+00
	5.000000e-01
	5.000000e-01
	3.000000e+15
	3.000000e+15
	4.400555e+04
	1.630411e+04
	-0.000000e+00
	0.000000e+00
	0.000000e+00
	7.279410e-03
	0.000000e+00
	3.016879e-08
	0.000000e+00
12	7.000000e-07
	0.000000e+00
	8.225952e-01
	3.225952e-01
	-3.790354e+00
	5.000000e-01
	5.000000e-01
	3.000000e+15
	3.000000e+15
	4.400555e+04
	9.938473e+03
	-0.000000e+00
	0.000000e+00
	0.000000e+00
	1.622113e-01
	0.000000e+00
	2.275017e-08
	0.000000e+00
13	8.000000e-07
	0.000000e+00
	8.225952e-01
	3.225952e-01
	-3.790354e+00
	5.000000e-01
	5.000000e-01
	3.000000e+15
	3.000000e+15
	4.400555e+04
	5.981610e+03
	-0.000000e+00
	0.000000e+00
	0.000000e+00
	1.369520e+00
	0.000000e+00
	1.652854e-08
	0.000000e+00
14	9.000000e-07
	0.000000e+00
	8.225952e-01
	3.225952e-01
	-3.790354e+00
	5.000000e-01
	5.000000e-01
	3.000000e+15
	3.000000e+15
	4.400555e+04
	3.905070e+03
	-0.000000e+00
	0.000000e+00
	0.000000e+00
	4.729497e+00
	0.000000e+00
	1.268361e-08
	0.000000e+00
15	1.000000e-06
	0.000000e+00
	8.225952e-01
	3.225952e-01
	-3.790354e+00
	5.000000e-01
	5.000000e-01
	3.000000e+15
	3.000000e+15
	4.400555e+04
	3.274589e+03
	-0.000000e+00
	0.000000e+00
	0.000000e+00
	7.104556e+00
	0.000000e+00
	1.143985e-08
	0.000000e+00
16	0.000000e+00
	8.595725e-08
	-5.399763e-02
	5.728205e-02
	-4.666947e+00
	4.093237e-01
	-3.693350e-01
	3.000000e+15
	1.907771e+02
	5.826062e+04
	1.072231e+05
	0.000000e+00
	0.000000e+00
	0.000000e+00
	3.180209e-10
	0.000000e+00
	6.555051e-08
	0.000000e+00
17	9.043580e-08
	8.595725e-08
	-2.308602e-02
	6.623508e-02
	-4.636035e+00
	4.367636e-01
	-3.403614e-01
	3.000000e+15
	2.181829e+02
	5.405482e+04
	1.045658e+05
	-7.823972e+03
	0.000000e+00
	0.000000e+00
	3.431559e-10
	-2.353538e-10
	6.201258e-08
	-2.061177e-08
18	1.425859e-07
	8.595725e-08
	3.096575e-02
	8.396644e-02
	-4.581983e+00
	4.765528e-01
	-2.887268e-01
	3.000000e+15
	3.787111e+02
	4.923188e+04
	9.857657e+04
	-1.308671e+04
	0.000000e+00
	0.000000e+00
	3.904628e-10
	-3.610966e-10
	5.770701e-08
	-2.825777e-08
19	1.726585e-07
	8.595725e-08
	7.504128e-02
	9.983210e-02
	-4.537908e+00
	4.933545e-01
	-2.460447e-01
	3.000000e+15
	1.087107e+03
	4.664976e+04
	9.275109e+04
	-1.598194e+04
	0.000000e+00
	0.000000e+00
	4.288636e-10
	-4.277072e-10
	5.516038e-08
	-3.064316e-08
20	1.899999e-07
	8.595725e-08
	1.040818e-01
	1.107798e-01
	-4.508867e+00
	4.975114e-01
	-2.177046e-01
	3.000000e+15
	2.845134e+03
	4.540331e+04
	8.864589e+04
	-1.736407e+04
	0.000000e+00
	0.000000e+00
	4.580181e-10
	-4.642881e-10
	5.379511e-08
	-3.140482e-08
21	2.000000e-07
	8.595725e-08
	1.218023e-01
	1.176076e-01
	-4.491147e+00
	4.986663e-01
	-2.003428e-01
	3.000000e+15
	5.398349e+03
	4.477801e+04
	8.608813e+04
	-1.801882e+04
	0.000000e+00
	0.000000e+00
	4.803513e-10
	-4.850612e-10
	5.305155e-08
	-3.166793e-08
22	2.100000e-07
	8.595725e-08
	1.401196e-01
	1.247617e-01
	-4.472830e+00
	4.993044e-01
	-1.823442e-01
	3.000000e+15
	1.069347e+04
	4.422969e+04
	8.342527e+04
	-1.855396e+04
	0.000000e+00
	0.000000e+00
	5.103441e-10
	-5.061769e-10
	5.234650e-08
	-3.181884e-08
23	2.354138e-07
	8.595725e-08
	1.888006e-01
	1.441513e-01
	-4.424149e+00
	4.998768e-01
	-1.342885e-01
	3.000000e+15
	6.869524e+04
	4.317321e+04
	7.635581e+04
	-1.934098e+04
	0.000000e+00
	0.000000e+00
	6.052262e-10
	-5.614126e-10
	5.071793e-08
	-3.180081e-08
24	3.000000e-07
	8.595725e-08
	3.167639e-01
	1.963287e-01
	-4.296185e+00
	4.999985e-01
	-7.263973e-03
	3.000000e+15
	9.628517e+06
	4.163419e+04
	5.914576e+04
	-1.853903e+04
	0.000000e+00
	0.000000e+00
	9.161510e-10
	-5.623368e-10
	4.697393e-08
	-3.007549e-08
25	4.000000e-07
	8.595725e-08
	4.824322e-01
	2.604045e-01
	-4.130517e+00
	4.999992e-01
	1.576785e-01
	3.000000e+15
	5.825613e+09
	4.048213e+04
	3.953283e+04
	-1.419955e+04
	0.000000e+00
	0.000000e+00
	1.488103e-07
	2.981197e-07
	4.137492e-08
	-2.515890e-08
26	5.000000e-07
	8.595725e-08
	6.007549e-01
	2.973245e-01
	-4.012194e+00
	4.999976e-01
	2.751112e-01
	3.000000e+15
	5.651524e+11
	3.911284e+04
	2.622778e+04
	-1.000087e+04
	0.000000e+00
	0.000000e+00
	4.093396e-05
	7.971882e-05
	3.495886e-08
	-1.952627e-08
27	6.000000e-07
	8.595725e-08
	6.824496e-01
	3.137977e-01
	-3.930500e+00
	4.999924e-01
	3.555104e-01
	3.000000e+15
	1.330502e+13
	3.720197e+04
	1.712998e+04
	-6.820595e+03
	0.000000e+00
	0.000000e+00
	3.114813e-03
	5.003804e-03
	2.790767e-08
	-1.406903e-08
28	7.000000e-07
	8.595725e-08
	7.371668e-01
	3.197882e-01
	-3.875782e+00
	4.999757e-01
	4.082204e-01
	3.000000e+15
	1.104261e+14
	3.442410e+04
	1.096936e+04
	-4.436467e+03
	0.000000e+00
	0.000000e+00
	9.156324e-02
	9.203849e-02
	2.083909e-08
	-9.214326e-09
29	8.000000e-07
	8.595725e-08
	7.711789e-01
	3.217332e-01
	-3.841770e+00
	4.999314e-01
	4.399946e-01
	3.000000e+15
	4.120268e+14
	3.157069e+04
	7.007247e+03
	-2.593074e+03
	0.000000e+00
	0.000000e+00
	1.074640e+00
	5.172821e-01
	1.508214e-08
	-5.308228e-09
30	9.000000e-07
	8.595725e-08
	7.890283e-01
	3.223184e-01
	-3.823921e+00
	4.998578e-01
	4.562939e-01
	3.000000e+15
	8.239033e+14
	2.973422e+04
	4.817354e+03
	-1.163441e+03
	0.000000e+00
	0.000000e+00
	4.750817e+00
	8.355328e-01
	1.160337e-08
	-2.368785e-09
31	1.000000e-06
	8.595725e-08
	7.944477e-01
	3.224452e-01
	-3.818501e+00
	4.998149e-01
	4.611598e-01
	3.000000e+15
	1.017641e+15
	2.910458e+04
	4.126470e+03
	0.000000e+00
	0.000000e+00
	0.000000e+00
	7.801437e+00
	0.000000e+00
	1.048396e-08
	0.000000e+00
32	0.000000e+00
	1.352176e-07
	-5.969828e-01
	-1.175073e-01
	-5.209932e+00
	-1.219602e-01
	-9.076225e-01
	3.000000e+15
	1.213518e+02
	6.986444e+04
	1.138611e+05
	0.000000e+00
	0.000000e+00
	0.000000e+00
	2.067499e-10
	0.000000e+00
	8.173611e-08
	0.000000e+00
33	9.043580e-08
	1.352176e-07
	-5.556320e-01
	-1.073903e-01
	-5.168581e+00
	-8.263764e-02
	-8.696406e-01
	3.000000e+15
	1.312509e+02
	6.133210e+04
	1.131510e+05
	-1.173172e+04
	0.000000e+00
	0.000000e+00
	2.189587e-10
	-1.897384e-10
	7.300654e-08
	-2.842912e-08
34	1.425859e-07
	1.352176e-07
	-4.729211e-01
	-8.343345e-02
	-5.085870e+00
	-3.397266e-03
	-7.911839e-01
	3.000000e+15
	1.500991e+02
	5.202986e+04
	1.088217e+05
	-2.156451e+04
	0.000000e+00
	0.000000e+00
	2.515015e-10
	-2.798121e-10
	6.310450e-08
	-3.764175e-08
35	1.726585e-07
	1.352176e-07
	-3.981789e-01
	-5.785052e-02
	-5.011128e+00
	6.873695e-02
	-7.189489e-01
	3.000000e+15
	1.660231e+02
	4.722320e+04
	1.021291e+05
	-2.785820e+04
	0.000000e+00
	0.000000e+00
	2.876234e-10
	-3.272485e-10
	5.761647e-08
	-3.976572e-08
36	1.899999e-07
	1.352176e-07
	-3.468646e-01
	-3.859258e-02
	-4.959814e+00
	1.181494e-01
	-6.688551e-01
	3.000000e+15
	1.786920e+02
	4.504636e+04
	9.652386e+04
	-3.094155e+04
	0.000000e+00
	0.000000e+00
	3.197383e-10
	-3.566732e-10
	5.488587e-08
	-4.008828e-08
37	2.000000e-07
	1.352176e-07
	-3.151436e-01
	-2.618826e-02
	-4.928093e+00
	1.484293e-01
	-6.377272e-01
	3.000000e+15
	1.889304e+02
	4.402535e+04
	9.283807e+04
	-3.232835e+04
	0.000000e+00
	0.000000e+00
	3.470934e-10
	-3.755833e-10
	5.348808e-08
	-4.004041e-08
38	2.100000e-07
	1.352176e-07
	-2.822075e-01
	-1.299923e-02
	-4.895157e+00
	1.794468e-01
	-6.052765e-01
	3.000000e+15
	2.034780e+02
	4.320676e+04
	8.894084e+04
	-3.335517e+04
	0.000000e+00
	0.000000e+00
	3.866357e-10
	-3.971084e-10
	5.224893e-08
	-3.986351e-08
39	2.354138e-07
	1.352176e-07
	-1.947328e-01
	2.312717e-02
	-4.807682e+00
	2.618297e-01
	-5.186284e-01
	3.000000e+15
	2.477512e+02
	4.184772e+04
	7.874643e+04
	-3.428865e+04
	0.000000e+00
	0.000000e+00
	4.785007e-10
	-4.536093e-10
	4.967499e-08
	-3.905220e-08
40	3.000000e-07
	1.352176e-07
	2.456618e-02
	1.153953e-01
	-4.588383e+00
	4.650000e-01
	-3.004597e-01
	3.000000e+15
	4.622092e+02
	4.005830e+04
	5.817613e+04
	-3.096019e+04
	0.000000e+00
	0.000000e+00
	6.830192e-10
	-5.931512e-10
	4.474122e-08
	-3.587046e-08
41	4.000000e-07
	1.352176e-07
	2.878071e-01
	2.197509e-01
	-4.325142e+00
	4.999929e-01
	-3.823547e-02
	3.000000e+15
	3.143615e+06
	3.851424e+04
	3.866526e+04
	-2.229027e+04
	0.000000e+00
	0.000000e+00
	1.222256e-09
	-1.149576e-10
	3.860613e-08
	-2.971252e-08
42	5.000000e-07
	1.352176e-07
	4.703715e-01
	2.800158e-01
	-4.142578e+00
	4.999908e-01
	1.429000e-01
	3.000000e+15
	3.655664e+09
	3.644399e+04
	2.620219e+04
	-1.539641e+04
	0.000000e+00
	0.000000e+00
	8.291169e-07
	2.292206e-06
	3.203557e-08
	-2.310533e-08
43	6.000000e-07
	1.352176e-07
	5.957353e-01
	3.077918e-01
	-4.017214e+00
	4.999718e-01
	2.660200e-01
	3.000000e+15
	4.659211e+11
	3.341579e+04
	1.773909e+04
	-1.049248e+04
	0.000000e+00
	0.000000e+00
	3.795665e-04
	7.122571e-04
	2.509237e-08
	-1.665358e-08
44	7.000000e-07
	1.352176e-07
	6.802211e-01
	3.179377e-01
	-3.932728e+00
	4.999166e-01
	3.473505e-01
	3.000000e+15
	1.224249e+13
	2.957802e+04
	1.193621e+04
	-6.901517e+03
	0.000000e+00
	0.000000e+00
	3.432888e-02
	3.541778e-02
	1.846903e-08
	-1.095876e-08
45	8.000000e-07
	1.352176e-07
	7.337656e-01
	3.211855e-01
	-3.879184e+00
	4.997878e-01
	3.974270e-01
	3.000000e+15
	9.752492e+13
	2.586645e+04
	8.095089e+03
	-4.125065e+03
	0.000000e+00
	0.000000e+00
	7.661473e-01
	3.526119e-01
	1.328545e-08
	-6.405101e-09
46	9.000000e-07
	1.352176e-07
	7.627224e-01
	3.221478e-01
	-3.850227e+00
	4.995927e-01
	4.238139e-01
	3.000000e+15
	3.010350e+14
	2.341987e+04
	5.876602e+03
	-1.897506e+03
	0.000000e+00
	0.000000e+00
	4.720181e+00
	7.228043e-01
	1.023392e-08
	-2.917007e-09
47	1.000000e-06
	1.352176e-07
	7.717157e-01
	3.223545e-01
	-3.841233e+00
	4.994830e-01
	4.317831e-01
	3.000000e+15
	4.280235e+14
	2.251067e+04
	5.151423e+03
	0.000000e+00
	0.000000e+00
	0.000000e+00
	8.599715e+00
	0.000000e+00
	9.249650e-09
	0.000000e+00
48	0.000000e+00
	1.634476e-07
	-9.242916e-01
	-2.254584e-01
	-5.537241e+00
	-4.379048e-01
	-1.193512e+00
	3.000000e+15
	7.820338e+01
	3.465359e+05
	1.180161e+05
	0.000000e+00
	0.000000e+00
	0.000000e+00
	1.262255e-10
	0.000000e+00
	9.299064e-08
	0.000000e+00
49	9.043580e-08
	1.634476e-07
	-8.832159e-01
	-2.172993e-01
	-5.496165e+00
	-3.978236e-01
	-1.179632e+00
	3.000000e+15
	8.126899e+01
	1.210861e+05
	1.193091e+05
	-1.291412e+04
	0.000000e+00
	0.000000e+00
	1.291000e-10
	-1.218128e-10
	8.055464e-08
	-3.094824e-08
50	1.425859e-07
	1.634476e-07
	-7.906914e-01
	-1.948537e-01
	-5.403641e+00
	-3.090075e-01
	-1.107380e+00
	3.000000e+15
	9.379807e+01
	5.529539e+04
	1.179045e+05
	-2.639688e+04
	0.000000e+00
	0.000000e+00
	1.540060e-10
	-1.800474e-10
	6.645029e-08
	-4.136574e-08
51	1.726585e-07
	1.634476e-07
	-6.963004e-01
	-1.652773e-01
	-5.309250e+00
	-2.188855e-01
	-1.017003e+00
	3.000000e+15
	1.106308e+02
	4.734647e+04
	1.112239e+05
	-3.667654e+04
	0.000000e+00
	0.000000e+00
	1.992517e-10
	-2.197178e-10
	5.865926e-08
	-4.363167e-08
52	1.899999e-07
	1.634476e-07
	-6.274093e-01
	-1.396633e-01
	-5.240358e+00
	-1.534590e-01
	-9.497419e-01
	3.000000e+15
	1.264887e+02
	4.445447e+04
	1.039192e+05
	-4.211365e+04
	0.000000e+00
	0.000000e+00
	2.433000e-10
	-2.534589e-10
	5.488646e-08
	-4.378564e-08
53	2.000000e-07
	1.634476e-07
	-5.839185e-01
	-1.222541e-01
	-5.196868e+00
	-1.126522e-01
	-9.070064e-01
	3.000000e+15
	1.403201e+02
	4.317509e+04
	9.861827e+04
	-4.446612e+04
	0.000000e+00
	0.000000e+00
	2.811791e-10
	-2.789292e-10
	5.301367e-08
	-4.357085e-08
54	2.100000e-07
	1.634476e-07
	-5.384766e-01
	-1.033614e-01
	-5.151426e+00
	-7.067890e-02
	-8.621317e-01
	3.000000e+15
	1.604583e+02
	4.223867e+04
	9.285159e+04
	-4.594416e+04
	0.000000e+00
	0.000000e+00
	3.270498e-10
	-3.077537e-10
	5.143508e-08
	-4.319660e-08
55	2.354138e-07
	1.634476e-07
	-4.184710e-01
	-5.147631e-02
	-5.031420e+00
	4.342447e-02
	-7.429826e-01
	3.000000e+15
	2.015896e+02
	4.086276e+04
	7.872868e+04
	-4.615695e+04
	0.000000e+00
	0.000000e+00
	4.023196e-10
	-3.699676e-10
	4.837695e-08
	-4.186578e-08
56	3.000000e-07
	1.634476e-07
	-1.378196e-01
	6.905852e-02
	-4.750769e+00
	3.139755e-01
	-4.634445e-01
	3.000000e+15
	2.978973e+02
	3.914117e+04
	5.617559e+04
	-3.887439e+04
	0.000000e+00
	0.000000e+00
	6.128412e-10
	-5.078922e-10
	4.311400e-08
	-3.774264e-08
57	4.000000e-07
	1.634476e-07
	1.800206e-01
	1.962959e-01
	-4.432928e+00
	4.997511e-01
	-1.467972e-01
	3.000000e+15
	4.915980e+04
	3.737693e+04
	3.741035e+04
	-2.673263e+04
	0.000000e+00
	0.000000e+00
	9.562149e-10
	-7.431310e-10
	3.683698e-08
	-3.092149e-08
58	5.000000e-07
	1.634476e-07
	3.968330e-01
	2.695534e-01
	-4.216116e+00
	4.999807e-01
	6.819863e-02
	3.000000e+15
	2.129738e+08
	3.484187e+04
	2.574190e+04
	-1.827087e+04
	0.000000e+00
	0.000000e+00
	9.718551e-08
	2.996865e-07
	3.021930e-08
	-2.389850e-08
59	6.000000e-07
	1.634476e-07
	5.454380e-01
	3.040665e-01
	-4.067511e+00
	4.999403e-01
	2.139795e-01
	3.000000e+15
	6.672399e+10
	3.123779e+04
	1.779253e+04
	-1.245419e+04
	0.000000e+00
	0.000000e+00
	1.174448e-04
	2.214468e-04
	2.333169e-08
	-1.710612e-08
60	7.000000e-07
	1.634476e-07
	6.459167e-01
	3.167954e-01
	-3.967032e+00
	4.998298e-01
	3.106179e-01
	3.000000e+15
	3.260700e+12
	2.692748e+04
	1.229368e+04
	-8.233306e+03
	0.000000e+00
	0.000000e+00
	1.944334e-02
	1.917382e-02
	1.699242e-08
	-1.121131e-08
61	8.000000e-07
	1.634476e-07
	7.101041e-01
	3.208525e-01
	-3.902845e+00
	4.995894e-01
	3.706942e-01
	3.000000e+15
	3.936764e+13
	2.297026e+04
	8.618291e+03
	-4.967408e+03
	0.000000e+00
	0.000000e+00
	6.220367e-01
	2.651951e-01
	1.216836e-08
	-6.572703e-09
62	9.000000e-07
	1.634476e-07
	7.452649e-01
	3.220457e-01
	-3.867684e+00
	4.992446e-01
	4.027249e-01
	3.000000e+15
	1.553554e+14
	2.035198e+04
	6.464567e+03
	-2.310038e+03
	0.000000e+00
	0.000000e+00
	4.659621e+00
	6.200088e-01
	9.362340e-09
	-3.015768e-09
63	1.000000e-06
	1.634476e-07
	7.563049e-01
	3.223007e-01
	-3.856644e+00
	4.990555e-01
	4.124418e-01
	3.000000e+15
	2.398152e+14
	1.933711e+04
	5.749941e+03
	0.000000e+00
	0.000000e+00
	0.000000e+00
	9.039351e+00
	0.000000e+00
	8.446457e-09
	0.000000e+00
64	0.000000e+00
	1.796257e-07
	-1.117140e+00
	-2.897454e-01
	-5.730090e+00
	-6.166752e-01
	-1.199996e+00
	3.000000e+15
	4.537637e+01
	4.667300e+08
	1.203284e+05
	0.000000e+00
	0.000000e+00
	0.000000e+00
	6.922939e-11
	0.000000e+00
	9.952638e-08
	0.000000e+00
65	9.043580e-08
	1.796257e-07
	-1.079265e+00
	-2.836951e-01
	-5.692214e+00
	-5.789646e-01
	-1.199983e+00
	3.000000e+15
	4.566623e+01
	1.079670e+08
	1.231030e+05
	-1.282745e+04
	0.000000e+00
	0.000000e+00
	6.807486e-11
	-6.798737e-11
	8.530379e-08
	-3.128508e-08
66	1.425859e-07
	1.796257e-07
	-9.863891e-01
	-2.652178e-01
	-5.599338e+00
	-4.914996e-01
	-1.199527e+00
	3.000000e+15
	5.629297e+01
	3.029999e+06
	1.247020e+05
	-2.864635e+04
	0.000000e+00
	0.000000e+00
	9.192523e-11
	-1.064437e-10
	6.864950e-08
	-4.277214e-08
67	1.726585e-07
	1.796257e-07
	-8.814493e-01
	-2.359903e-01
	-5.494398e+00
	-3.953401e-01
	-1.183127e+00
	3.000000e+15
	7.904716e+01
	9.879701e+04
	1.189900e+05
	-4.264738e+04
	0.000000e+00
	0.000000e+00
	1.527272e-10
	-1.499835e-10
	5.926902e-08
	-4.544257e-08
68	1.899999e-07
	1.796257e-07
	-7.997408e-01
	-2.061862e-01
	-5.412690e+00
	-3.201140e-01
	-1.121080e+00
	3.000000e+15
	1.015628e+02
	4.619472e+04
	1.104460e+05
	-5.092168e+04
	0.000000e+00
	0.000000e+00
	2.120708e-10
	-1.973040e-10
	5.476042e-08
	-4.564271e-08
69	2.000000e-07
	1.796257e-07
	-7.466249e-01
	-1.843044e-01
	-5.359574e+00
	-2.714940e-01
	-1.069925e+00
	3.000000e+15
	1.208447e+02
	4.282255e+04
	1.032895e+05
	-5.456300e+04
	0.000000e+00
	0.000000e+00
	2.615939e-10
	-2.352307e-10
	5.252298e-08
	-4.538148e-08
70	2.100000e-07
	1.796257e-07
	-6.906142e-01
	-1.599039e-01
	-5.303563e+00
	-2.197131e-01
	-1.014679e+00
	3.000000e+15
	1.423148e+02
	4.157486e+04
	9.493958e+04
	-5.633499e+04
	0.000000e+00
	0.000000e+00
	2.982534e-10
	-2.713062e-10
	5.067023e-08
	-4.488484e-08
71	2.354138e-07
	1.796257e-07
	-5.453505e-01
	-9.449706e-02
	-5.158300e+00
	-7.957907e-02
	-8.702567e-01
	3.000000e+15
	1.735342e+02
	4.024420e+04
	7.737521e+04
	-5.491770e+04
	0.000000e+00
	0.000000e+00
	3.532405e-10
	-3.276968e-10
	4.735699e-08
	-4.317101e-08
72	3.000000e-07
	1.796257e-07
	-2.274523e-01
	4.342960e-02
	-4.840401e+00
	2.265039e-01
	-5.534312e-01
	3.000000e+15
	2.740188e+02
	3.860910e+04
