Title: Device q2 external state
Plotname: Device Operating Point
Command: deftype v conductance S
Flags: real
No. Variables: 10
No. Points: 1
Variables:
	0	time	unknown
	1	v13	voltage
	2	v23	voltage
	3	i1	current
	4	i2	current
	5	i3	current
	6	g22	conductance
	7	g21	conductance
	8	g12	conductance
	9	g11	conductance
Values:
0	 9.547361e-07
	 6.661113e-01
	 8.689735e-01
	 4.614139e-03
	 1.362001e-03
	-5.976140e-03
	 2.998281e-02
	-4.523570e-04
	 2.519767e-02
	 1.634822e-03
Title: Device q2 (nbjt) internal state
Plotname: Device Cross Section
Flags: real
Command: deftype p xs cross
Command: deftype v distance m
Command: deftype v concentration cm^-3
Command: deftype v electric_field V/cm
Command: deftype v current_density A/cm^2
Command: deftype v concentration/time cm^-3/s
Command: deftype v mobility cm^2/Vs
No. Variables: 19
No. Points: 61
Variables:
	0	x	distance
	1	psi	voltage
	2	equ.psi	voltage
	3	vac.psi	voltage
	4	phin	voltage
	5	phip	voltage
	6	phiv	voltage
	7	dop	concentration
	8	n	concentration
	9	p	concentration
	10	e	electric_field
	11	jc	current_density
	12	jd	current_density
	13	jn	current_density
	14	jp	current_density
	15	jt	current_density
	16	unet	concentration/time
	17	mun	mobility
	18	mup	mobility
Values:
0	0.000000e+00
	4.073931e-01
	4.073931e-01
	-4.205556e+00
	0.000000e+00
	0.000000e+00
	9.652296e-01
	9.100000e+16
	9.100000e+16
	1.895333e+03
	0.000000e+00
	-5.976142e+03
	1.463282e-03
	-4.606430e+03
	-1.369711e+03
	-5.976140e+03
	0.000000e+00
	7.814529e+02
	4.294101e+02
1	5.000000e-08
	4.103808e-01
	4.073931e-01
	-4.202568e+00
	1.985482e-03
	7.345519e-01
	9.682173e-01
	9.100000e+16
	9.459543e+16
	3.644455e+15
	-5.785859e+02
	-5.976142e+03
	1.328119e-03
	-4.606438e+03
	-1.369704e+03
	-5.976140e+03
	6.952835e+20
	7.814529e+02
	4.294101e+02
2	1.000000e-07
	4.131790e-01
	4.073931e-01
	-4.199770e+00
	3.899521e-03
	7.539610e-01
	9.710155e-01
	9.100000e+16
	9.788486e+16
	6.927122e+15
	-5.432899e+02
	-5.976141e+03
	1.086392e-03
	-4.606461e+03
	-1.369681e+03
	-5.976140e+03
	1.217993e+21
	7.814529e+02
	4.294101e+02
3	1.500000e-07
	4.158137e-01
	4.073931e-01
	-4.197135e+00
	5.752644e-03
	7.658914e-01
	9.736502e-01
	9.100000e+16
	1.008881e+17
	9.922914e+15
	-5.135057e+02
	-5.976141e+03
	8.992583e-04
	-4.606496e+03
	-1.369645e+03
	-5.976140e+03
	1.635704e+21
	7.814529e+02
	4.294101e+02
4	2.000000e-07
	4.183140e-01
	4.073931e-01
	-4.194635e+00
	7.553262e-03
	7.747408e-01
	9.761505e-01
	9.100000e+16
	1.036547e+17
	1.268379e+16
	-4.887989e+02
	-5.976141e+03
	7.560448e-04
	-4.606543e+03
	-1.369598e+03
	-5.976140e+03
	1.983549e+21
	7.814529e+02
	4.294101e+02
5	2.500000e-07
	4.207017e-01
	4.073931e-01
	-4.192247e+00
	9.307944e-03
	7.818901e-01
	9.785382e-01
	9.100000e+16
	1.062228e+17
	1.524765e+16
	-4.679290e+02
	-5.976141e+03
	6.433253e-04
	-4.606600e+03
	-1.369541e+03
	-5.976140e+03
	2.281851e+21
	7.814529e+02
	4.294101e+02
6	3.000000e-07
	4.229933e-01
	4.073931e-01
	-4.189956e+00
	1.102193e-02
	7.879560e-01
	9.808298e-01
	9.100000e+16
	1.086217e+17
	1.764325e+16
	-4.500022e+02
	-5.976141e+03
	5.522879e-04
	-4.606668e+03
	-1.369473e+03
	-5.976140e+03
	2.543310e+21
	7.814529e+02
	4.294101e+02
7	3.500000e-07
	4.252017e-01
	4.073931e-01
	-4.187747e+00
	1.269951e-02
	7.932685e-01
	9.830382e-01
	9.100000e+16
	1.108741e+17
	1.989299e+16
	-4.343902e+02
	-5.976141e+03
	4.771705e-04
	-4.606745e+03
	-1.369396e+03
	-5.976140e+03
	2.776342e+21
	7.814529e+02
	4.294101e+02
8	4.000000e-07
	4.273372e-01
	4.073931e-01
	-4.185612e+00
	1.434423e-02
	7.980252e-01
	9.851737e-01
	9.100000e+16
	1.129980e+17
	2.201475e+16
	-4.206379e+02
	-5.976141e+03
	4.140668e-04
	-4.606830e+03
	-1.369311e+03
	-5.976140e+03
	2.986788e+21
	7.814529e+02
	4.294101e+02
9	4.500000e-07
	4.294081e-01
	4.073931e-01
	-4.183541e+00
	1.595907e-02
	8.023541e-01
	9.872446e-01
	9.100000e+16
	1.150081e+17
	2.402306e+16
	-4.084070e+02
	-5.976141e+03
	3.602378e-04
	-4.606924e+03
	-1.369217e+03
	-5.976140e+03
	3.178852e+21
	7.814529e+02
	4.294101e+02
10	5.000000e-07
	4.314213e-01
	4.073931e-01
	-4.181528e+00
	1.754660e-02
	8.063429e-01
	9.892578e-01
	9.100000e+16
	1.169165e+17
	2.592994e+16
	-3.974395e+02
	-5.976141e+03
	3.137083e-04
	-4.607025e+03
	-1.369115e+03
	-5.976140e+03
	3.355660e+21
	7.814529e+02
	4.294101e+02
11	5.500000e-07
	4.333825e-01
	4.073931e-01
	-4.179567e+00
	1.910901e-02
	8.100544e-01
	9.912190e-01
	9.100000e+16
	1.187332e+17
	2.774541e+16
	-3.875349e+02
	-5.976141e+03
	2.730186e-04
	-4.607134e+03
	-1.369006e+03
	-5.976140e+03
	3.519590e+21
	7.814529e+02
	4.294101e+02
12	6.000000e-07
	4.352966e-01
	4.073931e-01
	-4.177653e+00
	2.064822e-02
	8.135352e-01
	9.931331e-01
	9.100000e+16
	1.204669e+17
	2.947801e+16
	-3.785345e+02
	-5.976141e+03
	2.370664e-04
	-4.607251e+03
	-1.368890e+03
	-5.976140e+03
	3.672497e+21
	7.814529e+02
	4.294101e+02
13	6.500000e-07
	4.371678e-01
	4.073931e-01
	-4.175781e+00
	2.216590e-02
	8.168209e-01
	9.950043e-01
	9.100000e+16
	1.221248e+17
	3.113501e+16
	-3.703112e+02
	-5.976140e+03
	2.050014e-04
	-4.607374e+03
	-1.368767e+03
	-5.976140e+03
	3.815853e+21
	7.814529e+02
	4.294101e+02
14	7.000000e-07
	4.389997e-01
	4.073931e-01
	-4.173949e+00
	2.366355e-02
	8.199392e-01
	9.968362e-01
	9.100000e+16
	1.237134e+17
	3.272271e+16
	-3.627613e+02
	-5.976140e+03
	1.761564e-04
	-4.607504e+03
	-1.368636e+03
	-5.976140e+03
	3.950845e+21
	7.814529e+02
	4.294101e+02
15	7.500000e-07
	4.407954e-01
	4.073927e-01
	-4.172154e+00
	2.514247e-02
	8.229122e-01
	9.986320e-01
	9.100000e+16
	1.252379e+17
	3.424658e+16
	-3.557969e+02
	-5.976140e+03
	1.500371e-04
	-4.607641e+03
	-1.368500e+03
	-5.976140e+03
	4.078444e+21
	7.814529e+02
	4.294101e+02
16	8.000000e-07
	4.425577e-01
	4.073877e-01
	-4.170391e+00
	2.660386e-02
	8.257578e-01
	1.000394e+00
	9.100000e+16
	1.267033e+17
	3.571147e+16
	-3.492759e+02
	-5.976140e+03
	1.269291e-04
	-4.607784e+03
	-1.368357e+03
	-5.976140e+03
	4.199455e+21
	7.814529e+02
	4.294101e+02
17	8.500000e-07
	4.442882e-01
	4.073100e-01
	-4.168661e+00
	2.804880e-02
	8.284906e-01
	1.002125e+00
	9.100000e+16
	1.281099e+17
	3.712258e+16
	-3.412161e+02
	-5.976140e+03
	1.209083e-04
	-4.607933e+03
	-1.368208e+03
	-5.976140e+03
	4.314555e+21
	7.814529e+02
	4.294101e+02
18	9.000000e-07
	4.459699e-01
	4.061040e-01
	-4.166979e+00
	2.947882e-02
	8.311219e-01
	1.003806e+00
	9.100000e+16
	1.293624e+17
	3.851088e+16
	-2.789376e+02
	-5.976141e+03
	4.061329e-04
	-4.608088e+03
	-1.368052e+03
	-5.976140e+03
	4.424266e+21
	7.814529e+02
	4.294101e+02
19	9.500000e-07
	4.470776e-01
	3.877904e-01
	-4.165872e+00
	3.091046e-02
	8.336344e-01
	1.004914e+00
	9.100000e+16
	1.277524e+17
	4.066043e+16
	1.289530e+03
	-5.976145e+03
	5.061408e-03
	-4.608254e+03
	-1.367891e+03
	-5.976140e+03
	4.525784e+21
	8.671467e+02
	4.435317e+02
20	1.000000e-06
	4.330746e-01
	1.825143e-01
	-4.179875e+00
	3.273747e-02
	8.355060e-01
	9.941323e-01
	-9.000000e+15
	6.116079e+16
	6.631924e+16
	1.315232e+03
	-5.976145e+03
	5.110151e-03
	-4.608428e+03
	-1.367718e+03
	-5.976140e+03
	1.797850e+21
	1.099026e+03
	4.746246e+02
21	1.050000e-06
	4.339253e-01
	1.208957e-02
	-4.179024e+00
	3.466572e-02
	8.368041e-01
	9.949830e-01
	-9.000000e+15
	5.866508e+16
	6.747650e+16
	-2.430563e+02
	-5.976141e+03
	3.020086e-04
	-4.608606e+03
	-1.367534e+03
	-5.976140e+03
	1.746866e+21
	1.245212e+03
	4.915960e+02
22	1.100000e-06
	4.355051e-01
	-1.235357e-01
	-4.177444e+00
	3.665141e-02
	8.380991e-01
	9.965629e-01
	-9.000000e+15
	5.775174e+16
	6.673727e+16
	-3.215667e+02
	-5.976140e+03
	-2.452852e-04
	-4.608792e+03
	-1.367348e+03
	-5.976140e+03
	1.719848e+21
	1.245212e+03
	4.915960e+02
23	1.150000e-06
	4.371409e-01
	-2.243669e-01
	-4.175808e+00
	3.866773e-02
	8.394093e-01
	9.981987e-01
	-9.000000e+15
	5.690834e+16
	6.590249e+16
	-3.294248e+02
	-5.976140e+03
	-3.383207e-04
	-4.608983e+03
	-1.367157e+03
	-5.976140e+03
	1.693922e+21
	1.245212e+03
	4.915960e+02
24	1.200000e-06
	4.387994e-01
	-2.906612e-01
	-4.174150e+00
	4.071435e-02
	8.407361e-01
	9.998571e-01
	-9.000000e+15
	5.606060e+16
	6.506298e+16
	-3.307697e+02
	-5.976140e+03
	-3.823755e-04
	-4.609179e+03
	-1.366961e+03
	-5.976140e+03
	1.667926e+21
	1.245212e+03
	4.915960e+02
25	1.250000e-06
	4.404486e-01
	-3.255617e-01
	-4.172501e+00
	4.279366e-02
	8.420792e-01
	1.001999e+00
	-9.000000e+15
	5.513618e+16
	6.429734e+16
	-2.675386e+02
	-5.295141e+03
	-1.021545e-03
	-4.609381e+03
	-6.857596e+02
	-5.295142e+03
	1.640644e+21
	1.245212e+03
	4.915960e+02
26	1.300000e-06
	4.414748e-01
	-3.387915e-01
	-4.171474e+00
	4.493475e-02
	8.420839e-01
	1.002532e+00
	-9.000000e+15
	5.280986e+16
	6.180757e+16
	-2.061112e+02
	-4.614142e+03
	-1.667479e-03
	-4.609585e+03
	-4.556695e+00
	-4.614144e+03
	1.568594e+21
	1.245212e+03
	4.915960e+02
27	1.350000e-06
	4.425097e-01
	-3.391181e-01
	-4.170439e+00
	4.717407e-02
	8.420886e-01
	1.003567e+00
	-9.000000e+15
	5.040720e+16
	5.939383e+16
	-2.121638e+02
	-4.614142e+03
	-1.743398e-03
	-4.609786e+03
	-4.355538e+00
	-4.614144e+03
	1.495714e+21
	1.245212e+03
	4.915960e+02
28	1.400000e-06
	4.435964e-01
	-3.268197e-01
	-4.169353e+00
	4.952287e-02
	8.420932e-01
	1.004654e+00
	-9.000000e+15
	4.800642e+16
	5.696039e+16
	-2.351282e+02
	-4.614142e+03
	-1.969675e-03
	-4.609985e+03
	-4.156436e+00
	-4.614144e+03
	1.423230e+21
	1.245212e+03
	4.915960e+02
29	1.450000e-06
	4.448610e-01
	-2.935050e-01
	-4.168088e+00
	5.198654e-02
	8.420979e-01
	1.005919e+00
	-9.000000e+15
	4.583169e+16
	5.425204e+16
	-4.770531e+02
	-4.614140e+03
	-3.196524e-03
	-4.610182e+03
	-3.958743e+00
	-4.614144e+03
	1.354880e+21
	1.265790e+03
	4.934827e+02
30	1.500000e-06
	4.483669e-01
	-2.291924e-01
	-4.164582e+00
	5.439292e-02
	8.421027e-01
	1.009594e+00
	1.000000e+15
	4.751005e+16
	4.707449e+16
	-4.829365e+02
	-4.614140e+03
	-3.295373e-03
	-4.610376e+03
	-3.763883e+00
	-4.614144e+03
	1.224725e+21
	1.308541e+03
	4.972949e+02
31	1.550000e-06
	4.496904e-01
	-1.690606e-01
	-4.163259e+00
	5.671392e-02
	8.421077e-01
	1.010917e+00
	1.000000e+15
	4.571255e+16
	4.473494e+16
	-2.560350e+02
	-4.614141e+03
	-2.270996e-03
	-4.610569e+03
	-3.572199e+00
	-4.614144e+03
	1.172389e+21
	1.330714e+03
	4.992203e+02
32	1.600000e-06
	4.509273e-01
	-1.128261e-01
	-4.162022e+00
	5.913470e-02
	8.421127e-01
	1.012154e+00
	1.000000e+15
	4.366730e+16
	4.265417e+16
	-2.524573e+02
	-4.614141e+03
	-2.263523e-03
	-4.610759e+03
	-3.382496e+00
	-4.614144e+03
	1.117325e+21
	1.330714e+03
	4.992203e+02
33	1.650000e-06
	4.522150e-01
	-6.046175e-02
	-4.160734e+00
	6.167224e-02
	8.421177e-01
	1.013442e+00
	1.000000e+15
	4.160730e+16
	4.059033e+16
	-2.641018e+02
	-4.614141e+03
	-2.411906e-03
	-4.610946e+03
	-3.195183e+00
	-4.614144e+03
	1.062383e+21
	1.330714e+03
	4.992203e+02
34	1.700000e-06
	4.535683e-01
	-1.196441e-02
	-4.159381e+00
	6.433887e-02
	8.421226e-01
	1.014795e+00
	1.000000e+15
	3.954736e+16
	3.852837e+16
	-2.780099e+02
	-4.614141e+03
	-2.598787e-03
	-4.611131e+03
	-3.010321e+00
	-4.614144e+03
	1.007730e+21
	1.330714e+03
	4.992203e+02
35	1.750000e-06
	4.549951e-01
	3.266628e-02
	-4.157954e+00
	6.714838e-02
	8.421274e-01
	1.016222e+00
	1.000000e+15
	3.748861e+16
	3.646743e+16
	-2.935426e+02
	-4.614141e+03
	-2.816064e-03
	-4.611313e+03
	-2.827925e+00
	-4.614144e+03
	9.533696e+20
	1.330714e+03
	4.992203e+02
36	1.800000e-06
	4.565037e-01
	7.343052e-02
	-4.156445e+00
	7.011685e-02
	8.421323e-01
	1.017731e+00
	1.000000e+15
	3.543132e+16
	3.440756e+16
	-3.109174e+02
	-4.614141e+03
	-3.068635e-03
	-4.611493e+03
	-2.648005e+00
	-4.614144e+03
	8.992914e+20
	1.330714e+03
	4.992203e+02
37	1.850000e-06
	4.581042e-01
	1.103289e-01
	-4.154845e+00
	7.326318e-02
	8.421371e-01
	1.019331e+00
	1.000000e+15
	3.337574e+16
	3.234892e+16
	-3.304762e+02
	-4.614140e+03
	-3.364524e-03
	-4.611670e+03
	-2.470573e+00
	-4.614144e+03
	8.454874e+20
	1.330714e+03
	4.992203e+02
38	1.900000e-06
	4.598085e-01
	1.433639e-01
	-4.153141e+00
	7.660986e-02
	8.421418e-01
	1.021036e+00
	1.000000e+15
	3.132220e+16
	3.029166e+16
	-3.526574e+02
	-4.614140e+03
	-3.714590e-03
	-4.611844e+03
	-2.295641e+00
	-4.614144e+03
	7.919502e+20
	1.330714e+03
	4.992203e+02
39	1.950000e-06
	4.616308e-01
	1.725436e-01
	-4.151318e+00
	8.018390e-02
	8.421466e-01
	1.022858e+00
	1.000000e+15
	2.927108e+16
	2.823600e+16
	-3.780265e+02
	-4.614140e+03
	-4.133574e-03
	-4.612016e+03
	-2.123223e+00
	-4.614144e+03
	7.386741e+20
	1.330714e+03
	4.992203e+02
40	2.000000e-06
	4.635887e-01
	1.978920e-01
	-4.149360e+00
	8.401809e-02
	8.421513e-01
	1.024816e+00
	1.000000e+15
	2.722287e+16
	2.618217e+16
	-4.073245e+02
	-4.614139e+03
	-4.641872e-03
	-4.612186e+03
	-1.953335e+00
	-4.614144e+03
	6.856552e+20
	1.330714e+03
	4.992203e+02
41	2.050000e-06
	4.657041e-01
	2.194673e-01
	-4.147245e+00
	8.815282e-02
	8.421559e-01
	1.026931e+00
	1.000000e+15
	2.517822e+16
	2.413043e+16
	-4.415426e+02
	-4.614139e+03
	-5.268394e-03
	-4.612353e+03
	-1.785999e+00
	-4.614144e+03
	6.328929e+20
	1.330714e+03
	4.992203e+02
42	2.100000e-06
	4.680042e-01
	2.373919e-01
	-4.144945e+00
	9.263851e-02
	8.421605e-01
	1.029231e+00
	1.000000e+15
	2.313803e+16
	2.208109e+16
	-4.820395e+02
	-4.614138e+03
	-6.055378e-03
	-4.612517e+03
	-1.621235e+00
	-4.614144e+03
	5.803905e+20
	1.330714e+03
	4.992203e+02
43	2.150000e-06
	4.705244e-01
	2.518812e-01
	-4.142425e+00
	9.753928e-02
	8.421651e-01
	1.031751e+00
	1.000000e+15
	2.110351e+16
	2.003451e+16
	-5.307324e+02
	-4.614137e+03
	-7.067023e-03
	-4.612678e+03
	-1.459068e+00
	-4.614144e+03
	5.281578e+20
	1.330714e+03
	4.992203e+02
44	2.200000e-06
	4.733115e-01
	2.632593e-01
	-4.139638e+00
	1.029382e-01
	8.421697e-01
	1.034539e+00
	1.000000e+15
	1.907646e+16
	1.799107e+16
	-5.904258e+02
	-4.614136e+03
	-8.406166e-03
	-4.612836e+03
	-1.299524e+00
	-4.614144e+03
	4.762143e+20
	1.330714e+03
	4.992203e+02
45	2.250000e-06
	4.764287e-01
	2.719437e-01
	-4.136520e+00
	1.089454e-01
	8.421742e-01
	1.037656e+00
	1.000000e+15
	1.705967e+16
	1.595110e+16
	-6.654209e+02
	-4.614134e+03
	-1.024905e-02
	-4.612991e+03
	-1.142617e+00
	-4.614144e+03
	4.245960e+20
	1.330714e+03
	4.992203e+02
46	2.300000e-06
	4.799657e-01
	2.784023e-01
	-4.132983e+00
	1.157107e-01
	8.421787e-01
	1.041193e+00
	1.000000e+15
	1.505785e+16
	1.391474e+16
	-7.627317e+02
	-4.614131e+03
	-1.292287e-02
	-4.613143e+03
	-9.883481e-01
	-4.614144e+03
	3.733687e+20
	1.330714e+03
	4.992203e+02
47	2.350000e-06
	4.840560e-01
	2.831006e-01
	-4.128893e+00
	1.234439e-01
	8.421832e-01
	1.045283e+00
	1.000000e+15
	1.307961e+16
	1.188142e+16
	-8.946966e+02
	-4.614127e+03
	-1.708106e-02
	-4.613291e+03
	-8.366726e-01
	-4.614144e+03
	3.226574e+20
	1.330714e+03
	4.992203e+02
48	2.400000e-06
	4.889127e-01
	2.864581e-01
	-4.124036e+00
	1.324471e-01
	8.421876e-01
	1.050140e+00
	1.000000e+15
	1.114214e+16
	9.849027e+15
	-1.084664e+03
	-4.614120e+03
	-2.406361e-02
	-4.613433e+03
	-6.874750e-01
	-4.614144e+03
	2.727075e+20
	1.330714e+03
	4.992203e+02
49	2.450000e-06
	4.949027e-01
	2.888249e-01
	-4.118046e+00
	1.431660e-01
	8.421921e-01
	1.056130e+00
	1.000000e+15
	9.280320e+15
	7.814259e+15
	-1.378206e+03
	-4.614108e+03
	-3.641802e-02
	-4.613568e+03
	-5.406526e-01
	-4.614145e+03
	2.239976e+20
	1.330714e+03
	4.992203e+02
50	2.500000e-06
	5.026947e-01
	2.904766e-01
	-4.110254e+00
	1.562616e-01
	8.421965e-01
	1.063922e+00
	1.000000e+15
	7.559799e+15
	5.782606e+15
	-1.858922e+03
	-4.614087e+03
	-5.784952e-02
	-4.613690e+03
	-3.968926e-01
	-4.614145e+03
	1.773452e+20
	1.330714e+03
	4.992203e+02
51	2.550000e-06
	5.134919e-01
	2.916210e-01
	-4.099457e+00
	1.726890e-01
	8.422011e-01
	1.074719e+00
	1.000000e+15
	6.080935e+15
	3.809792e+15
	-2.650931e+03
	-4.614055e+03
	-9.041195e-02
	-4.613794e+03
	-2.603745e-01
	-4.614145e+03
	1.336608e+20
	1.330714e+03
	4.992203e+02
52	2.600000e-06
	5.292040e-01
	2.924102e-01
	-4.083745e+00
	1.937501e-01
	8.422058e-01
	1.090431e+00
	1.000000e+15
	4.944875e+15
	2.075643e+15
	-3.865189e+03
	-4.614017e+03
	-1.280169e-01
	-4.613874e+03
	-1.427050e-01
	-4.614145e+03
	9.280156e+19
	1.330714e+03
	4.992203e+02
53	2.650000e-06
	5.521438e-01
	2.929529e-01
	-4.060805e+00
	2.210393e-01
	8.422109e-01
	1.113371e+00
	1.000000e+15
	4.179466e+15
	8.551623e+14
	-5.486661e+03
	-4.613989e+03
	-1.550175e-01
	-4.613929e+03
	-5.993413e-02
	-4.614144e+03
	5.352204e+19
	1.330714e+03
	4.992203e+02
54	2.700000e-06
	5.840707e-01
	2.933258e-01
	-4.028878e+00
	2.560557e-01
	8.422161e-01
	1.145298e+00
	1.000000e+15
	3.708894e+15
	2.489098e+14
	-7.336553e+03
	-4.613982e+03
	-1.598860e-01
	-4.613964e+03
	-1.795873e-02
	-4.614142e+03
	2.092705e+19
	1.330714e+03
	4.992203e+02
55	2.750000e-06
	6.255093e-01
	2.935827e-01
	-3.987440e+00
	2.995796e-01
	8.422218e-01
	1.186736e+00
	1.000000e+15
	3.421605e+15
	5.015639e+13
	-9.204674e+03
	-4.613991e+03
	-1.484678e-01
	-4.613986e+03
	-4.438214e-03
	-4.614139e+03
	4.852452e+18
	1.330714e+03
	4.992203e+02
56	2.800000e-06
	6.761174e-01
	2.937611e-01
	-3.936832e+00
	3.516285e-01
	8.422345e-01
	1.237344e+00
	1.000000e+15
	3.236206e+15
	7.091884e+12
	-1.098353e+04
	-4.614002e+03
	-1.347991e-01
	-4.614001e+03
	-1.049552e-03
	-4.614137e+03
	7.116062e+17
	1.330714e+03
	4.992203e+02
57	2.850000e-06
	7.353446e-01
	2.938870e-01
	-3.877605e+00
	4.119035e-01
	8.422284e-01
	1.296572e+00
	1.000000e+15
	3.107722e+15
	7.180505e+11
	-1.266013e+04
	-4.614014e+03
	-1.224181e-01
	-4.614014e+03
	3.218255e-04
	-4.614136e+03
	7.247320e+16
	1.330714e+03
	4.992203e+02
58	2.900000e-06
	8.027187e-01
	2.939791e-01
	-3.810230e+00
	4.801047e-01
	8.418451e-01
	1.363946e+00
	1.000000e+15
	3.009918e+15
	5.228971e+10
	-1.425196e+04
	-4.614025e+03
	-1.114047e-01
	-4.614025e+03
	2.076804e-04
	-4.614136e+03
	5.281006e+15
	1.330714e+03
	4.992203e+02
59	2.950000e-06
	8.778642e-01
	2.940512e-01
	-3.735085e+00
	5.565162e-01
	8.433068e-01
	1.439091e+00
	1.000000e+15
	2.866129e+15
	3.028077e+09
	-1.575065e+04
	-4.614031e+03
	-1.071114e-01
	-4.614031e+03
	-1.327320e-05
	-4.614138e+03
	3.058314e+14
	1.330714e+03
	4.992203e+02
60	3.000000e-06
	9.602252e-01
	2.941139e-01
	-3.652724e+00
	6.661113e-01
	6.661113e-01
	1.521452e+00
	1.000000e+15
	1.000000e+15
	1.326979e+05
	0.000000e+00
	-4.614032e+03
	-1.072907e-01
	-4.614032e+03
	9.042417e-05
	-4.614139e+03
	0.000000e+00
	1.330714e+03
	4.992203e+02
