Title: Device d1 external state
Plotname: Device Operating Point
Command: deftype v conductance S
Flags: real
No. Variables: 5
No. Points: 1
Variables:
	0	time	unknown
	1	v12 	voltage
	2	i1 	current
	3	i2 	current
	4	g11 	conductance
Values:
0	 6.607259e-08
	-5.155836e+01
	 2.910707e-05
	-2.910707e-05
	 3.413078e-03
Title: Device d1 (numd2) internal state
Plotname: Device Cross Section
Flags: real
Command: deftype p xs cross
Command: deftype v distance m
Command: deftype v concentration cm^-3
Command: deftype v electric_field V/cm
Command: deftype v current_density A/cm^2
Command: deftype v concentration/time cm^-3/s
Command: deftype v mobility cm^2/Vs
No. Variables: 14
No. Points: 442
Dimensions: 13,34
Variables:
	0	y	distance
	1	x	distance
	2	psi	voltage
	3	dop	concentration
	4	n	concentration
	5	p	concentration
	6	ex	electric_field
	7	ey	electric_field
	8	jdx	current_density
	9	jdy	current_density
	10	jnx	current_density
	11	jny	current_density
	12	jpx	current_density
	13	jpy	current_density
Values:
0	0.000000e+00
	0.000000e+00
	-2.653663e-01
	1.000000e+14
	9.890996e+03
	3.270262e+14
	0.000000e+00
	0.000000e+00
	0.000000e+00
	0.000000e+00
	0.000000e+00
	0.000000e+00
	0.000000e+00
	0.000000e+00
1	5.000000e-07
	0.000000e+00
	-2.647536e-01
	1.000000e+14
	9.134072e+03
	3.193697e+14
	0.000000e+00
	-2.679238e+01
	0.000000e+00
	-6.161353e-07
	0.000000e+00
	-1.089040e-10
	0.000000e+00
	1.054240e-06
2	1.000000e-06
	0.000000e+00
	-2.626871e-01
	1.000000e+14
	7.156915e+03
	2.948454e+14
	0.000000e+00
	-8.462784e+01
	0.000000e+00
	-2.588775e-06
	0.000000e+00
	-2.914606e-10
	0.000000e+00
	5.864996e-06
3	1.500000e-06
	0.000000e+00
	-2.562908e-01
	1.000000e+14
	4.214251e+03
	2.302453e+14
	0.000000e+00
	-4.447021e+02
	0.000000e+00
	3.638113e-06
	0.000000e+00
	-4.837410e-10
	0.000000e+00
	2.796474e-05
4	2.000000e-06
	0.000000e+00
	-2.182169e-01
	1.000000e+14
	2.338851e+03
	5.282889e+13
	0.000000e+00
	-2.680864e+03
	0.000000e+00
	1.517415e-04
	0.000000e+00
	-7.767889e-10
	0.000000e+00
	6.563695e-05
5	2.500000e-06
	0.000000e+00
	1.179559e-02
	1.000000e+14
	1.118990e+06
	7.263698e+09
	0.000000e+00
	-1.049021e+04
	0.000000e+00
	1.367806e-03
	0.000000e+00
	-1.967924e-09
	0.000000e+00
	-2.472709e-06
6	3.000000e-06
	0.000000e+00
	8.308043e-01
	1.000000e+14
	4.460690e+06
	1.203922e+07
	0.000000e+00
	-2.715600e+04
	0.000000e+00
	4.928269e-03
	0.000000e+00
	-2.093503e-06
	0.000000e+00
	-8.271108e-06
7	3.500000e-06
	0.000000e+00
	2.727395e+00
	1.000000e+14
	7.456388e+06
	2.359198e+07
	0.000000e+00
	-4.269197e+04
	0.000000e+00
	1.174441e-02
	0.000000e+00
	-9.516990e-06
	0.000000e+00
	-2.307091e-05
8	4.000000e-06
	0.000000e+00
	5.100001e+00
	1.000000e+14
	8.188746e+06
	3.611265e+07
	0.000000e+00
	-4.868473e+04
	0.000000e+00
	1.392801e-02
	0.000000e+00
	-1.610993e-05
	0.000000e+00
	-3.775262e-05
9	4.400000e-06
	0.000000e+00
	7.086834e+00
	1.000000e+14
	8.309079e+06
	4.097595e+07
	0.000000e+00
	-4.979783e+04
	0.000000e+00
	1.443255e-02
	0.000000e+00
	-1.772720e-05
	0.000000e+00
	-4.336954e-05
10	4.800000e-06
	0.000000e+00
	9.083828e+00
	1.000000e+14
	8.403708e+06
	4.166617e+07
	0.000000e+00
	-4.975443e+04
	0.000000e+00
	1.456942e-02
	0.000000e+00
	-1.799147e-05
	0.000000e+00
	-4.415984e-05
11	5.200000e-06
	0.000000e+00
	1.106719e+01
	1.000000e+14
	8.620147e+06
	4.080988e+07
	0.000000e+00
	-4.931782e+04
	0.000000e+00
	1.461093e-02
	0.000000e+00
	-1.819124e-05
	0.000000e+00
	-4.317366e-05
12	5.600000e-06
	0.000000e+00
	1.302925e+01
	1.000000e+14
	8.967765e+06
	3.943432e+07
	0.000000e+00
	-4.875555e+04
	0.000000e+00
	1.462353e-02
	0.000000e+00
	-1.865131e-05
	0.000000e+00
	-4.159818e-05
13	6.000000e-06
	0.000000e+00
	1.496763e+01
	1.000000e+14
	9.422088e+06
	3.789347e+07
	0.000000e+00
	-4.815420e+04
	0.000000e+00
	1.462737e-02
	0.000000e+00
	-1.939335e-05
	0.000000e+00
	-3.984208e-05
14	6.400000e-06
	0.000000e+00
	1.688159e+01
	1.000000e+14
	9.957083e+06
	3.629707e+07
	0.000000e+00
	-4.754084e+04
	0.000000e+00
	1.462854e-02
	0.000000e+00
	-2.036452e-05
	0.000000e+00
	-3.803215e-05
15	6.800000e-06
	0.000000e+00
	1.877090e+01
	1.000000e+14
	1.055230e+07
	3.467777e+07
	0.000000e+00
	-4.692379e+04
	0.000000e+00
	1.462889e-02
	0.000000e+00
	-2.150829e-05
	0.000000e+00
	-3.620633e-05
16	7.200000e-06
	0.000000e+00
	2.063549e+01
	1.000000e+14
	1.119296e+07
	3.304496e+07
	0.000000e+00
	-4.630563e+04
	0.000000e+00
	1.462900e-02
	0.000000e+00
	-2.278018e-05
	0.000000e+00
	-3.437581e-05
17	7.600000e-06
	0.000000e+00
	2.247535e+01
	1.000000e+14
	1.186864e+07
	3.140111e+07
	0.000000e+00
	-4.568712e+04
	0.000000e+00
	1.462903e-02
	0.000000e+00
	-2.414798e-05
	0.000000e+00
	-3.254387e-05
18	8.000000e-06
	0.000000e+00
	2.429046e+01
	1.000000e+14
	1.257194e+07
	2.974667e+07
	0.000000e+00
	-4.506851e+04
	0.000000e+00
	1.462904e-02
	0.000000e+00
	-2.558888e-05
	0.000000e+00
	-3.071146e-05
19	8.400000e-06
	0.000000e+00
	2.608083e+01
	1.000000e+14
	1.329761e+07
	2.808145e+07
	0.000000e+00
	-4.444987e+04
	0.000000e+00
	1.462905e-02
	0.000000e+00
	-2.708670e-05
	0.000000e+00
	-2.887887e-05
20	8.800000e-06
	0.000000e+00
	2.784645e+01
	1.000000e+14
	1.404180e+07
	2.640508e+07
	0.000000e+00
	-4.383122e+04
	0.000000e+00
	1.462905e-02
	0.000000e+00
	-2.862980e-05
	0.000000e+00
	-2.704617e-05
21	9.200000e-06
	0.000000e+00
	2.958733e+01
	1.000000e+14
	1.480168e+07
	2.471710e+07
	0.000000e+00
	-4.321257e+04
	0.000000e+00
	1.462905e-02
	0.000000e+00
	-3.020964e-05
	0.000000e+00
	-2.521340e-05
22	9.600000e-06
	0.000000e+00
	3.130346e+01
	1.000000e+14
	1.557511e+07
	2.301703e+07
	0.000000e+00
	-4.259391e+04
	0.000000e+00
	1.462905e-02
	0.000000e+00
	-3.181987e-05
	0.000000e+00
	-2.338055e-05
23	1.000000e-05
	0.000000e+00
	3.299484e+01
	1.000000e+14
	1.696113e+07
	2.130433e+07
	0.000000e+00
	-4.197526e+04
	0.000000e+00
	1.462905e-02
	0.000000e+00
	-3.345561e-05
	0.000000e+00
	-2.154763e-05
24	1.100000e-05
	0.000000e+00
	3.711503e+01
	1.000000e+14
	1.899445e+07
	1.827516e+07
	0.000000e+00
	-4.042862e+04
	0.000000e+00
	1.462905e-02
	0.000000e+00
	-3.637845e-05
	0.000000e+00
	-1.833997e-05
25	1.200000e-05
	0.000000e+00
	4.108056e+01
	1.000021e+14
	2.107517e+07
	1.387137e+07
	0.000000e+00
	-3.888196e+04
	0.000000e+00
	1.462905e-02
	0.000000e+00
	-4.064431e-05
	0.000000e+00
	-1.375742e-05
26	1.300000e-05
	0.000000e+00
	4.489143e+01
	1.006775e+14
	2.320079e+07
	9.367604e+06
	0.000000e+00
	-3.733006e+04
	0.000000e+00
	1.462905e-02
	0.000000e+00
	-4.497871e-05
	0.000000e+00
	-9.174403e-06
27	1.400000e-05
	0.000000e+00
	4.854658e+01
	1.995920e+14
	2.555036e+07
	4.751620e+06
	0.000000e+00
	-3.500802e+04
	0.000000e+00
	1.462905e-02
	0.000000e+00
	-4.936606e-05
	0.000000e+00
	-4.590863e-06
28	1.500000e-05
	0.000000e+00
	5.189303e+01
	6.893605e+15
	4.793119e+15
	2.840055e+01
	0.000000e+00
	-1.722106e+04
	0.000000e+00
	1.462905e-02
	0.000000e+00
	-5.380293e-05
	0.000000e+00
	-2.662112e-11
29	1.600000e-05
	0.000000e+00
	5.199079e+01
	2.151523e+17
	2.151250e+17
	4.238158e+01
	0.000000e+00
	-7.658844e+02
	0.000000e+00
	-4.977953e-05
	0.000000e+00
	1.458305e-02
	0.000000e+00
	-2.980154e-12
30	1.700000e-05
	0.000000e+00
	5.204621e+01
	3.159147e+18
	3.159129e+18
	8.411968e+01
	0.000000e+00
	-4.137333e+02
	0.000000e+00
	-5.937127e-09
	0.000000e+00
	1.455352e-02
	0.000000e+00
	-1.455199e-12
31	1.800000e-05
	0.000000e+00
	5.207354e+01
	2.153466e+19
	2.153465e+19
	1.063321e+02
	0.000000e+00
	-2.171189e+02
	0.000000e+00
	-2.259468e-10
	0.000000e+00
	1.455351e-02
	0.000000e+00
	-2.390471e-13
32	1.900000e-05
	0.000000e+00
	5.208963e+01
	6.812157e+19
	6.812156e+19
	9.809552e+01
	0.000000e+00
	-1.072354e+02
	0.000000e+00
	-5.304913e-11
	0.000000e+00
	1.455354e-02
	0.000000e+00
	-6.937571e-15
33	2.000000e-05
	0.000000e+00
	5.209498e+01
	1.000001e+20
	1.000001e+20
	9.521644e+01
	-0.000000e+00
	-5.351207e+01
	-0.000000e+00
	-2.201542e-11
	0.000000e+00
	1.455351e-02
	0.000000e+00
	-6.633103e-17
34	0.000000e+00
	2.000000e-07
	-2.786735e-01
	9.999955e+13
	5.947372e+03
	5.470508e+14
	1.672762e+03
	0.000000e+00
	4.782860e-07
	0.000000e+00
	2.066103e-11
	0.000000e+00
	-9.993985e-07
	0.000000e+00
35	5.000000e-07
	2.000000e-07
	-2.778421e-01
	9.999964e+13
	5.518997e+03
	5.297469e+14
	1.635474e+03
	-3.426336e+01
	1.201498e-06
	-1.351391e-06
	6.943406e-12
	-1.229128e-10
	-2.421106e-06
	3.554492e-06
36	1.000000e-06
	2.000000e-07
	-2.752471e-01
	9.999981e+13
	4.413492e+03
	4.791756e+14
	1.538225e+03
	-8.801739e+01
	3.735720e-06
	-1.513861e-06
	5.054721e-12
	-2.359983e-10
	-1.563694e-05
	1.690376e-05
37	1.500000e-06
	2.000000e-07
	-2.690404e-01
	9.999994e+13
	2.612156e+03
	3.769420e+14
	1.473275e+03
	-3.694776e+02
	-6.741859e-06
	4.288295e-05
	1.209761e-11
	-3.602342e-10
	-7.574639e-05
	5.721655e-05
38	2.000000e-06
	2.000000e-07
	-2.382994e-01
	9.999999e+13
	1.175719e+03
	1.148383e+14
	2.012966e+03
	-2.306228e+03
	-2.550882e-04
	6.192727e-04
	3.148282e-11
	-6.346331e-10
	-1.506239e-04
	4.202262e-05
39	2.500000e-06
	2.000000e-07
	-3.841761e-02
	1.000000e+14
	2.750615e+05
	5.056872e+10
	4.985563e+03
	-9.798038e+03
	-1.414777e-03
	2.909890e-03
	2.813023e-08
	-2.540519e-07
	2.869292e-06
	-6.360326e-06
40	3.000000e-06
	2.000000e-07
	7.415044e-01
	1.000000e+14
	1.272552e+06
	1.542764e+07
	9.278835e+03
	-2.724639e+04
	-2.852674e-03
	8.391402e-03
	1.009824e-06
	-1.613432e-06
	6.967473e-06
	-1.805347e-05
41	3.500000e-06
	2.000000e-07
	2.686221e+00
	1.000000e+14
	3.100995e+06
	2.615123e+07
	4.037824e+03
	-4.345542e+04
	-8.252860e-04
	1.308643e-02
	1.198550e-06
	-4.711503e-06
	6.551137e-06
	-3.252398e-05
42	4.000000e-06
	2.000000e-07
	5.087047e+00
	1.000000e+14
	4.681739e+06
	3.744174e+07
	1.217724e+03
	-4.905489e+04
	-2.040420e-04
	1.428766e-02
	2.061294e-07
	-8.610926e-06
	3.217033e-06
	-4.190043e-05
43	4.400000e-06
	2.000000e-07
	7.082470e+00
	1.000000e+14
	5.717572e+06
	4.152926e+07
	4.012385e+02
	-4.994240e+04
	-6.167768e-05
	1.452642e-02
	-2.890151e-07
	-1.125892e-05
	1.207986e-06
	-4.419427e-05
44	4.800000e-06
	2.000000e-07
	9.082439e+00
	1.000000e+14
	6.530793e+06
	4.186020e+07
	1.263061e+02
	-4.980358e+04
	-1.867652e-05
	1.459794e-02
	-4.269938e-07
	-1.325909e-05
	3.847416e-07
	-4.381351e-05
45	5.200000e-06
	2.000000e-07
	1.106676e+01
	1.000000e+14
	7.250308e+06
	4.087116e+07
	3.901710e+01
	-4.933352e+04
	-5.673849e-06
	1.461958e-02
	-4.134740e-07
	-1.491239e-05
	1.160384e-07
	-4.243179e-05
46	5.600000e-06
	2.000000e-07
	1.302912e+01
	1.000000e+14
	7.941180e+06
	3.945294e+07
	1.195999e+01
	-4.876044e+04
	-1.727036e-06
	1.462617e-02
	-3.591181e-07
	-1.643042e-05
	3.429952e-08
	-4.073403e-05
47	6.000000e-06
	2.000000e-07
	1.496759e+01
	1.000000e+14
	8.631269e+06
	3.789911e+07
	3.654544e+00
	-4.815570e+04
	-5.261715e-07
	1.462817e-02
	-3.028433e-07
	-1.791431e-05
	1.004161e-08
	-3.894135e-05
48	6.400000e-06
	2.000000e-07
	1.688158e+01
	1.000000e+14
	9.331415e+06
	3.629885e+07
	1.115247e+00
	-4.754129e+04
	-1.603760e-07
	1.462878e-02
	-2.548421e-07
	-1.940604e-05
	2.913317e-09
	-3.712060e-05
49	6.800000e-06
	2.000000e-07
	1.877090e+01
	1.000000e+14
	1.004523e+07
	3.467840e+07
	3.401532e-01
	-4.692393e+04
	-4.888470e-08
	1.462897e-02
	-2.160452e-07
	-2.092116e-05
	8.300731e-10
	-3.529157e-05
50	7.200000e-06
	2.000000e-07
	2.063549e+01
	1.000000e+14
	1.077334e+07
	3.304523e+07
	1.037228e-01
	-4.630567e+04
	-1.490183e-08
	1.462902e-02
	-1.850002e-07
	-2.246410e-05
	2.245780e-10
	-3.346007e-05
51	7.600000e-06
	2.000000e-07
	2.247535e+01
	1.000000e+14
	1.151522e+07
	3.140127e+07
	3.162360e-02
	-4.568714e+04
	-4.542346e-09
	1.462904e-02
	-1.599952e-07
	-2.403479e-05
	5.033491e-11
	-3.162781e-05
52	8.000000e-06
	2.000000e-07
	2.429046e+01
	1.000000e+14
	1.226991e+07
	2.974679e+07
	9.639670e-03
	-4.506852e+04
	-1.385159e-09
	1.462905e-02
	-1.395983e-07
	-2.563142e-05
	1.460770e-12
	-2.979528e-05
53	8.400000e-06
	2.000000e-07
	2.608083e+01
	1.000000e+14
	1.303638e+07
	2.808154e+07
	2.936944e-03
	-4.444987e+04
	-4.147772e-10
	1.462905e-02
	-1.227208e-07
	-2.725165e-05
	-1.118264e-11
	-2.796261e-05
54	8.800000e-06
	2.000000e-07
	2.784645e+01
	1.000000e+14
	1.381366e+07
	2.640516e+07
	8.934197e-04
	-4.383122e+04
	-1.264526e-10
	1.462905e-02
	-1.085588e-07
	-2.889310e-05
	-1.348422e-11
	-2.612987e-05
55	9.200000e-06
	2.000000e-07
	2.958733e+01
	1.000000e+14
	1.460088e+07
	2.471717e+07
	2.702184e-04
	-4.321257e+04
	-4.087884e-11
	1.462905e-02
	-9.652250e-08
	-3.055352e-05
	-1.292696e-11
	-2.429704e-05
56	9.600000e-06
	2.000000e-07
	3.130346e+01
	1.000000e+14
	1.539726e+07
	2.301709e+07
	7.929826e-05
	-4.259391e+04
	-1.561122e-11
	1.462905e-02
	-8.617664e-08
	-3.223090e-05
	-1.165516e-11
	-2.246415e-05
57	1.000000e-05
	2.000000e-07
	3.299484e+01
	1.000000e+14
	1.681434e+07
	2.130439e+07
	1.771366e-05
	-4.197526e+04
	-1.844430e-11
	1.462905e-02
	-7.177893e-08
	-3.392788e-05
	-1.027275e-11
	-2.063121e-05
58	1.100000e-05
	2.000000e-07
	3.711503e+01
	1.000000e+14
	1.888019e+07
	1.827521e+07
	1.036987e-07
	-4.042862e+04
	1.106165e-11
	1.462905e-02
	-5.630321e-08
	-3.823171e-05
	-8.171516e-12
	-1.604873e-05
59	1.200000e-05
	2.000000e-07
	4.108056e+01
	1.000021e+14
	2.098547e+07
	1.387140e+07
	-1.100206e-06
	-3.888196e+04
	-9.067656e-12
	1.462905e-02
	-4.441904e-08
	-4.259354e-05
	-5.763788e-12
	-1.146593e-05
60	1.300000e-05
	2.000000e-07
	4.489143e+01
	1.006775e+14
	2.312998e+07
	9.367624e+06
	-9.728862e-07
	-3.733006e+04
	7.850139e-14
	1.462905e-02
	-3.516133e-08
	-4.700133e-05
	-3.676558e-12
	-6.882647e-06
61	1.400000e-05
	2.000000e-07
	4.854658e+01
	1.995920e+14
	2.549374e+07
	4.751629e+06
	-7.473561e-07
	-3.500802e+04
	6.136501e-12
	1.462905e-02
	-2.764647e-08
	-5.144955e-05
	-1.795966e-12
	-2.295450e-06
62	1.500000e-05
	2.000000e-07
	5.189303e+01
	6.893605e+15
	4.793119e+15
	2.840055e+01
	-1.049729e-07
	-1.722106e+04
	9.433978e-12
	7.289635e-03
	-8.349610e-08
	7.264695e-03
	-1.908230e-22
	-1.480064e-11
63	1.600000e-05
	2.000000e-07
	5.199079e+01
	2.151523e+17
	2.151250e+17
	4.238158e+01
	-1.078153e-09
	-7.658844e+02
	-4.738709e-12
	-2.489273e-05
	-1.759237e-08
	1.456830e-02
	-1.949028e-23
	-2.217676e-12
64	1.700000e-05
	2.000000e-07
	5.204621e+01
	3.159147e+18
	3.159129e+18
	8.411968e+01
	-0.000000e+00
	-4.137333e+02
	5.997935e-12
	-3.080415e-09
	-1.416816e-11
	1.455351e-02
	2.987563e-26
	-8.471232e-13
65	1.800000e-05
	2.000000e-07
	5.207354e+01
	2.153466e+19
	2.153465e+19
	1.063321e+02
	-0.000000e+00
	-2.171189e+02
	1.624550e-12
	-1.397416e-10
	7.403611e-11
	1.455353e-02
	-7.218088e-27
	-1.229923e-13
66	1.900000e-05
	2.000000e-07
	5.208963e+01
	6.812157e+19
	6.812156e+19
	9.809552e+01
	-0.000000e+00
	-1.072354e+02
	1.624550e-12
	-3.753227e-11
	2.705812e-10
	1.455353e-02
	3.304068e-28
	-3.501951e-15
67	2.000000e-05
	2.000000e-07
	5.209498e+01
	1.000001e+20
	1.000001e+20
	9.521644e+01
	-0.000000e+00
	-5.351207e+01
	-0.000000e+00
	-2.201542e-11
	0.000000e+00
	1.455351e-02
	0.000000e+00
	-6.633103e-17
68	0.000000e+00
	3.000000e-07
	-3.004381e-01
	9.746486e+13
	2.594671e+03
	1.269047e+15
	3.238559e+03
	0.000000e+00
	5.671033e-07
	0.000000e+00
	2.719345e-11
	0.000000e+00
	-1.672206e-06
	0.000000e+00
69	5.000000e-07
	3.000000e-07
	-2.991021e-01
	9.795720e+13
	2.436240e+03
	1.205163e+15
	3.138897e+03
	-5.257611e+01
	1.508281e-06
	-9.255417e-07
	8.831806e-12
	-5.599647e-11
	-3.365394e-06
	4.589267e-06
70	1.000000e-06
	3.000000e-07
	-2.951805e-01
	9.893121e+13
	2.049613e+03
	1.035618e+15
	2.877319e+03
	-1.114998e+02
	5.572429e-06
	-2.195732e-06
	6.655620e-12
	-1.090476e-10
	-2.265352e-05
	1.808702e-05
71	1.500000e-06
	3.000000e-07
	-2.879521e-01
	9.963692e+13
	1.272267e+03
	7.831180e+14
	2.608326e+03
	-3.170727e+02
	1.308167e-06
	1.276107e-05
	9.655708e-12
	-1.619640e-10
	-1.176519e-04
	6.952210e-05
72	2.000000e-06
	3.000000e-07
	-2.634732e-01
	9.991991e+13
	4.767886e+02
	3.039429e+14
	3.106394e+03
	-1.873044e+03
	-2.460580e-04
	4.431927e-04
	1.958590e-11
	-2.331673e-10
	-3.159390e-04
	5.481023e-05
73	2.500000e-06
	3.000000e-07
	-1.006478e-01
	9.998853e+13
	3.058123e+04
	5.607046e+11
	7.425710e+03
	-8.881201e+03
	-2.108556e-03
	2.579789e-03
	3.731773e-09
	-2.769080e-08
	3.151474e-06
	-5.787205e-06
74	3.000000e-06
	3.000000e-07
	6.246469e-01
	9.999893e+13
	6.116411e+05
	1.786356e+07
	1.433510e+04
	-2.736595e+04
	-4.430302e-03
	8.466061e-03
	8.978952e-07
	-6.825303e-07
	1.062265e-05
	-1.975209e-05
75	3.500000e-06
	3.000000e-07
	2.635947e+00
	9.999994e+13
	1.653884e+06
	2.811619e+07
	5.954251e+03
	-4.447373e+04
	-1.177687e-03
	1.342117e-02
	1.365269e-06
	-2.443709e-06
	9.640157e-06
	-3.441734e-05
76	4.000000e-06
	3.000000e-07
	5.072020e+00
	1.000000e+14
	3.114429e+06
	3.877213e+07
	1.737466e+03
	-4.950846e+04
	-2.837127e-04
	1.438031e-02
	4.813985e-07
	-5.337081e-06
	4.633175e-06
	-4.298390e-05
77	4.400000e-06
	3.000000e-07
	7.077543e+00
	1.000000e+14
	4.335088e+06
	4.213839e+07
	5.633088e+02
	-5.011090e+04
	-8.532475e-05
	1.455482e-02
	-1.361955e-07
	-8.066336e-06
	1.703373e-06
	-4.467133e-05
78	4.800000e-06
	3.000000e-07
	9.080891e+00
	1.000000e+14
	5.387170e+06
	4.207621e+07
	1.759370e+02
	-4.985921e+04
	-2.582975e-05
	1.460650e-02
	-3.812327e-07
	-1.052491e-05
	5.366878e-07
	-4.397705e-05
79	5.200000e-06
	3.000000e-07
	1.106628e+01
	1.000000e+14
	6.315635e+06
	4.093910e+07
	5.415794e+01
	-4.935104e+04
	-7.850373e-06
	1.462217e-02
	-4.273266e-07
	-1.266359e-05
	1.611316e-07
	-4.248262e-05
80	5.600000e-06
	3.000000e-07
	1.302897e+01
	1.000000e+14
	7.172482e+06
	3.947349e+07
	1.657623e+01
	-4.876584e+04
	-2.390313e-06
	1.462695e-02
	-4.007300e-07
	-1.458813e-05
	4.754558e-08
	-4.074935e-05
81	6.000000e-06
	3.000000e-07
	1.496755e+01
	1.000000e+14
	7.991578e+06
	3.790532e+07
	5.061922e+00
	-4.815736e+04
	-7.283797e-07
	1.462841e-02
	-3.554637e-07
	-1.639185e-05
	1.391144e-08
	-3.894599e-05
82	6.400000e-06
	3.000000e-07
	1.688156e+01
	1.000000e+14
	8.792294e+06
	3.630079e+07
	1.544331e+00
	-4.754180e+04
	-2.220203e-07
	1.462885e-02
	-3.103035e-07
	-1.813247e-05
	4.036009e-09
	-3.712208e-05
83	6.800000e-06
	3.000000e-07
	1.877089e+01
	1.000000e+14
	9.585420e+06
	3.467907e+07
	4.709741e-01
	-4.692409e+04
	-6.768015e-08
	1.462899e-02
	-2.704813e-07
	-1.984257e-05
	1.150571e-09
	-3.529211e-05
84	7.200000e-06
	3.000000e-07
	2.063549e+01
	1.000000e+14
	1.037699e+07
	3.304553e+07
	1.436077e-01
	-4.630572e+04
	-2.063082e-08
	1.462903e-02
	-2.366466e-07
	-2.154024e-05
	3.118099e-10
	-3.346033e-05
85	7.600000e-06
	3.000000e-07
	2.247535e+01
	1.000000e+14
	1.117041e+07
	3.140144e+07
	4.378318e-02
	-4.568715e+04
	-6.286352e-09
	1.462904e-02
	-2.081226e-07
	-2.323554e-05
	7.030048e-11
	-3.162797e-05
86	8.000000e-06
	3.000000e-07
	2.429046e+01
	1.000000e+14
	1.196759e+07
	2.974691e+07
	1.334615e-02
	-4.506852e+04
	-1.919847e-09
	1.462905e-02
	-1.839941e-07
	-2.493405e-05
	2.451755e-12
	-2.979540e-05
87	8.400000e-06
	3.000000e-07
	2.608083e+01
	1.000000e+14
	1.276958e+07
	2.808165e+07
	4.066222e-03
	-4.444988e+04
	-5.726057e-10
	1.462905e-02
	-1.634301e-07
	-2.663877e-05
	-1.518018e-11
	-2.796271e-05
88	8.800000e-06
	3.000000e-07
	2.784645e+01
	1.000000e+14
	1.357693e+07
	2.640525e+07
	1.236963e-03
	-4.383122e+04
	-1.863937e-10
	1.462905e-02
	-1.457527e-07
	-2.835123e-05
	-1.845638e-11
	-2.612995e-05
89	9.200000e-06
	3.000000e-07
	2.958733e+01
	1.000000e+14
	1.438988e+07
	2.471725e+07
	3.741377e-04
	-4.321257e+04
	-4.260104e-11
	1.462905e-02
	-1.304280e-07
	-3.007207e-05
	-1.774878e-11
	-2.429712e-05
90	9.600000e-06
	3.000000e-07
	3.130346e+01
	1.000000e+14
	1.520852e+07
	2.301716e+07
	1.098040e-04
	-4.259391e+04
	-2.426764e-11
	1.462905e-02
	-1.170404e-07
	-3.180140e-05
	-1.603416e-11
	-2.246421e-05
91	1.000000e-05
	3.000000e-07
	3.299484e+01
	1.000000e+14
	1.665680e+07
	2.130445e+07
	2.453455e-05
	-4.197526e+04
	-8.414485e-12
	1.462905e-02
	-9.805065e-08
	-3.354177e-05
	-1.415424e-11
	-2.063126e-05
92	1.100000e-05
	3.000000e-07
	3.711503e+01
	1.000000e+14
	1.875640e+07
	1.827526e+07
	1.487851e-07
	-4.042862e+04
	1.200393e-11
	1.462905e-02
	-7.728957e-08
	-3.793032e-05
	-1.127556e-11
	-1.604877e-05
93	1.200000e-05
	3.000000e-07
	4.108056e+01
	1.000021e+14
	2.088770e+07
	1.387143e+07
	-1.520490e-06
	-3.888196e+04
	7.464590e-13
	1.462905e-02
	-6.116658e-08
	-4.235676e-05
