Circuit: simple coupled transmissionlines

Doing analysis at TEMP = 27.000000 and TNOM = 27.000000

Warning: ves: no DC value, transient time 0 value used


No. of Data Rows : 217
                        simple coupled transmissionlines
                        Transient Analysis  Sun Feb 07 19:00:52  2010
--------------------------------------------------------------------------------
Index   time            v(v1)           v(v3)           
--------------------------------------------------------------------------------
0	0.000000e+00	0.000000e+00	0.000000e+00	
1	1.000000e-12	4.253641e-04	-1.99874e-15	
2	2.000000e-12	8.508862e-04	-3.99915e-15	
3	4.000000e-12	1.701772e-03	-7.99831e-15	
4	8.000000e-12	3.403562e-03	-1.59974e-14	
5	1.600000e-11	6.806254e-03	-3.19847e-14	
6	3.200000e-11	1.361164e-02	-6.39593e-14	
7	6.400000e-11	2.722330e-02	-1.27919e-13	
8	1.280000e-10	5.444661e-02	-2.55839e-13	
9	2.280000e-10	9.698304e-02	-4.55713e-13	
10	3.280000e-10	1.395193e-01	-6.55586e-13	
11	4.280000e-10	1.820555e-01	-8.55458e-13	
12	5.280000e-10	2.245917e-01	-1.05533e-12	
13	6.280000e-10	2.670837e-01	-1.25469e-12	
14	7.280000e-10	3.096200e-01	-1.45456e-12	
15	8.280000e-10	3.521562e-01	8.165704e-04	
16	9.280000e-10	3.946924e-01	3.741859e-02	
17	1.028000e-09	4.372287e-01	8.251621e-02	
18	1.128000e-09	4.798082e-01	1.281325e-01	
19	1.228000e-09	5.223445e-01	1.732303e-01	
20	1.328000e-09	5.648807e-01	2.185829e-01	
21	1.428000e-09	6.074169e-01	2.638859e-01	
22	1.500000e-09	6.380430e-01	2.959141e-01	
23	1.510000e-09	6.379982e-01	3.003551e-01	
24	1.530000e-09	6.379982e-01	3.093746e-01	
25	1.570000e-09	6.380102e-01	3.274134e-01	
26	1.650000e-09	6.380624e-01	3.634912e-01	
27	1.750000e-09	6.399480e-01	4.085892e-01	
28	1.850000e-09	6.419275e-01	4.538528e-01	
29	1.950000e-09	6.439479e-01	4.988394e-01	
30	2.050000e-09	6.459482e-01	5.439321e-01	
31	2.150000e-09	6.479620e-01	5.890298e-01	
32	2.250000e-09	6.499669e-01	6.341275e-01	
33	2.350000e-09	6.519641e-01	6.732024e-01	
34	2.450000e-09	6.539632e-01	6.765236e-01	
35	2.550000e-09	6.559478e-01	6.757760e-01	
36	2.650000e-09	6.579445e-01	6.751314e-01	
37	2.750000e-09	6.599443e-01	6.744503e-01	
38	2.850000e-09	6.619430e-01	6.737685e-01	
39	2.950000e-09	6.639423e-01	6.730791e-01	
40	3.050000e-09	6.659417e-01	6.723949e-01	
41	3.150000e-09	6.675632e-01	6.717128e-01	
42	3.250000e-09	6.679784e-01	6.710292e-01	
43	3.350000e-09	6.679316e-01	6.703519e-01	
44	3.450000e-09	6.678385e-01	6.696686e-01	
45	3.550000e-09	6.677413e-01	6.689855e-01	
46	3.650000e-09	6.676444e-01	6.683022e-01	
47	3.750000e-09	6.675474e-01	6.676192e-01	
48	3.850000e-09	6.674505e-01	6.669359e-01	
49	3.950000e-09	6.673540e-01	6.664076e-01	
50	4.050000e-09	6.672576e-01	6.663285e-01	
51	4.150000e-09	6.671616e-01	6.663320e-01	
52	4.250000e-09	6.670654e-01	6.663595e-01	
53	4.350000e-09	6.669690e-01	6.663923e-01	
54	4.450000e-09	6.668725e-01	6.664237e-01	

Index   time            v(v1)           v(v3)           
--------------------------------------------------------------------------------
55	4.550000e-09	6.667761e-01	6.664552e-01	
56	4.650000e-09	6.666796e-01	6.664868e-01	
57	4.750000e-09	6.665953e-01	6.665182e-01	
58	4.850000e-09	6.665554e-01	6.665496e-01	
59	4.950000e-09	6.665492e-01	6.665808e-01	
60	5.050000e-09	6.665528e-01	6.666121e-01	
61	5.150000e-09	6.665581e-01	6.666435e-01	
62	5.250000e-09	6.665636e-01	6.666749e-01	
63	5.350000e-09	6.665690e-01	6.667063e-01	
64	5.450000e-09	6.665745e-01	6.667378e-01	
65	5.550000e-09	6.665799e-01	6.667641e-01	
66	5.650000e-09	6.665854e-01	6.667731e-01	
67	5.750000e-09	6.665908e-01	6.667715e-01	
68	5.850000e-09	6.665962e-01	6.667688e-01	
69	5.950000e-09	6.666016e-01	6.667668e-01	
70	6.000000e-09	6.666043e-01	6.667659e-01	
71	6.010000e-09	6.623512e-01	6.667658e-01	
72	6.030000e-09	6.538053e-01	6.667654e-01	
73	6.070000e-09	6.368394e-01	6.667647e-01	
74	6.150000e-09	6.028150e-01	6.667633e-01	
75	6.250000e-09	5.602840e-01	6.667615e-01	
76	6.350000e-09	5.177528e-01	6.667597e-01	
77	6.450000e-09	4.752200e-01	6.667580e-01	
78	6.550000e-09	4.326850e-01	6.667562e-01	
79	6.650000e-09	3.901489e-01	6.667545e-01	
80	6.750000e-09	3.475691e-01	6.667527e-01	
81	6.850000e-09	3.050326e-01	6.603526e-01	
82	6.950000e-09	2.624960e-01	6.185044e-01	
83	7.050000e-09	2.199595e-01	5.734047e-01	
84	7.150000e-09	1.774230e-01	5.283054e-01	
85	7.250000e-09	1.348864e-01	4.832067e-01	
86	7.350000e-09	9.234988e-02	4.381088e-01	
87	7.450000e-09	4.981334e-02	3.932656e-01	
88	7.500000e-09	2.854517e-02	3.713293e-01	
89	7.510000e-09	2.858946e-02	3.669088e-01	
90	7.530000e-09	2.858939e-02	3.579076e-01	
91	7.570000e-09	2.858927e-02	3.398758e-01	
92	7.650000e-09	2.820347e-02	3.038038e-01	
93	7.750000e-09	2.662883e-02	2.587058e-01	
94	7.850000e-09	2.464179e-02	2.136082e-01	
95	7.950000e-09	2.264214e-02	1.685106e-01	
96	8.050000e-09	2.064256e-02	1.234130e-01	
97	8.150000e-09	1.864307e-02	7.831535e-02	
98	8.250000e-09	1.665465e-02	3.321773e-02	
99	8.350000e-09	1.466686e-02	-6.06555e-03	
100	8.450000e-09	1.266845e-02	-9.49006e-03	
101	8.550000e-09	1.066913e-02	-8.89781e-03	
102	8.650000e-09	8.669789e-03	-8.23487e-03	
103	8.750000e-09	6.670455e-03	-7.55819e-03	
104	8.850000e-09	4.671120e-03	-6.87489e-03	
105	8.950000e-09	2.671785e-03	-6.19163e-03	
106	9.050000e-09	6.724503e-04	-5.51284e-03	
107	9.150000e-09	-9.63311e-04	-4.83328e-03	
108	9.250000e-09	-1.37374e-03	-4.14968e-03	
109	9.350000e-09	-1.33094e-03	-3.46676e-03	
110	9.450000e-09	-1.24263e-03	-2.78356e-03	
111	9.550000e-09	-1.14676e-03	-2.10034e-03	
112	9.650000e-09	-1.05027e-03	-1.41712e-03	

Index   time            v(v1)           v(v3)           
--------------------------------------------------------------------------------
113	9.750000e-09	-9.53785e-04	-7.33903e-04	
114	9.850000e-09	-8.57650e-04	-5.06836e-05	
115	9.950000e-09	-7.61713e-04	4.834588e-04	
116	1.005000e-08	-6.65454e-04	5.593809e-04	
117	1.015000e-08	-5.68998e-04	5.575726e-04	
118	1.025000e-08	-4.72521e-04	5.324044e-04	
119	1.035000e-08	-3.76044e-04	4.999795e-04	
120	1.045000e-08	-2.79567e-04	4.684646e-04	
121	1.055000e-08	-1.83090e-04	4.370662e-04	
122	1.065000e-08	-8.66135e-05	4.057951e-04	
123	1.075000e-08	-1.90554e-06	3.745803e-04	
124	1.085000e-08	3.809786e-05	3.432148e-04	
125	1.095000e-08	4.437435e-05	3.117856e-04	
126	1.105000e-08	4.089016e-05	2.803661e-04	
127	1.115000e-08	3.576288e-05	2.489538e-04	
128	1.125000e-08	3.036042e-05	2.175408e-04	
129	1.135000e-08	2.492757e-05	1.861277e-04	
130	1.145000e-08	1.950567e-05	1.547147e-04	
131	1.155000e-08	1.409754e-05	1.281614e-04	
132	1.165000e-08	8.684139e-06	1.192114e-04	
133	1.175000e-08	3.258276e-06	1.208217e-04	
134	1.185000e-08	-2.17344e-06	1.234484e-04	
135	1.195000e-08	-7.60616e-06	1.253448e-04	
136	1.205000e-08	-1.30389e-05	1.271274e-04	
137	1.215000e-08	-1.84716e-05	1.288982e-04	
138	1.225000e-08	-2.39044e-05	1.306558e-04	
139	1.235000e-08	-2.89520e-05	1.324079e-04	
140	1.245000e-08	-3.22956e-05	1.341633e-04	
141	1.255000e-08	-3.35802e-05	1.359238e-04	
142	1.265000e-08	-3.37078e-05	1.376858e-04	
143	1.275000e-08	-3.34791e-05	1.394476e-04	
144	1.285000e-08	-3.31820e-05	1.412092e-04	
145	1.295000e-08	-3.28741e-05	1.429707e-04	
146	1.305000e-08	-3.25649e-05	1.447323e-04	
147	1.315000e-08	-3.22563e-05	1.463348e-04	
148	1.325000e-08	-3.19479e-05	1.472613e-04	
149	1.335000e-08	-3.16390e-05	1.474635e-04	
150	1.345000e-08	-3.13297e-05	1.473559e-04	
151	1.355000e-08	-3.10201e-05	1.472216e-04	
152	1.365000e-08	-3.07105e-05	1.471105e-04	
153	1.375000e-08	-3.04009e-05	1.470083e-04	
154	1.385000e-08	-3.00913e-05	1.469077e-04	
155	1.395000e-08	-2.97943e-05	1.468077e-04	
156	1.405000e-08	-2.95610e-05	1.467078e-04	
157	1.415000e-08	-2.94316e-05	1.466076e-04	
158	1.425000e-08	-2.93888e-05	1.465073e-04	
159	1.435000e-08	-2.93890e-05	1.464069e-04	
160	1.445000e-08	-2.94030e-05	1.463066e-04	
161	1.455000e-08	-2.94200e-05	1.462062e-04	
162	1.465000e-08	-2.94376e-05	1.461058e-04	
163	1.475000e-08	-2.94552e-05	1.460107e-04	
164	1.485000e-08	-2.94728e-05	1.459409e-04	
165	1.495000e-08	-2.94904e-05	1.459094e-04	
166	1.505000e-08	-2.95080e-05	1.459054e-04	
167	1.515000e-08	-2.95257e-05	1.459113e-04	
168	1.525000e-08	-2.95433e-05	1.459182e-04	
169	1.535000e-08	-2.95610e-05	1.459244e-04	
170	1.545000e-08	-2.95787e-05	1.459302e-04	

Index   time            v(v1)           v(v3)           
--------------------------------------------------------------------------------
171	1.555000e-08	-2.95959e-05	1.459359e-04	
172	1.565000e-08	-2.96108e-05	1.459416e-04	
173	1.575000e-08	-2.96209e-05	1.459473e-04	
174	1.585000e-08	-2.96259e-05	1.459530e-04	
175	1.595000e-08	-2.96272e-05	1.459587e-04	
176	1.605000e-08	-2.96269e-05	1.459645e-04	
177	1.615000e-08	-2.96261e-05	1.459702e-04	
178	1.625000e-08	-2.96251e-05	1.459759e-04	
179	1.635000e-08	-2.96241e-05	1.459815e-04	
180	1.645000e-08	-2.96231e-05	1.459861e-04	
181	1.655000e-08	-2.96221e-05	1.459889e-04	
182	1.665000e-08	-2.96211e-05	1.459899e-04	
183	1.675000e-08	-2.96201e-05	1.459900e-04	
184	1.685000e-08	-2.96191e-05	1.459896e-04	
185	1.695000e-08	-2.96181e-05	1.459893e-04	
186	1.705000e-08	-2.96171e-05	1.459889e-04	
187	1.715000e-08	-2.96161e-05	1.459886e-04	
188	1.725000e-08	-2.96152e-05	1.459883e-04	
189	1.735000e-08	-2.96145e-05	1.459879e-04	
190	1.745000e-08	-2.96140e-05	1.459876e-04	
191	1.755000e-08	-2.96139e-05	1.459873e-04	
192	1.765000e-08	-2.96138e-05	1.459870e-04	
193	1.775000e-08	-2.96139e-05	1.459866e-04	
194	1.785000e-08	-2.96139e-05	1.459863e-04	
195	1.795000e-08	-2.96140e-05	1.459860e-04	
196	1.805000e-08	-2.96140e-05	1.459857e-04	
197	1.815000e-08	-2.96141e-05	1.459855e-04	
198	1.825000e-08	-2.96141e-05	1.459854e-04	
199	1.835000e-08	-2.96142e-05	1.459853e-04	
200	1.845000e-08	-2.96142e-05	1.459853e-04	
201	1.855000e-08	-2.96143e-05	1.459854e-04	
202	1.865000e-08	-2.96144e-05	1.459854e-04	
203	1.875000e-08	-2.96144e-05	1.459854e-04	
204	1.885000e-08	-2.96145e-05	1.459854e-04	
205	1.895000e-08	-2.96145e-05	1.459854e-04	
206	1.905000e-08	-2.96145e-05	1.459855e-04	
207	1.915000e-08	-2.96146e-05	1.459855e-04	
208	1.925000e-08	-2.96146e-05	1.459855e-04	
209	1.935000e-08	-2.96146e-05	1.459855e-04	
210	1.945000e-08	-2.96146e-05	1.459855e-04	
211	1.955000e-08	-2.96146e-05	1.459856e-04	
212	1.965000e-08	-2.96146e-05	1.459856e-04	
213	1.975000e-08	-2.96146e-05	1.459856e-04	
214	1.985000e-08	-2.96146e-05	1.459856e-04	
215	1.995000e-08	-2.96146e-05	1.459856e-04	
216	2.000000e-08	-2.96146e-05	1.459856e-04	


