Warning: option itl5 is currently unsupported.
Warning: d:1:1: breakdown current increased to 0.0634043 to resolve
Warning: incompatibility with specified saturation current

Circuit:    BJTdriver -- 24inch lossy line -- DiodeCircuit

Warning -- Level not specified on line "(bf=100 rb=100 cje=0.09375pf cjc=0.28125pf is=1e-12 pe=0.5 pc=0.5)"
Using level 1.
Warning -- Level not specified on line "(bf=100 rb=100 cje=0.08187pf cjc=0.2525pf is=1e-12 pe=0.5 pc=0.5)"
Using level 1.
Warning -- Level not specified on line "(bf=100 rb=100  cje=0.08187pf cjc=0.05pf is=1e-12 pe=0.5 pc=0.5)"
Using level 1.
Doing analysis at TEMP = 300.150000 and TNOM = 300.150000

Initial Transient Solution
--------------------------

Node                                   Voltage
----                                   -------
1                                            0
10                                           5
1:22                                     4.939
1:18                                  0.646754
1:13                                  0.203467
1:16                                  0.562167
1:21                                   0.20346
1:9                                   0.203467
1:14                                  0.527376
1:15                                    1.0872
1:8                                    4.44881
1:17                               1.06243e-05
1:25                               1.06243e-05
1:12                               1.06243e-05
1:6                                    4.80965
1:26                                 0.0179277
1:10                                   3.65974
1:7                                    3.89503
1:11                                   4.31427
2                                      3.21758
1:24                                   4.77142
1:23                                         5
1:27                                    4.2568
3                                      3.21745
100                                    3.21758
101                                    3.21745
4                                  1.79123e-11
3:1                                    2.70706
3:2                                   0.902353
3:3                                    1.80471
vtest2#branch                                0
vtest1#branch                                0
vcc#branch                          -0.0322165
v1#branch                          0.000724209

doAnalyses: TRAN:  Timestep too small; time = 4.3812e-09, timestep = 1.25e-22: trouble with node "1:25"


run simulation(s) aborted
                  BJTdriver -- 24inch lossy line -- DiodeCircuit
--------------------------------------------------------------------------------
Index   time            v(1)            v(2)            v(3)            
--------------------------------------------------------------------------------
0	0.000000e+00	0.000000e+00	3.217576e+00	3.217448e+00	
1	1.000000e-12	0.000000e+00	3.217576e+00	3.217448e+00	
2	2.000000e-12	0.000000e+00	3.217576e+00	3.217448e+00	
3	4.000000e-12	0.000000e+00	3.217576e+00	3.217448e+00	
4	8.000000e-12	0.000000e+00	3.217576e+00	3.217448e+00	
5	1.600000e-11	0.000000e+00	3.217576e+00	3.217448e+00	
6	3.200000e-11	0.000000e+00	3.217576e+00	3.217448e+00	
7	6.400000e-11	0.000000e+00	3.217576e+00	3.217448e+00	
8	1.280000e-10	0.000000e+00	3.217576e+00	3.217448e+00	
9	2.280000e-10	0.000000e+00	3.217576e+00	3.217448e+00	
10	3.280000e-10	0.000000e+00	3.217576e+00	3.217448e+00	
11	4.280000e-10	0.000000e+00	3.217576e+00	3.217448e+00	
12	5.280000e-10	0.000000e+00	3.217576e+00	3.217448e+00	
13	6.280000e-10	0.000000e+00	3.217576e+00	3.217448e+00	
14	7.280000e-10	0.000000e+00	3.217576e+00	3.217448e+00	
15	8.280000e-10	0.000000e+00	3.217576e+00	3.217448e+00	
16	9.280000e-10	0.000000e+00	3.217576e+00	3.217448e+00	
17	1.000000e-09	0.000000e+00	3.217576e+00	3.217448e+00	
18	1.010000e-09	4.000000e-02	3.217830e+00	3.217448e+00	
19	1.030000e-09	1.200000e-01	3.218134e+00	3.217448e+00	
20	1.070000e-09	2.800000e-01	3.217964e+00	3.217448e+00	
21	1.126785e-09	5.071416e-01	3.217849e+00	3.217448e+00	
22	1.186779e-09	7.471159e-01	3.218050e+00	3.217448e+00	
23	1.286779e-09	1.147116e+00	3.218024e+00	3.217448e+00	
24	1.386779e-09	1.547116e+00	3.218228e+00	3.217448e+00	
25	1.486779e-09	1.947116e+00	3.218438e+00	3.217448e+00	
26	1.580569e-09	2.322275e+00	3.218477e+00	3.217448e+00	
27	1.680569e-09	2.722275e+00	3.218390e+00	3.217448e+00	
28	1.780569e-09	3.122275e+00	3.218135e+00	3.217448e+00	
29	1.880569e-09	3.522275e+00	3.215616e+00	3.217448e+00	
30	1.980569e-09	3.922275e+00	3.193848e+00	3.217448e+00	
31	2.000000e-09	4.000000e+00	3.183406e+00	3.217448e+00	
32	2.010000e-09	4.000000e+00	3.176367e+00	3.217448e+00	
33	2.030000e-09	4.000000e+00	3.160152e+00	3.217448e+00	
34	2.070000e-09	4.000000e+00	3.117223e+00	3.217448e+00	
35	2.150000e-09	4.000000e+00	3.013254e+00	3.217448e+00	
36	2.250000e-09	4.000000e+00	2.876372e+00	3.217448e+00	
37	2.350000e-09	4.000000e+00	2.696354e+00	3.217448e+00	
38	2.450000e-09	4.000000e+00	2.359621e+00	3.217448e+00	
39	2.550000e-09	4.000000e+00	1.869008e+00	3.217448e+00	
40	2.650000e-09	4.000000e+00	1.469067e+00	3.217448e+00	
41	2.739383e-09	4.000000e+00	1.221414e+00	3.217448e+00	
42	2.827378e-09	4.000000e+00	9.859266e-01	3.217448e+00	
43	2.927378e-09	4.000000e+00	6.273484e-01	3.217448e+00	
44	3.001611e-09	4.000000e+00	4.190744e-01	3.217448e+00	
45	3.073956e-09	4.000000e+00	2.763388e-01	3.217448e+00	
46	3.144685e-09	4.000000e+00	1.683039e-01	3.217448e+00	
47	3.221380e-09	4.000000e+00	1.466339e-01	3.217448e+00	
48	3.304058e-09	4.000000e+00	1.514577e-01	3.217448e+00	
49	3.404058e-09	4.000000e+00	1.482481e-01	3.217448e+00	
50	3.504058e-09	4.000000e+00	1.497770e-01	3.217448e+00	
51	3.604058e-09	4.000000e+00	1.488334e-01	3.217448e+00	
52	3.704058e-09	4.000000e+00	1.491676e-01	3.217448e+00	
53	3.804058e-09	4.000000e+00	1.489495e-01	3.217448e+00	
54	3.904058e-09	4.000000e+00	1.488890e-01	3.217448e+00	

Index   time            v(1)            v(2)            v(3)            
--------------------------------------------------------------------------------
55	4.004058e-09	4.000000e+00	1.488496e-01	3.217448e+00	
56	4.104058e-09	4.000000e+00	1.486584e-01	3.217448e+00	
57	4.204058e-09	4.000000e+00	1.486461e-01	3.217448e+00	
58	4.304058e-09	4.000000e+00	1.484162e-01	3.217448e+00	
59	4.316558e-09	4.000000e+00	1.484453e-01	3.217448e+00	
60	4.341558e-09	4.000000e+00	1.484244e-01	3.217448e+00	
61	4.347808e-09	4.000000e+00	1.484126e-01	3.217448e+00	
62	4.360308e-09	4.000000e+00	1.483936e-01	3.217448e+00	
63	4.363433e-09	4.000000e+00	1.483896e-01	3.217448e+00	
64	4.369683e-09	4.000000e+00	1.483814e-01	3.217448e+00	
65	4.371245e-09	4.000000e+00	1.483793e-01	3.217448e+00	
66	4.374370e-09	4.000000e+00	1.483751e-01	3.217448e+00	
67	4.380620e-09	4.000000e+00	1.483668e-01	3.217448e+00	
68	4.380815e-09	4.000000e+00	1.483665e-01	3.217448e+00	
69	4.380864e-09	4.000000e+00	1.483664e-01	3.217448e+00	
70	4.380962e-09	4.000000e+00	1.483663e-01	3.217448e+00	
71	4.381157e-09	4.000000e+00	1.483661e-01	3.217448e+00	
72	4.381163e-09	4.000000e+00	1.483661e-01	3.217448e+00	
73	4.381175e-09	4.000000e+00	1.483660e-01	3.217448e+00	
74	4.381179e-09	4.000000e+00	1.483660e-01	3.217448e+00	
75	4.381185e-09	4.000000e+00	1.483660e-01	3.217448e+00	
76	4.381197e-09	4.000000e+00	1.483660e-01	3.217448e+00	
77	4.381197e-09	4.000000e+00	1.483660e-01	3.217448e+00	
78	4.381198e-09	4.000000e+00	1.483660e-01	3.217448e+00	
79	4.381200e-09	4.000000e+00	1.483660e-01	3.217448e+00	
80	4.381200e-09	4.000000e+00	1.483660e-01	3.217448e+00	
81	4.381200e-09	4.000000e+00	1.483660e-01	3.217448e+00	
82	4.381200e-09	4.000000e+00	1.483660e-01	3.217448e+00	
83	4.381200e-09	4.000000e+00	1.483660e-01	3.217448e+00	
84	4.381200e-09	4.000000e+00	1.483660e-01	3.217448e+00	
85	4.381200e-09	4.000000e+00	1.483660e-01	3.217448e+00	
86	4.381200e-09	4.000000e+00	1.483660e-01	3.217448e+00	
87	4.381200e-09	4.000000e+00	1.483660e-01	3.217448e+00	
88	4.381200e-09	4.000000e+00	1.483660e-01	3.217448e+00	
89	4.381200e-09	4.000000e+00	1.483660e-01	3.217448e+00	
90	4.381200e-09	4.000000e+00	1.483660e-01	3.217448e+00	
91	4.381200e-09	4.000000e+00	1.483660e-01	3.217448e+00	
92	4.381200e-09	4.000000e+00	1.483660e-01	3.217448e+00	
93	4.381200e-09	4.000000e+00	1.483660e-01	3.217448e+00	
94	4.381200e-09	4.000000e+00	1.483660e-01	3.217448e+00	
95	4.381200e-09	4.000000e+00	1.483660e-01	3.217448e+00	
96	4.381200e-09	4.000000e+00	1.483660e-01	3.217448e+00	
97	4.381200e-09	4.000000e+00	1.483660e-01	3.217448e+00	
98	4.381200e-09	4.000000e+00	1.483660e-01	3.217448e+00	
99	4.381200e-09	4.000000e+00	1.483660e-01	3.217448e+00	
100	4.381200e-09	4.000000e+00	1.483660e-01	3.217448e+00	
101	4.381200e-09	4.000000e+00	1.483660e-01	3.217448e+00	
102	4.381200e-09	4.000000e+00	1.483660e-01	3.217448e+00	




