Warning: vin: no DC value, transient time 0 value used

Circuit: *One-shot Trigger.

Doing analysis at TEMP = 300.150000 and TNOM = 300.150000
Warning: Pd = 0 is less than W.
Warning: Ps = 0 is less than W.
Warning: Pd = 0 is less than W.
Warning: Ps = 0 is less than W.
Warning: Pd = 0 is less than W.
Warning: Ps = 0 is less than W.
Warning: Pd = 0 is less than W.
Warning: Ps = 0 is less than W.

Initial Transient Solution
--------------------------

Node                                   Voltage
----                                   -------
4                                            5
in                                           0
vdd                                          5
a                                  3.09945e-08
anot                                         5
bnot                                         5
aorbnot                                      5
1                                 -1.54818e-08
lnot                                         5
2                                      2.49766
out                                   0.529138
3                                     0.243078
vin#branch                                   0
vcc#branch                        -6.99643e-05


No. of Data Rows : 119
                               *One-shot Trigger.
--------------------------------------------------------------------------------
Index   time            in              out             
--------------------------------------------------------------------------------
0	0.000000e+00	0.000000e+00	5.291377e-01	
1	5.000000e-13	0.000000e+00	5.291377e-01	
2	1.000000e-12	0.000000e+00	5.291377e-01	
3	2.000000e-12	0.000000e+00	5.291377e-01	
4	4.000000e-12	0.000000e+00	5.291377e-01	
5	8.000000e-12	0.000000e+00	5.291377e-01	
6	1.600000e-11	0.000000e+00	5.291377e-01	
7	3.200000e-11	0.000000e+00	5.291377e-01	
8	6.400000e-11	0.000000e+00	5.291377e-01	
9	1.280000e-10	0.000000e+00	5.291377e-01	
10	2.560000e-10	0.000000e+00	5.291377e-01	
11	4.560000e-10	0.000000e+00	5.291377e-01	
12	6.560000e-10	0.000000e+00	5.291377e-01	
13	8.560000e-10	0.000000e+00	5.291377e-01	
14	1.000000e-09	0.000000e+00	5.291377e-01	
15	1.010000e-09	5.000000e-01	5.379970e-01	
16	1.030000e-09	1.500000e+00	5.533546e-01	
17	1.052728e-09	2.636424e+00	5.787224e-01	
18	1.077029e-09	3.851429e+00	5.913248e-01	
19	1.100000e-09	5.000000e+00	5.443887e-01	
20	1.102612e-09	5.000000e+00	5.300032e-01	
21	1.107837e-09	5.000000e+00	5.027434e-01	
22	1.118285e-09	5.000000e+00	4.607487e-01	
23	1.139183e-09	5.000000e+00	4.035710e-01	
24	1.160947e-09	5.000000e+00	3.638318e-01	
25	1.184619e-09	5.000000e+00	3.390990e-01	
26	1.222310e-09	5.000000e+00	3.217749e-01	
27	1.262134e-09	5.000000e+00	3.124983e-01	
28	1.319981e-09	5.000000e+00	2.661307e-01	
29	1.377300e-09	5.000000e+00	7.925828e-01	
30	1.444798e-09	5.000000e+00	2.253004e+00	
31	1.542194e-09	5.000000e+00	3.796831e+00	
32	1.646172e-09	5.000000e+00	4.183106e+00	
33	1.789835e-09	5.000000e+00	4.492047e+00	
34	1.900000e-09	5.000000e+00	4.646668e+00	
35	1.903764e-09	4.811822e+00	4.649721e+00	
36	1.911291e-09	4.435465e+00	4.655801e+00	
37	1.926345e-09	3.682752e+00	4.667814e+00	
38	1.956454e-09	2.177325e+00	4.691487e+00	
39	1.985110e-09	7.444849e-01	4.715493e+00	
40	2.000000e-09	0.000000e+00	4.730453e+00	
41	2.003060e-09	0.000000e+00	4.733617e+00	
42	2.009179e-09	0.000000e+00	4.739853e+00	
43	2.021418e-09	0.000000e+00	4.751783e+00	
44	2.045896e-09	0.000000e+00	4.773935e+00	
45	2.086762e-09	0.000000e+00	4.807140e+00	
46	2.129672e-09	0.000000e+00	4.837755e+00	
47	2.215491e-09	0.000000e+00	4.888158e+00	
48	2.324829e-09	0.000000e+00	4.935630e+00	
49	2.435368e-09	0.000000e+00	4.972118e+00	
50	2.582859e-09	0.000000e+00	4.964375e+00	
51	2.736052e-09	0.000000e+00	4.796019e+00	
52	2.936052e-09	0.000000e+00	4.394238e+00	
53	3.136052e-09	0.000000e+00	3.854842e+00	
54	3.336052e-09	0.000000e+00	1.566674e+00	

Index   time            in              out             
--------------------------------------------------------------------------------
55	3.536052e-09	0.000000e+00	6.482154e-01	
56	3.736052e-09	0.000000e+00	5.988562e-01	
57	3.936052e-09	0.000000e+00	5.614446e-01	
58	4.136052e-09	0.000000e+00	5.604804e-01	
59	4.336052e-09	0.000000e+00	5.396516e-01	
60	4.536052e-09	0.000000e+00	5.435901e-01	
61	4.736052e-09	0.000000e+00	5.318818e-01	
62	4.936052e-09	0.000000e+00	5.362335e-01	
63	5.136052e-09	0.000000e+00	5.292213e-01	
64	5.336052e-09	0.000000e+00	5.328728e-01	
65	5.536052e-09	0.000000e+00	5.284636e-01	
66	5.736052e-09	0.000000e+00	5.312430e-01	
67	5.936052e-09	0.000000e+00	5.283765e-01	
68	6.000000e-09	0.000000e+00	5.301629e-01	
69	6.004522e-09	2.260894e-01	5.340808e-01	
70	6.013565e-09	6.782683e-01	5.420932e-01	
71	6.031653e-09	1.582626e+00	5.551918e-01	
72	6.054073e-09	2.703638e+00	5.809919e-01	
73	6.080669e-09	4.033456e+00	5.879392e-01	
74	6.100000e-09	5.000000e+00	5.446457e-01	
75	6.102517e-09	5.000000e+00	5.308393e-01	
76	6.107551e-09	5.000000e+00	5.046069e-01	
77	6.117619e-09	5.000000e+00	4.636176e-01	
78	6.137756e-09	5.000000e+00	4.077799e-01	
79	6.159849e-09	5.000000e+00	3.663298e-01	
80	6.183645e-09	5.000000e+00	3.405069e-01	
81	6.217143e-09	5.000000e+00	3.236011e-01	
82	6.253635e-09	5.000000e+00	3.157738e-01	
83	6.309358e-09	5.000000e+00	2.679613e-01	
84	6.367884e-09	5.000000e+00	6.763575e-01	
85	6.438684e-09	5.000000e+00	2.101932e+00	
86	6.533843e-09	5.000000e+00	3.750492e+00	
87	6.641910e-09	5.000000e+00	4.173636e+00	
88	6.781195e-09	5.000000e+00	4.478814e+00	
89	6.900000e-09	5.000000e+00	4.647737e+00	
90	6.904034e-09	4.798289e+00	4.650993e+00	
91	6.912103e-09	4.394866e+00	4.657475e+00	
92	6.928240e-09	3.588022e+00	4.670306e+00	
93	6.956102e-09	2.194919e+00	4.692104e+00	
94	6.984476e-09	7.762006e-01	4.715643e+00	
95	7.000000e-09	1.938684e-14	4.731220e+00	
96	7.003200e-09	0.000000e+00	4.734520e+00	
97	7.009601e-09	0.000000e+00	4.741019e+00	
98	7.022403e-09	0.000000e+00	4.753426e+00	
99	7.048005e-09	0.000000e+00	4.776408e+00	
100	7.093500e-09	0.000000e+00	4.812791e+00	
101	7.136513e-09	0.000000e+00	4.842764e+00	
102	7.222541e-09	0.000000e+00	4.892085e+00	
103	7.326756e-09	0.000000e+00	4.936536e+00	
104	7.433845e-09	0.000000e+00	4.971810e+00	
105	7.587766e-09	0.000000e+00	4.961374e+00	
106	7.741789e-09	0.000000e+00	4.786900e+00	
107	7.941789e-09	0.000000e+00	4.381079e+00	
108	8.141789e-09	0.000000e+00	3.834180e+00	
109	8.341789e-09	0.000000e+00	1.499669e+00	
110	8.541789e-09	0.000000e+00	6.388233e-01	
111	8.741789e-09	0.000000e+00	5.992693e-01	
112	8.941789e-09	0.000000e+00	5.605018e-01	

Index   time            in              out             
--------------------------------------------------------------------------------
113	9.141789e-09	0.000000e+00	5.604626e-01	
114	9.341789e-09	0.000000e+00	5.392301e-01	
115	9.541789e-09	0.000000e+00	5.436552e-01	
116	9.741789e-09	0.000000e+00	5.316499e-01	
117	9.941789e-09	0.000000e+00	5.363129e-01	
118	1.000000e-08	0.000000e+00	5.310274e-01	




