
Circuit: DCFL inverter circuit

Doing analysis at TEMP = 300.150000 and TNOM = 300.150000

Initial Transient Solution
--------------------------

Node                                   Voltage
----                                   -------
1                                            2
2                                            0
3                                    -0.275446
4                                    -0.275535
vin#branch                        -3.59703e-11
vdd#branch                         1.31971e-09


No. of Data Rows : 338
                             DCFL inverter circuit
--------------------------------------------------------------------------------
Index   time            V(1)            V(2)            V(3)            
--------------------------------------------------------------------------------
0	0.000000e+00	2.000000e+00	0.000000e+00	-2.754464e-01	
1	1.000000e-13	2.000000e+00	0.000000e+00	-2.754464e-01	
2	2.000000e-13	2.000000e+00	0.000000e+00	-2.754465e-01	
3	4.000000e-13	2.000000e+00	0.000000e+00	-2.754465e-01	
4	8.000000e-13	2.000000e+00	0.000000e+00	-2.754466e-01	
5	1.600000e-12	2.000000e+00	0.000000e+00	-2.754467e-01	
6	3.200000e-12	2.000000e+00	0.000000e+00	-2.754471e-01	
7	6.400000e-12	2.000000e+00	0.000000e+00	-2.754477e-01	
8	1.280000e-11	2.000000e+00	0.000000e+00	-2.754490e-01	
9	2.280000e-11	2.000000e+00	0.000000e+00	-2.754509e-01	
10	3.280000e-11	2.000000e+00	0.000000e+00	-2.754526e-01	
11	4.280000e-11	2.000000e+00	0.000000e+00	-2.754543e-01	
12	5.280000e-11	2.000000e+00	0.000000e+00	-2.754558e-01	
13	6.280000e-11	2.000000e+00	0.000000e+00	-2.754572e-01	
14	7.280000e-11	2.000000e+00	0.000000e+00	-2.754585e-01	
15	8.280000e-11	2.000000e+00	0.000000e+00	-2.754598e-01	
16	9.280000e-11	2.000000e+00	0.000000e+00	-2.754609e-01	
17	1.028000e-10	2.000000e+00	0.000000e+00	-2.754620e-01	
18	1.128000e-10	2.000000e+00	0.000000e+00	-2.754630e-01	
19	1.228000e-10	2.000000e+00	0.000000e+00	-2.754639e-01	
20	1.328000e-10	2.000000e+00	0.000000e+00	-2.754648e-01	
21	1.428000e-10	2.000000e+00	0.000000e+00	-2.754656e-01	
22	1.528000e-10	2.000000e+00	0.000000e+00	-2.754664e-01	
23	1.628000e-10	2.000000e+00	0.000000e+00	-2.754671e-01	
24	1.728000e-10	2.000000e+00	0.000000e+00	-2.754678e-01	
25	1.828000e-10	2.000000e+00	0.000000e+00	-2.754684e-01	
26	1.928000e-10	2.000000e+00	0.000000e+00	-2.754689e-01	
27	2.028000e-10	2.000000e+00	0.000000e+00	-2.754695e-01	
28	2.128000e-10	2.000000e+00	0.000000e+00	-2.754700e-01	
29	2.228000e-10	2.000000e+00	0.000000e+00	-2.754704e-01	
30	2.328000e-10	2.000000e+00	0.000000e+00	-2.754709e-01	
31	2.428000e-10	2.000000e+00	0.000000e+00	-2.754713e-01	
32	2.528000e-10	2.000000e+00	0.000000e+00	-2.754717e-01	
33	2.628000e-10	2.000000e+00	0.000000e+00	-2.754720e-01	
34	2.728000e-10	2.000000e+00	0.000000e+00	-2.754723e-01	
35	2.828000e-10	2.000000e+00	0.000000e+00	-2.754726e-01	
36	2.928000e-10	2.000000e+00	0.000000e+00	-2.754729e-01	
37	3.028000e-10	2.000000e+00	0.000000e+00	-2.754732e-01	
38	3.128000e-10	2.000000e+00	0.000000e+00	-2.754734e-01	
39	3.228000e-10	2.000000e+00	0.000000e+00	-2.754737e-01	
40	3.328000e-10	2.000000e+00	0.000000e+00	-2.754739e-01	
41	3.428000e-10	2.000000e+00	0.000000e+00	-2.754741e-01	
42	3.528000e-10	2.000000e+00	0.000000e+00	-2.754743e-01	
43	3.628000e-10	2.000000e+00	0.000000e+00	-2.754745e-01	
44	3.728000e-10	2.000000e+00	0.000000e+00	-2.754746e-01	
45	3.828000e-10	2.000000e+00	0.000000e+00	-2.754748e-01	
46	3.928000e-10	2.000000e+00	0.000000e+00	-2.754749e-01	
47	4.028000e-10	2.000000e+00	0.000000e+00	-2.754750e-01	
48	4.128000e-10	2.000000e+00	0.000000e+00	-2.754752e-01	
49	4.228000e-10	2.000000e+00	0.000000e+00	-2.754753e-01	
50	4.328000e-10	2.000000e+00	0.000000e+00	-2.754754e-01	
51	4.428000e-10	2.000000e+00	0.000000e+00	-2.754755e-01	
52	4.528000e-10	2.000000e+00	0.000000e+00	-2.754756e-01	
53	4.628000e-10	2.000000e+00	0.000000e+00	-2.754757e-01	
54	4.728000e-10	2.000000e+00	0.000000e+00	-2.754758e-01	

Index   time            V(1)            V(2)            V(3)            
--------------------------------------------------------------------------------
55	4.828000e-10	2.000000e+00	0.000000e+00	-2.754758e-01	
56	4.928000e-10	2.000000e+00	0.000000e+00	-2.754759e-01	
57	5.028000e-10	2.000000e+00	0.000000e+00	-2.754760e-01	
58	5.128000e-10	2.000000e+00	0.000000e+00	-2.754760e-01	
59	5.228000e-10	2.000000e+00	0.000000e+00	-2.754761e-01	
60	5.328000e-10	2.000000e+00	0.000000e+00	-2.754761e-01	
61	5.428000e-10	2.000000e+00	0.000000e+00	-2.754762e-01	
62	5.528000e-10	2.000000e+00	0.000000e+00	-2.754762e-01	
63	5.628000e-10	2.000000e+00	0.000000e+00	-2.754763e-01	
64	5.728000e-10	2.000000e+00	0.000000e+00	-2.754763e-01	
65	5.828000e-10	2.000000e+00	0.000000e+00	-2.754764e-01	
66	5.928000e-10	2.000000e+00	0.000000e+00	-2.754764e-01	
67	6.028000e-10	2.000000e+00	0.000000e+00	-2.754764e-01	
68	6.128000e-10	2.000000e+00	0.000000e+00	-2.754765e-01	
69	6.228000e-10	2.000000e+00	0.000000e+00	-2.754765e-01	
70	6.328000e-10	2.000000e+00	0.000000e+00	-2.754765e-01	
71	6.428000e-10	2.000000e+00	0.000000e+00	-2.754765e-01	
72	6.528000e-10	2.000000e+00	0.000000e+00	-2.754766e-01	
73	6.628000e-10	2.000000e+00	0.000000e+00	-2.754766e-01	
74	6.728000e-10	2.000000e+00	0.000000e+00	-2.754766e-01	
75	6.828000e-10	2.000000e+00	0.000000e+00	-2.754766e-01	
76	6.928000e-10	2.000000e+00	0.000000e+00	-2.754766e-01	
77	7.028000e-10	2.000000e+00	0.000000e+00	-2.754766e-01	
78	7.128000e-10	2.000000e+00	0.000000e+00	-2.754767e-01	
79	7.228000e-10	2.000000e+00	0.000000e+00	-2.754767e-01	
80	7.328000e-10	2.000000e+00	0.000000e+00	-2.754767e-01	
81	7.428000e-10	2.000000e+00	0.000000e+00	-2.754767e-01	
82	7.528000e-10	2.000000e+00	0.000000e+00	-2.754767e-01	
83	7.628000e-10	2.000000e+00	0.000000e+00	-2.754767e-01	
84	7.728000e-10	2.000000e+00	0.000000e+00	-2.754767e-01	
85	7.828000e-10	2.000000e+00	0.000000e+00	-2.754767e-01	
86	7.928000e-10	2.000000e+00	0.000000e+00	-2.754768e-01	
87	8.028000e-10	2.000000e+00	0.000000e+00	-2.754768e-01	
88	8.128000e-10	2.000000e+00	0.000000e+00	-2.754768e-01	
89	8.228000e-10	2.000000e+00	0.000000e+00	-2.754768e-01	
90	8.328000e-10	2.000000e+00	0.000000e+00	-2.754768e-01	
91	8.428000e-10	2.000000e+00	0.000000e+00	-2.754768e-01	
92	8.528000e-10	2.000000e+00	0.000000e+00	-2.754768e-01	
93	8.628000e-10	2.000000e+00	0.000000e+00	-2.754768e-01	
94	8.728000e-10	2.000000e+00	0.000000e+00	-2.754768e-01	
95	8.828000e-10	2.000000e+00	0.000000e+00	-2.754768e-01	
96	8.928000e-10	2.000000e+00	0.000000e+00	-2.754768e-01	
97	9.028000e-10	2.000000e+00	0.000000e+00	-2.754768e-01	
98	9.128000e-10	2.000000e+00	0.000000e+00	-2.754768e-01	
99	9.228000e-10	2.000000e+00	0.000000e+00	-2.754768e-01	
100	9.328000e-10	2.000000e+00	0.000000e+00	-2.754768e-01	
101	9.428000e-10	2.000000e+00	0.000000e+00	-2.754768e-01	
102	9.528000e-10	2.000000e+00	0.000000e+00	-2.754768e-01	
103	9.628000e-10	2.000000e+00	0.000000e+00	-2.754768e-01	
104	9.728000e-10	2.000000e+00	0.000000e+00	-2.754768e-01	
105	9.828000e-10	2.000000e+00	0.000000e+00	-2.754768e-01	
106	9.928000e-10	2.000000e+00	0.000000e+00	-2.754768e-01	
107	1.000000e-09	2.000000e+00	0.000000e+00	-2.754768e-01	
108	1.000500e-09	2.000000e+00	1.000000e-01	-2.536058e-01	
109	1.000625e-09	2.000000e+00	1.250000e-01	-2.471611e-01	
110	1.000875e-09	2.000000e+00	1.750000e-01	-2.298135e-01	
111	1.001375e-09	2.000000e+00	2.750000e-01	-1.854793e-01	
112	1.001500e-09	2.000000e+00	3.000000e-01	-1.739954e-01	

Index   time            V(1)            V(2)            V(3)            
--------------------------------------------------------------------------------
113	1.001531e-09	2.000000e+00	3.062500e-01	-1.711110e-01	
114	1.001594e-09	2.000000e+00	3.187500e-01	-1.652804e-01	
115	1.001719e-09	2.000000e+00	3.437500e-01	-1.533777e-01	
116	1.001750e-09	2.000000e+00	3.500000e-01	-1.503734e-01	
117	1.001813e-09	2.000000e+00	3.625000e-01	-1.443194e-01	
118	1.001937e-09	2.000000e+00	3.875000e-01	-1.320334e-01	
119	1.001969e-09	2.000000e+00	3.937500e-01	-1.289378e-01	
120	1.002031e-09	2.000000e+00	4.062500e-01	-1.227208e-01	
121	1.002156e-09	2.000000e+00	4.312500e-01	-1.101840e-01	
122	1.002406e-09	2.000000e+00	4.812500e-01	-8.488070e-02	
123	1.002469e-09	2.000000e+00	4.937500e-01	-7.851234e-02	
124	1.002594e-09	2.000000e+00	5.187500e-01	-6.582131e-02	
125	1.002844e-09	2.000000e+00	5.687500e-01	-4.067242e-02	
126	1.003344e-09	2.000000e+00	6.687500e-01	7.817310e-03	
127	1.004344e-09	2.000000e+00	8.687500e-01	9.221666e-02	
128	1.005000e-09	2.000000e+00	1.000000e+00	1.415557e-01	
129	1.005200e-09	2.000000e+00	1.000000e+00	1.409346e-01	
130	1.005600e-09	2.000000e+00	1.000000e+00	1.372951e-01	
131	1.006400e-09	2.000000e+00	1.000000e+00	1.267527e-01	
132	1.008000e-09	2.000000e+00	1.000000e+00	1.069739e-01	
133	1.009887e-09	2.000000e+00	1.000000e+00	9.095597e-02	
134	1.012840e-09	2.000000e+00	1.000000e+00	7.439795e-02	
135	1.017563e-09	2.000000e+00	1.000000e+00	5.316238e-02	
136	1.026126e-09	2.000000e+00	1.000000e+00	2.558201e-02	
137	1.036126e-09	2.000000e+00	1.000000e+00	5.137378e-03	
138	1.046126e-09	2.000000e+00	1.000000e+00	-6.539894e-03	
139	1.056126e-09	2.000000e+00	1.000000e+00	-1.374962e-02	
140	1.066126e-09	2.000000e+00	1.000000e+00	-1.764029e-02	
141	1.076126e-09	2.000000e+00	1.000000e+00	-2.025724e-02	
142	1.086126e-09	2.000000e+00	1.000000e+00	-2.146908e-02	
143	1.096126e-09	2.000000e+00	1.000000e+00	-2.249602e-02	
144	1.106126e-09	2.000000e+00	1.000000e+00	-2.279177e-02	
145	1.116126e-09	2.000000e+00	1.000000e+00	-2.326223e-02	
146	1.126126e-09	2.000000e+00	1.000000e+00	-2.324920e-02	
147	1.136126e-09	2.000000e+00	1.000000e+00	-2.352163e-02	
148	1.146126e-09	2.000000e+00	1.000000e+00	-2.340952e-02	
149	1.156126e-09	2.000000e+00	1.000000e+00	-2.360743e-02	
150	1.166126e-09	2.000000e+00	1.000000e+00	-2.346721e-02	
151	1.176126e-09	2.000000e+00	1.000000e+00	-2.363342e-02	
152	1.186126e-09	2.000000e+00	1.000000e+00	-2.348924e-02	
153	1.196126e-09	2.000000e+00	1.000000e+00	-2.363901e-02	
154	1.206126e-09	2.000000e+00	1.000000e+00	-2.349884e-02	
155	1.216126e-09	2.000000e+00	1.000000e+00	-2.363783e-02	
156	1.226126e-09	2.000000e+00	1.000000e+00	-2.350402e-02	
157	1.236126e-09	2.000000e+00	1.000000e+00	-2.363451e-02	
158	1.246126e-09	2.000000e+00	1.000000e+00	-2.350757e-02	
159	1.256126e-09	2.000000e+00	1.000000e+00	-2.363075e-02	
160	1.266126e-09	2.000000e+00	1.000000e+00	-2.351057e-02	
161	1.276126e-09	2.000000e+00	1.000000e+00	-2.362707e-02	
162	1.286126e-09	2.000000e+00	1.000000e+00	-2.351321e-02	
163	1.296126e-09	2.000000e+00	1.000000e+00	-2.362354e-02	
164	1.306126e-09	2.000000e+00	1.000000e+00	-2.351565e-02	
165	1.316126e-09	2.000000e+00	1.000000e+00	-2.362025e-02	
166	1.326126e-09	2.000000e+00	1.000000e+00	-2.351795e-02	
167	1.336126e-09	2.000000e+00	1.000000e+00	-2.361721e-02	
168	1.346126e-09	2.000000e+00	1.000000e+00	-2.352013e-02	
169	1.356126e-09	2.000000e+00	1.000000e+00	-2.361438e-02	
170	1.366126e-09	2.000000e+00	1.000000e+00	-2.352220e-02	

Index   time            V(1)            V(2)            V(3)            
--------------------------------------------------------------------------------
171	1.376126e-09	2.000000e+00	1.000000e+00	-2.361177e-02	
172	1.386126e-09	2.000000e+00	1.000000e+00	-2.352416e-02	
173	1.396126e-09	2.000000e+00	1.000000e+00	-2.360933e-02	
174	1.406126e-09	2.000000e+00	1.000000e+00	-2.352602e-02	
175	1.416126e-09	2.000000e+00	1.000000e+00	-2.360707e-02	
176	1.426126e-09	2.000000e+00	1.000000e+00	-2.352778e-02	
177	1.436126e-09	2.000000e+00	1.000000e+00	-2.360497e-02	
178	1.446126e-09	2.000000e+00	1.000000e+00	-2.352945e-02	
179	1.456126e-09	2.000000e+00	1.000000e+00	-2.360300e-02	
180	1.466126e-09	2.000000e+00	1.000000e+00	-2.353104e-02	
181	1.476126e-09	2.000000e+00	1.000000e+00	-2.360117e-02	
182	1.486126e-09	2.000000e+00	1.000000e+00	-2.353255e-02	
183	1.496126e-09	2.000000e+00	1.000000e+00	-2.359945e-02	
184	1.506126e-09	2.000000e+00	1.000000e+00	-2.353398e-02	
185	1.516126e-09	2.000000e+00	1.000000e+00	-2.359784e-02	
186	1.526126e-09	2.000000e+00	1.000000e+00	-2.353533e-02	
187	1.536126e-09	2.000000e+00	1.000000e+00	-2.359634e-02	
188	1.546126e-09	2.000000e+00	1.000000e+00	-2.353662e-02	
189	1.556126e-09	2.000000e+00	1.000000e+00	-2.359492e-02	
190	1.566126e-09	2.000000e+00	1.000000e+00	-2.353785e-02	
191	1.576126e-09	2.000000e+00	1.000000e+00	-2.359359e-02	
192	1.586126e-09	2.000000e+00	1.000000e+00	-2.353906e-02	
193	1.596126e-09	2.000000e+00	1.000000e+00	-2.359239e-02	
194	1.606126e-09	2.000000e+00	1.000000e+00	-2.354012e-02	
195	1.616126e-09	2.000000e+00	1.000000e+00	-2.359115e-02	
196	1.626126e-09	2.000000e+00	1.000000e+00	-2.354117e-02	
197	1.636126e-09	2.000000e+00	1.000000e+00	-2.359004e-02	
198	1.646126e-09	2.000000e+00	1.000000e+00	-2.354217e-02	
199	1.656126e-09	2.000000e+00	1.000000e+00	-2.358899e-02	
200	1.666126e-09	2.000000e+00	1.000000e+00	-2.354313e-02	
201	1.676126e-09	2.000000e+00	1.000000e+00	-2.358799e-02	
202	1.686126e-09	2.000000e+00	1.000000e+00	-2.354403e-02	
203	1.696126e-09	2.000000e+00	1.000000e+00	-2.358705e-02	
204	1.706126e-09	2.000000e+00	1.000000e+00	-2.354490e-02	
205	1.716126e-09	2.000000e+00	1.000000e+00	-2.358616e-02	
206	1.726126e-09	2.000000e+00	1.000000e+00	-2.354573e-02	
207	1.736126e-09	2.000000e+00	1.000000e+00	-2.358531e-02	
208	1.746126e-09	2.000000e+00	1.000000e+00	-2.354651e-02	
209	1.756126e-09	2.000000e+00	1.000000e+00	-2.358451e-02	
210	1.766126e-09	2.000000e+00	1.000000e+00	-2.354726e-02	
211	1.776126e-09	2.000000e+00	1.000000e+00	-2.358374e-02	
212	1.786126e-09	2.000000e+00	1.000000e+00	-2.354798e-02	
213	1.796126e-09	2.000000e+00	1.000000e+00	-2.358302e-02	
214	1.806126e-09	2.000000e+00	1.000000e+00	-2.354866e-02	
215	1.816126e-09	2.000000e+00	1.000000e+00	-2.358232e-02	
216	1.826126e-09	2.000000e+00	1.000000e+00	-2.354932e-02	
217	1.836126e-09	2.000000e+00	1.000000e+00	-2.358167e-02	
218	1.846126e-09	2.000000e+00	1.000000e+00	-2.354994e-02	
219	1.856126e-09	2.000000e+00	1.000000e+00	-2.358104e-02	
220	1.866126e-09	2.000000e+00	1.000000e+00	-2.355054e-02	
221	1.876126e-09	2.000000e+00	1.000000e+00	-2.358044e-02	
222	1.886126e-09	2.000000e+00	1.000000e+00	-2.355111e-02	
223	1.896126e-09	2.000000e+00	1.000000e+00	-2.357987e-02	
224	1.906126e-09	2.000000e+00	1.000000e+00	-2.355166e-02	
225	1.916126e-09	2.000000e+00	1.000000e+00	-2.357932e-02	
226	1.926126e-09	2.000000e+00	1.000000e+00	-2.355218e-02	
227	1.936126e-09	2.000000e+00	1.000000e+00	-2.357880e-02	
228	1.946126e-09	2.000000e+00	1.000000e+00	-2.355268e-02	

Index   time            V(1)            V(2)            V(3)            
--------------------------------------------------------------------------------
229	1.956126e-09	2.000000e+00	1.000000e+00	-2.357830e-02	
230	1.966126e-09	2.000000e+00	1.000000e+00	-2.355316e-02	
231	1.976126e-09	2.000000e+00	1.000000e+00	-2.357782e-02	
232	1.986126e-09	2.000000e+00	1.000000e+00	-2.355363e-02	
233	1.996126e-09	2.000000e+00	1.000000e+00	-2.357736e-02	
234	2.000000e-09	2.000000e+00	1.000000e+00	-2.355441e-02	
235	2.001000e-09	2.000000e+00	1.000000e+00	-2.356510e-02	
236	2.003000e-09	2.000000e+00	1.000000e+00	-2.356606e-02	
237	2.007000e-09	2.000000e+00	1.000000e+00	-2.356518e-02	
238	2.015000e-09	2.000000e+00	1.000000e+00	-2.356602e-02	
239	2.025000e-09	2.000000e+00	1.000000e+00	-2.356519e-02	
240	2.035000e-09	2.000000e+00	1.000000e+00	-2.356600e-02	
241	2.045000e-09	2.000000e+00	1.000000e+00	-2.356521e-02	
242	2.055000e-09	2.000000e+00	1.000000e+00	-2.356599e-02	
243	2.065000e-09	2.000000e+00	1.000000e+00	-2.356522e-02	
244	2.075000e-09	2.000000e+00	1.000000e+00	-2.356597e-02	
245	2.085000e-09	2.000000e+00	1.000000e+00	-2.356523e-02	
246	2.095000e-09	2.000000e+00	1.000000e+00	-2.356595e-02	
247	2.105000e-09	2.000000e+00	1.000000e+00	-2.356525e-02	
248	2.115000e-09	2.000000e+00	1.000000e+00	-2.356594e-02	
249	2.125000e-09	2.000000e+00	1.000000e+00	-2.356526e-02	
250	2.135000e-09	2.000000e+00	1.000000e+00	-2.356593e-02	
251	2.145000e-09	2.000000e+00	1.000000e+00	-2.356527e-02	
252	2.155000e-09	2.000000e+00	1.000000e+00	-2.356591e-02	
253	2.165000e-09	2.000000e+00	1.000000e+00	-2.356528e-02	
254	2.175000e-09	2.000000e+00	1.000000e+00	-2.356590e-02	
255	2.185000e-09	2.000000e+00	1.000000e+00	-2.356529e-02	
256	2.195000e-09	2.000000e+00	1.000000e+00	-2.356589e-02	
257	2.205000e-09	2.000000e+00	1.000000e+00	-2.356530e-02	
258	2.215000e-09	2.000000e+00	1.000000e+00	-2.356588e-02	
259	2.225000e-09	2.000000e+00	1.000000e+00	-2.356531e-02	
260	2.235000e-09	2.000000e+00	1.000000e+00	-2.356586e-02	
261	2.245000e-09	2.000000e+00	1.000000e+00	-2.356532e-02	
262	2.255000e-09	2.000000e+00	1.000000e+00	-2.356585e-02	
263	2.265000e-09	2.000000e+00	1.000000e+00	-2.356533e-02	
264	2.275000e-09	2.000000e+00	1.000000e+00	-2.356584e-02	
265	2.285000e-09	2.000000e+00	1.000000e+00	-2.356534e-02	
266	2.295000e-09	2.000000e+00	1.000000e+00	-2.356583e-02	
267	2.305000e-09	2.000000e+00	1.000000e+00	-2.356535e-02	
268	2.315000e-09	2.000000e+00	1.000000e+00	-2.356583e-02	
269	2.325000e-09	2.000000e+00	1.000000e+00	-2.356536e-02	
270	2.335000e-09	2.000000e+00	1.000000e+00	-2.356582e-02	
271	2.345000e-09	2.000000e+00	1.000000e+00	-2.356537e-02	
272	2.355000e-09	2.000000e+00	1.000000e+00	-2.356581e-02	
273	2.365000e-09	2.000000e+00	1.000000e+00	-2.356537e-02	
274	2.375000e-09	2.000000e+00	1.000000e+00	-2.356580e-02	
275	2.385000e-09	2.000000e+00	1.000000e+00	-2.356538e-02	
276	2.395000e-09	2.000000e+00	1.000000e+00	-2.356579e-02	
277	2.405000e-09	2.000000e+00	1.000000e+00	-2.356539e-02	
278	2.415000e-09	2.000000e+00	1.000000e+00	-2.356578e-02	
279	2.425000e-09	2.000000e+00	1.000000e+00	-2.356540e-02	
280	2.435000e-09	2.000000e+00	1.000000e+00	-2.356578e-02	
281	2.445000e-09	2.000000e+00	1.000000e+00	-2.356540e-02	
282	2.455000e-09	2.000000e+00	1.000000e+00	-2.356577e-02	
283	2.465000e-09	2.000000e+00	1.000000e+00	-2.356541e-02	
284	2.475000e-09	2.000000e+00	1.000000e+00	-2.356576e-02	
285	2.485000e-09	2.000000e+00	1.000000e+00	-2.356542e-02	
286	2.495000e-09	2.000000e+00	1.000000e+00	-2.356576e-02	

Index   time            V(1)            V(2)            V(3)            
--------------------------------------------------------------------------------
287	2.505000e-09	2.000000e+00	1.000000e+00	-2.356542e-02	
288	2.515000e-09	2.000000e+00	1.000000e+00	-2.356575e-02	
289	2.525000e-09	2.000000e+00	1.000000e+00	-2.356543e-02	
290	2.535000e-09	2.000000e+00	1.000000e+00	-2.356575e-02	
291	2.545000e-09	2.000000e+00	1.000000e+00	-2.356543e-02	
292	2.555000e-09	2.000000e+00	1.000000e+00	-2.356574e-02	
293	2.565000e-09	2.000000e+00	1.000000e+00	-2.356544e-02	
294	2.575000e-09	2.000000e+00	1.000000e+00	-2.356574e-02	
295	2.585000e-09	2.000000e+00	1.000000e+00	-2.356544e-02	
296	2.595000e-09	2.000000e+00	1.000000e+00	-2.356573e-02	
297	2.605000e-09	2.000000e+00	1.000000e+00	-2.356545e-02	
298	2.615000e-09	2.000000e+00	1.000000e+00	-2.356572e-02	
299	2.625000e-09	2.000000e+00	1.000000e+00	-2.356545e-02	
300	2.635000e-09	2.000000e+00	1.000000e+00	-2.356572e-02	
301	2.645000e-09	2.000000e+00	1.000000e+00	-2.356546e-02	
302	2.655000e-09	2.000000e+00	1.000000e+00	-2.356572e-02	
303	2.665000e-09	2.000000e+00	1.000000e+00	-2.356546e-02	
304	2.675000e-09	2.000000e+00	1.000000e+00	-2.356571e-02	
305	2.685000e-09	2.000000e+00	1.000000e+00	-2.356547e-02	
306	2.695000e-09	2.000000e+00	1.000000e+00	-2.356571e-02	
307	2.705000e-09	2.000000e+00	1.000000e+00	-2.356547e-02	
308	2.715000e-09	2.000000e+00	1.000000e+00	-2.356570e-02	
309	2.725000e-09	2.000000e+00	1.000000e+00	-2.356548e-02	
310	2.735000e-09	2.000000e+00	1.000000e+00	-2.356570e-02	
311	2.745000e-09	2.000000e+00	1.000000e+00	-2.356548e-02	
312	2.755000e-09	2.000000e+00	1.000000e+00	-2.356569e-02	
313	2.765000e-09	2.000000e+00	1.000000e+00	-2.356548e-02	
314	2.775000e-09	2.000000e+00	1.000000e+00	-2.356569e-02	
315	2.785000e-09	2.000000e+00	1.000000e+00	-2.356549e-02	
316	2.795000e-09	2.000000e+00	1.000000e+00	-2.356569e-02	
317	2.805000e-09	2.000000e+00	1.000000e+00	-2.356549e-02	
318	2.815000e-09	2.000000e+00	1.000000e+00	-2.356568e-02	
