!2-port S-parameter file
!Title: test for scattering parameters
!Generated by ngspice at Mon Jun 29 16:30:10  2026
# Hz S RI R 50
!freq           ReS11          ImS11          ReS21          ImS21          ReS12          ImS12          ReS22          ImS22        
 2.500000e+06  -1.358762e-03  -1.726349e-02   9.966563e-01  -7.959753e-02   9.966563e-01  -7.959753e-02  -1.358762e-03  -1.726349e-02  
 5.000000e+06  -5.439573e-03  -3.397117e-02   9.867253e-01  -1.585780e-01   9.867253e-01  -1.585780e-01  -5.439573e-03  -3.397117e-02  
 7.500000e+06  -1.205882e-02  -4.958988e-02   9.703054e-01  -2.363411e-01   9.703054e-01  -2.363411e-01  -1.205882e-02  -4.958988e-02  
 1.000000e+07  -2.095226e-02  -6.363041e-02   9.475859e-01  -3.123192e-01   9.475859e-01  -3.123192e-01  -2.095226e-02  -6.363041e-02  
 1.250000e+07  -3.176693e-02  -7.566616e-02   9.188161e-01  -3.859893e-01   9.188161e-01  -3.859893e-01  -3.176693e-02  -7.566616e-02  
 1.500000e+07  -4.407645e-02  -8.534828e-02   8.842915e-01  -4.568821e-01   8.842915e-01  -4.568821e-01  -4.407645e-02  -8.534828e-02  
 1.750000e+07  -5.739842e-02  -9.241679e-02   8.443387e-01  -5.245862e-01   8.443387e-01  -5.245862e-01  -5.739842e-02  -9.241679e-02  
 2.000000e+07  -7.121292e-02  -9.670767e-02   7.992999e-01  -5.887480e-01   7.992999e-01  -5.887480e-01  -7.121292e-02  -9.670767e-02  
 2.250000e+07  -8.498089e-02  -9.815599e-02   7.495191e-01  -6.490667e-01   7.495191e-01  -6.490667e-01  -8.498089e-02  -9.815599e-02  
 2.500000e+07  -9.816184e-02  -9.679587e-02   6.953303e-01  -7.052862e-01   6.953303e-01  -7.052862e-01  -9.816184e-02  -9.679587e-02  
 2.750000e+07  -1.102302e-01  -9.275778e-02   6.370488e-01  -7.571844e-01   6.370488e-01  -7.571844e-01  -1.102302e-01  -9.275778e-02  
 3.000000e+07  -1.206903e-01  -8.626387e-02   5.749671e-01  -8.045597e-01   5.749671e-01  -8.045597e-01  -1.206903e-01  -8.626387e-02  
 3.250000e+07  -1.290901e-01  -7.762196e-02   5.093540e-01  -8.472181e-01   5.093540e-01  -8.472181e-01  -1.290901e-01  -7.762196e-02  
 3.500000e+07  -1.350339e-01  -6.721847e-02   4.404583e-01  -8.849594e-01   4.404583e-01  -8.849594e-01  -1.350339e-01  -6.721847e-02  
 3.750000e+07  -1.381947e-01  -5.551036e-02   3.685166e-01  -9.175655e-01   3.685166e-01  -9.175655e-01  -1.381947e-01  -5.551036e-02  
 4.000000e+07  -1.383257e-01  -4.301599e-02   2.937651e-01  -9.447911e-01   2.937651e-01  -9.447911e-01  -1.383257e-01  -4.301599e-02  
 4.250000e+07  -1.352730e-01  -3.030416e-02   2.164537e-01  -9.663575e-01   2.164537e-01  -9.663575e-01  -1.352730e-01  -3.030416e-02  
 4.500000e+07  -1.289872e-01  -1.798090e-02   1.368634e-01  -9.819513e-01   1.368634e-01  -9.819513e-01  -1.289872e-01  -1.798090e-02  
 4.750000e+07  -1.195356e-01  -6.672926e-03   5.532482e-02  -9.912277e-01   5.532482e-02  -9.912277e-01  -1.195356e-01  -6.672926e-03  
 5.000000e+07  -1.071119e-01   2.992941e-03  -2.776434e-02  -9.938209e-01  -2.776434e-02  -9.938209e-01  -1.071119e-01   2.992941e-03  
 5.250000e+07  -9.204473e-02   1.041495e-02  -1.119227e-01  -9.893593e-01  -1.119227e-01  -9.893593e-01  -9.204473e-02   1.041495e-02  
 5.500000e+07  -7.479988e-02   1.504632e-02  -1.965734e-01  -9.774880e-01  -1.965734e-01  -9.774880e-01  -7.479988e-02   1.504632e-02  
 5.750000e+07  -5.597718e-02   1.642913e-02  -2.810392e-01  -9.578959e-01  -2.810392e-01  -9.578959e-01  -5.597718e-02   1.642913e-02  
 6.000000e+07  -3.629761e-02   1.423063e-02  -3.645451e-01  -9.303453e-01  -3.645451e-01  -9.303453e-01  -3.629761e-02   1.423063e-02  
 6.250000e+07  -1.658003e-02   8.279254e-03  -4.462325e-01  -8.947021e-01  -4.462325e-01  -8.947021e-01  -1.658003e-02   8.279254e-03  
 6.500000e+07   2.293456e-03  -1.403107e-03  -5.251827e-01  -8.509618e-01  -5.251827e-01  -8.509618e-01   2.293456e-03  -1.403107e-03  
 6.750000e+07   1.942301e-02  -1.457657e-02  -6.004512e-01  -7.992673e-01  -6.004512e-01  -7.992673e-01   1.942301e-02  -1.457657e-02  
 7.000000e+07   3.394498e-02  -3.077019e-02  -6.711071e-01  -7.399144e-01  -6.711071e-01  -7.399144e-01   3.394498e-02  -3.077019e-02  
 7.250000e+07   4.509064e-02  -4.928309e-02  -7.362749e-01  -6.733425e-01  -7.362749e-01  -6.733425e-01   4.509064e-02  -4.928309e-02  
 7.500000e+07   5.224510e-02  -6.920078e-02  -7.951722e-01  -6.001083e-01  -7.951722e-01  -6.001083e-01   5.224510e-02  -6.920078e-02  
 7.750000e+07   5.500169e-02  -8.942553e-02  -8.471349e-01  -5.208459e-01  -8.471349e-01  -5.208459e-01   5.500169e-02  -8.942553e-02  
 8.000000e+07   5.320862e-02  -1.087178e-01  -8.916265e-01  -4.362158e-01  -8.916265e-01  -4.362158e-01   5.320862e-02  -1.087178e-01  
 8.250000e+07   4.700673e-02  -1.257444e-01  -9.282245e-01  -3.468485e-01  -9.282245e-01  -3.468485e-01   4.700673e-02  -1.257444e-01  
 8.500000e+07   3.686015e-02  -1.391301e-01  -9.565809e-01  -2.532925e-01  -9.565809e-01  -2.532925e-01   3.686015e-02  -1.391301e-01  
 8.750000e+07   2.358475e-02  -1.475095e-01  -9.763571e-01  -1.559739e-01  -9.763571e-01  -1.559739e-01   2.358475e-02  -1.475095e-01  
 9.000000e+07   8.381382e-03  -1.495831e-01  -9.871299e-01  -5.517864e-02  -9.871299e-01  -5.517864e-02   8.381382e-03  -1.495831e-01  
 9.250000e+07  -7.118544e-03  -1.441840e-01  -9.882734e-01   4.892923e-02  -9.882734e-01   4.892923e-02  -7.118544e-03  -1.441840e-01  
 9.500000e+07  -2.079005e-02  -1.303751e-01  -9.788181e-01   1.562356e-01  -9.788181e-01   1.562356e-01  -2.079005e-02  -1.303751e-01  
 9.750000e+07  -2.993798e-02  -1.076032e-01  -9.573006e-01   2.665235e-01  -9.573006e-01   2.665235e-01  -2.993798e-02  -1.076032e-01  
 1.000000e+08  -3.123039e-02  -7.595215e-02  -9.216321e-01   3.792038e-01  -9.216321e-01   3.792038e-01  -3.123039e-02  -7.595215e-02  
 1.025000e+08  -2.070470e-02  -3.654144e-02  -8.690529e-01   4.928882e-01  -8.690529e-01   4.928882e-01  -2.070470e-02  -3.654144e-02  
 1.050000e+08   6.025502e-03   7.907262e-03  -7.963008e-01   6.047861e-01  -7.963008e-01   6.047861e-01   6.025502e-03   7.907262e-03  
 1.075000e+08   5.315491e-02   5.240190e-02  -7.002024e-01   7.099973e-01  -7.002024e-01   7.099973e-01   5.315491e-02   5.240190e-02  
 1.100000e+08   1.234268e-01   8.919325e-02  -5.789199e-01   8.009873e-01  -5.789199e-01   8.009873e-01   1.234268e-01   8.919325e-02  
 1.125000e+08   2.161923e-01   1.080766e-01  -4.338893e-01   8.678549e-01  -4.338893e-01   8.678549e-01   2.161923e-01   1.080766e-01  
 1.150000e+08   3.253809e-01   9.825973e-02  -2.718540e-01   9.001720e-01  -2.718540e-01   9.001720e-01   3.253809e-01   9.825973e-02  
 1.175000e+08   4.388659e-01   5.198956e-02  -1.055070e-01   8.905890e-01  -1.055070e-01   8.905890e-01   4.388659e-01   5.198956e-02  
 1.200000e+08   5.408130e-01  -3.149563e-02   4.884981e-02   8.387714e-01   4.884981e-02   8.387714e-01   5.408130e-01  -3.149563e-02  
 1.225000e+08   6.167585e-01  -1.444873e-01   1.763784e-01   7.528644e-01   1.763784e-01   7.528644e-01   6.167585e-01  -1.444873e-01  
 1.250000e+08   6.585082e-01  -2.734229e-01   2.685960e-01   6.468633e-01   2.685960e-01   6.468633e-01   6.585082e-01  -2.734229e-01  
 1.275000e+08   6.657311e-01  -4.039413e-01   3.249590e-01   5.355451e-01   3.249590e-01   5.355451e-01   6.657311e-01  -4.039413e-01  
 1.300000e+08   6.439584e-01  -5.250419e-01   3.508493e-01   4.302996e-01   3.508493e-01   4.302996e-01   6.439584e-01  -5.250419e-01  
 1.325000e+08   6.011843e-01  -6.305572e-01   3.541621e-01   3.376531e-01   3.541621e-01   3.376531e-01   6.011843e-01  -6.305572e-01  
 1.350000e+08   5.451725e-01  -7.184622e-01   3.426007e-01   2.599575e-01   3.426007e-01   2.599575e-01   5.451725e-01  -7.184622e-01  
 1.375000e+08   4.821433e-01  -7.893860e-01   3.223551e-01   1.968808e-01   3.223551e-01   1.968808e-01   4.821433e-01  -7.893860e-01  
 1.400000e+08   4.165141e-01  -8.452649e-01   2.978358e-01   1.467550e-01   2.978358e-01   1.467550e-01   4.165141e-01  -8.452649e-01  
 1.425000e+08   3.511565e-01  -8.884498e-01   2.719260e-01   1.074716e-01   2.719260e-01   1.074716e-01   3.511565e-01  -8.884498e-01  
 1.450000e+08   2.877951e-01  -9.212259e-01   2.463757e-01   7.696353e-02   2.463757e-01   7.696353e-02   2.877951e-01  -9.212259e-01  
 1.475000e+08   2.273727e-01  -9.456046e-01   2.221642e-01   5.341517e-02   2.221642e-01   5.341517e-02   2.273727e-01  -9.456046e-01  
 1.500000e+08   1.703290e-01  -9.632664e-01   1.997756e-01   3.532106e-02   1.997756e-01   3.532106e-02   1.703290e-01  -9.632664e-01  
 1.525000e+08   1.167948e-01  -9.755766e-01   1.793909e-01   2.147277e-02   1.793909e-01   2.147277e-02   1.167948e-01  -9.755766e-01  
 1.550000e+08   6.671938e-02  -9.836268e-01   1.610137e-01   1.091828e-02   1.610137e-01   1.091828e-02   6.671938e-02  -9.836268e-01  
 1.575000e+08   1.995235e-02  -9.882835e-01   1.445500e-01   2.915383e-03   1.445500e-01   2.915383e-03   1.995235e-02  -9.882835e-01  
 1.600000e+08  -2.370667e-02  -9.902329e-01   1.298576e-01  -3.111475e-03   1.298576e-01  -3.111475e-03  -2.370667e-02  -9.902329e-01  
 1.625000e+08  -6.447758e-02  -9.900183e-01   1.167745e-01  -7.607606e-03   1.167745e-01  -7.607606e-03  -6.447758e-02  -9.900183e-01  
 1.650000e+08  -1.025822e-01  -9.880715e-01   1.051368e-01  -1.091749e-02   1.051368e-01  -1.091749e-02  -1.025822e-01  -9.880715e-01  
 1.675000e+08  -1.382345e-01  -9.847362e-01   9.478726e-02  -1.330789e-02   9.478726e-02  -1.330789e-02  -1.382345e-01  -9.847362e-01  
 1.700000e+08  -1.716355e-01  -9.802877e-01   8.558031e-02  -1.498573e-02   8.558031e-02  -1.498573e-02  -1.716355e-01  -9.802877e-01  
 1.725000e+08  -2.029710e-01  -9.749474e-01   7.738382e-02  -1.611186e-02   7.738382e-02  -1.611186e-02  -2.029710e-01  -9.749474e-01  
 1.750000e+08  -2.324111e-01  -9.688939e-01   7.007948e-02  -1.681159e-02   7.007948e-02  -1.681159e-02  -2.324111e-01  -9.688939e-01  
 1.775000e+08  -2.601105e-01  -9.622725e-01   6.356230e-02  -1.718275e-02   6.356230e-02  -1.718275e-02  -2.601105e-01  -9.622725e-01  
 1.800000e+08  -2.862096e-01  -9.552014e-01   5.773960e-02  -1.730188e-02   5.773960e-02  -1.730188e-02  -2.862096e-01  -9.552014e-01  
 1.825000e+08  -3.108352e-01  -9.477774e-01   5.252990e-02  -1.722893e-02   5.252990e-02  -1.722893e-02  -3.108352e-01  -9.477774e-01  
 1.850000e+08  -3.341022e-01  -9.400800e-01   4.786169e-02  -1.701095e-02   4.786169e-02  -1.701095e-02  -3.341022e-01  -9.400800e-01  
 1.875000e+08  -3.561145e-01  -9.321749e-01   4.367231e-02  -1.668487e-02   4.367231e-02  -1.668487e-02  -3.561145e-01  -9.321749e-01  
 1.900000e+08  -3.769660e-01  -9.241162e-01   3.990685e-02  -1.627969e-02   3.990685e-02  -1.627969e-02  -3.769660e-01  -9.241162e-01  
 1.925000e+08  -3.967419e-01  -9.159490e-01   3.651720e-02  -1.581817e-02   3.651720e-02  -1.581817e-02  -3.967419e-01  -9.159490e-01  
 1.950000e+08  -4.155196e-01  -9.077105e-01   3.346118e-02  -1.531815e-02   3.346118e-02  -1.531815e-02  -4.155196e-01  -9.077105e-01  
 1.975000e+08  -4.333691e-01  -8.994320e-01   3.070179e-02  -1.479358e-02   3.070179e-02  -1.479358e-02  -4.333691e-01  -8.994320e-01  
 2.000000e+08  -4.503545e-01  -8.911392e-01   2.820653e-02  -1.425535e-02   2.820653e-02  -1.425535e-02  -4.503545e-01  -8.911392e-01  
 2.025000e+08  -4.665341e-01  -8.828538e-01   2.594680e-02  -1.371188e-02   2.594680e-02  -1.371188e-02  -4.665341e-01  -8.828538e-01  
 2.050000e+08  -4.819612e-01  -8.745937e-01   2.389744e-02  -1.316967e-02   2.389744e-02  -1.316967e-02  -4.819612e-01  -8.745937e-01  
 2.075000e+08  -4.966844e-01  -8.663740e-01   2.203625e-02  -1.263369e-02   2.203625e-02  -1.263369e-02  -4.966844e-01  -8.663740e-01  
 2.100000e+08  -5.107484e-01  -8.582071e-01   2.034363e-02  -1.210767e-02   2.034363e-02  -1.210767e-02  -5.107484e-01  -8.582071e-01  
 2.125000e+08  -5.241943e-01  -8.501032e-01   1.880226e-02  -1.159437e-02   1.880226e-02  -1.159437e-02  -5.241943e-01  -8.501032e-01  
 2.150000e+08  -5.370598e-01  -8.420709e-01   1.739678e-02  -1.109581e-02   1.739678e-02  -1.109581e-02  -5.370598e-01  -8.420709e-01  
 2.175000e+08  -5.493797e-01  -8.341172e-01   1.611357e-02  -1.061336e-02   1.611357e-02  -1.061336e-02  -5.493797e-01  -8.341172e-01  
 2.200000e+08  -5.611860e-01  -8.262478e-01   1.494054e-02  -1.014795e-02   1.494054e-02  -1.014795e-02  -5.611860e-01  -8.262478e-01  
 2.225000e+08  -5.725084e-01  -8.184672e-01   1.386692e-02  -9.700091e-03   1.386692e-02  -9.700091e-03  -5.725084e-01  -8.184672e-01  
 2.250000e+08  -5.833743e-01  -8.107791e-01   1.288314e-02  -9.270031e-03   1.288314e-02  -9.270031e-03  -5.833743e-01  -8.107791e-01  
 2.275000e+08  -5.938092e-01  -8.031864e-01   1.198062e-02  -8.857773e-03   1.198062e-02  -8.857773e-03  -5.938092e-01  -8.031864e-01  
 2.300000e+08  -6.038367e-01  -7.956913e-01   1.115174e-02  -8.463144e-03   1.115174e-02  -8.463144e-03  -6.038367e-01  -7.956913e-01  
 2.325000e+08  -6.134786e-01  -7.882954e-01   1.038964e-02  -8.085839e-03   1.038964e-02  -8.085839e-03  -6.134786e-01  -7.882954e-01  
 2.350000e+08  -6.227555e-01  -7.809997e-01   9.688200e-03  -7.725449e-03   9.688200e-03  -7.725449e-03  -6.227555e-01  -7.809997e-01  
 2.375000e+08  -6.316864e-01  -7.738050e-01   9.041918e-03  -7.381493e-03   9.041918e-03  -7.381493e-03  -6.316864e-01  -7.738050e-01  
 2.400000e+08  -6.402889e-01  -7.667116e-01   8.445851e-03  -7.053439e-03   8.445851e-03  -7.053439e-03  -6.402889e-01  -7.667116e-01  
 2.425000e+08  -6.485798e-01  -7.597196e-01   7.895554e-03  -6.740717e-03   7.895554e-03  -6.740717e-03  -6.485798e-01  -7.597196e-01  
 2.450000e+08  -6.565745e-01  -7.528286e-01   7.387021e-03  -6.442737e-03   7.387021e-03  -6.442737e-03  -6.565745e-01  -7.528286e-01  
 2.475000e+08  -6.642874e-01  -7.460383e-01   6.916640e-03  -6.158900e-03   6.916640e-03  -6.158900e-03  -6.642874e-01  -7.460383e-01  
 2.500000e+08  -6.717324e-01  -7.393479e-01   6.481147e-03  -5.888603e-03   6.481147e-03  -5.888603e-03  -6.717324e-01  -7.393479e-01  
