# HZ S RI R 50
1.07000000000000000000e+08 +9.10612811414344691663e-01 -4.13169361932556822303e-01 +3.58748396996190531752e-03 +7.90670646175397305588e-03 +3.58748396996190531752e-03 +7.90670646175397305588e-03 +9.10612811414344691663e-01 -4.13169361932556822303e-01
1.07600000000000000000e+08 +9.08235089938359885231e-01 -4.18357965192380332198e-01 +3.87160175700515963443e-03 +8.40506184306095451009e-03 +3.87160175700515963443e-03 +8.40506184306095451009e-03 +9.08235089938359885231e-01 -4.18357965192380332198e-01
1.08200000000000000000e+08 +9.05749587403653522166e-01 -4.23698325415379828396e-01 +4.18204303082422238630e-03 +8.94004890380398729854e-03 +4.18204303082422238630e-03 +8.94004890380398729854e-03 +9.05749587403653522166e-01 -4.23698325415379883907e-01
1.08800000000000000000e+08 +9.03148132734517106179e-01 -4.29199802742280811518e-01 +4.52173719143059496539e-03 +9.51491234400438264107e-03 +4.52173719143059496539e-03 +9.51491234400438264107e-03 +9.03148132734517106179e-01 -4.29199802742280811518e-01
1.09400000000000000000e+08 +9.00421705997276333733e-01 -4.34872530176818039571e-01 +4.89400500260515122081e-03 +1.01332414163138578161e-02 +4.89400500260515122081e-03 +1.01332414163138578161e-02 +9.00421705997276222710e-01 -4.34872530176818039571e-01
1.10000000000000000000e+08 +8.97560326671087205241e-01 -4.40727493499846412206e-01 +5.30262050968193648925e-03 +1.07990126939620512125e-02 +5.30262050968193648925e-03 +1.07990126939620512125e-02 +8.97560326671087205241e-01 -4.40727493499846467717e-01
1.10600000000000000000e+08 +8.94552923981059566749e-01 -4.46776620978363570025e-01 +5.75188437592742858595e-03 +1.15166388420669847659e-02 +5.75188437592742858595e-03 +1.15166388420669847659e-02 +8.94552923981059566749e-01 -4.46776620978363570025e-01
1.11200000000000000000e+08 +8.91387185874491061455e-01 -4.53032884216226061636e-01 +6.24671105749824082110e-03 +1.22910243042241851263e-02 +6.24671105749824082110e-03 +1.22910243042241851263e-02 +8.91387185874491061455e-01 -4.53032884216226061636e-01
1.11800000000000000000e+08 +8.88049382462717695752e-01 -4.59510411684503461416e-01 +6.79273281927252579881e-03 +1.31276289546426536831e-02 +6.79273281927252579881e-03 +1.31276289546426536831e-02 +8.88049382462717584730e-01 -4.59510411684503461416e-01
1.12400000000000000000e+08 +8.84524158800256921076e-01 -4.66224616682866299655e-01 +7.39642433361215653059e-03 +1.40325409206529441025e-02 +7.39642433361215653059e-03 +1.40325409206529441025e-02 +8.84524158800256921076e-01 -4.66224616682866299655e-01
1.13000000000000000000e+08 +8.80794290674400959240e-01 -4.73192341717892483999e-01 +8.06525254871107676047e-03 +1.50125599496431123836e-02 +8.06525254871107676047e-03 +1.50125599496431123836e-02 +8.80794290674400959240e-01 -4.73192341717892483999e-01
1.13600000000000000000e+08 +8.76840395559183138907e-01 -4.80432021535730224837e-01 +8.80785772578509228159e-03 +1.60752928741492231990e-02 +8.80785772578509228159e-03 +1.60752928741492231990e-02 +8.76840395559183138907e-01 -4.80432021535730169326e-01
1.14200000000000000000e+08 +8.72640588950992834860e-01 -4.87963867306267284896e-01 +9.63427310957915526701e-03 +1.72292629101185625073e-02 +9.63427310957915526701e-03 +1.72292629101185625073e-02 +8.72640588950992834860e-01 -4.87963867306267395918e-01
1.14800000000000000000e+08 +8.68170073819481191713e-01 -4.95810074706974301950e-01 +1.05561927286469178083e-02 +1.84840346898929169805e-02 +1.05561927286469178083e-02 +1.84840346898929169805e-02 +8.68170073819481191713e-01 -4.95810074706974246439e-01
1.15400000000000000000e+08 +8.63400647702665446914e-01 -5.03995058866944289910e-01 +1.15872994754173033044e-02 +1.98503570544751144211e-02 +1.15872994754173033044e-02 +1.98503570544751144211e-02 +8.63400647702665446914e-01 -5.03995058866944289910e-01
1.16000000000000000000e+08 +8.58300107813398716061e-01 -5.12545719254411613619e-01 +1.27436691026065560678e-02 +2.13403256603461738417e-02 +1.27436691026065560678e-02 +2.13403256603461738417e-02 +8.58300107813398716061e-01 -5.12545719254411613619e-01
1.16600000000000000000e+08 +8.52831529083974415606e-01 -5.21491737538981703359e-01 +1.40442703825286278885e-02 +2.29675673131932087112e-02 +1.40442703825286278885e-02 +2.29675673131932087112e-02 +8.52831529083974415606e-01 -5.21491737538981703359e-01
1.17200000000000000000e+08 +8.46952382915109547312e-01 -5.30865911093095221851e-01 +1.55115878109843285948e-02 +2.47474474905705343897e-02 +1.55115878109843285948e-02 +2.47474474905705343897e-02 +8.46952382915109658335e-01 -5.30865911093095221851e-01
1.17800000000000000000e+08 +8.40613454904811319146e-01 -5.40704523886904042662e-01 +1.71724014566747885946e-02 +2.66973015386259178439e-02 +1.71724014566747885946e-02 +2.66973015386259178439e-02 +8.40613454904811319146e-01 -5.40704523886904042662e-01
1.18400000000000000000e+08 +8.33757507163127353778e-01 -5.51047754704064529641e-01 +1.90587696432502860799e-02 +2.88366881666843703769e-02 +1.90587696432502860799e-02 +2.88366881666843703769e-02 +8.33757507163127242755e-01 -5.51047754704064529641e-01
1.19000000000000000000e+08 +8.26317613782773907616e-01 -5.61940119254769165913e-01 +2.12092752066929506050e-02 +3.11876605324044979539e-02 +2.12092752066929506050e-02 +3.11876605324044979539e-02 +8.26317613782773907616e-01 -5.61940119254769165913e-01
1.19600000000000000000e+08 +8.18215074961415989030e-01 -5.73430936892501019742e-01 +2.36706166567796187639e-02 +3.37750444494076887403e-02 +2.36706166567796187639e-02 +3.37750444494076887403e-02 +8.18215074961415989030e-01 -5.73430936892501019742e-01
1.20200000000000000000e+08 +8.09356783794367262708e-01 -5.85574802618157308487e-01 +2.64996539077710438481e-02 +3.66267034759058598969e-02 +2.64996539077710438481e-02 +3.66267034759058598969e-02 +8.09356783794367151685e-01 -5.85574802618157308487e-01
1.20800000000000000000e+08 +7.99631876521557427573e-01 -5.98432028175489127975e-01 +2.97660574957424005349e-02 +3.97737542299275784186e-02 +2.97660574957424005349e-02 +3.97737542299275784186e-02 +7.99631876521557538595e-01 -5.98432028175489127975e-01
1.21400000000000000000e+08 +7.88907437254089627388e-01 -6.12068987795145957875e-01 +3.35557648838942790270e-02 +4.32506678291533358527e-02 +3.35557648838942790270e-02 +4.32506678291533358527e-02 +7.88907437254089738410e-01 -6.12068987795145957875e-01
1.22000000000000000000e+08 +7.77022945174120960310e-01 -6.26558256937955193600e-01 +3.79755239917851997178e-02 +4.70951474501905345549e-02 +3.79755239917851997178e-02 +4.70951474501905345549e-02 +7.77022945174120960310e-01 -6.26558256937955304622e-01
1.22600000000000000000e+08 +7.63783036426104788852e-01 -6.41978353306991378346e-01 +4.31589115020280175705e-02 +5.13475949867441897045e-02 +4.31589115020280175705e-02 +5.13475949867441897045e-02 +7.63783036426104899874e-01 -6.41978353306991267324e-01
1.23200000000000000000e+08 +7.48947991379154576208e-01 -6.58412756234040386083e-01 +4.92743642326537167886e-02 +5.60498498382881113478e-02 +4.92743642326537167886e-02 +5.60498498382881113478e-02 +7.48947991379154465186e-01 -6.58412756234040386083e-01
1.23800000000000000000e+08 +7.32221133494524778484e-01 -6.75947654675000730862e-01 +5.65359722796431041214e-02 +6.12426619420981047104e-02 +5.65359722796431041214e-02 +6.12426619420981047104e-02 +7.32221133494524667462e-01 -6.75947654675000730862e-01
1.24400000000000000000e+08 +7.13232018117048838235e-01 -6.94667487538792149948e-01 +6.52180722502373466654e-02 +6.69609822298508489125e-02 +6.52180722502373466654e-02 +6.69609822298508489125e-02 +7.13232018117048838235e-01 -6.94667487538792149948e-01
1.25000000000000000000e+08 +6.91513879029558520273e-01 -7.14646672219031442452e-01 +7.56750654227188457313e-02 +7.32254973969026640157e-02 +7.56750654227188457313e-02 +7.32254973969026640157e-02 +6.91513879029558742317e-01 -7.14646672219031664497e-01
1.25600000000000000000e+08 +6.66473286596086511580e-01 -7.35934751791925023667e-01 +8.83683681884297467235e-02 +8.00276880990771627422e-02 +8.83683681884297467235e-02 +8.00276880990771627422e-02 +6.66473286596086400557e-01 -7.35934751791925023667e-01
1.26200000000000000000e+08 +6.37349418889811336619e-01 -7.58530139785663415353e-01 +1.03902913067786747958e-01 +8.73036650638884248465e-02 +1.03902913067786747958e-01 +8.73036650638884248465e-02 +6.37349418889811336619e-01 -7.58530139785663415353e-01
1.26800000000000000000e+08 +6.03160016271287791056e-01 -7.82334008994332363862e-01 +1.23075894784645631375e-01 +9.48884464275511901876e-02 +1.23075894784645631375e-01 +9.48884464275511901876e-02 +6.03160016271287791056e-01 -7.82334008994332252840e-01
1.27400000000000000000e+08 +5.62631768181749869484e-01 -8.07069443849200984786e-01 +1.46939705431997608143e-01 +1.02435976127424777093e-01 +1.46939705431997608143e-01 +1.02435976127424777093e-01 +5.62631768181750091529e-01 -8.07069443849201206831e-01
1.28000000000000000000e+08 +5.14116722910564871718e-01 -8.32139762338305111200e-01 +1.76877066035562968693e-01 +1.09279067848783703609e-01 +1.76877066035562968693e-01 +1.09279067848783703609e-01 +5.14116722910564760696e-01 -8.32139762338305111200e-01
1.28600000000000000000e+08 +4.55508881725662506668e-01 -8.56381160970645760599e-01 +2.14673667923626160237e-01 +1.14184859345813238818e-01 +2.14673667923626160237e-01 +1.14184859345813238818e-01 +4.55508881725662451156e-01 -8.56381160970645538555e-01
1.29200000000000000000e+08 +3.84210082447127954097e-01 -8.77636826483634058249e-01 +2.62538535983115273176e-01 +1.14933591562888362536e-01 +2.62538535983115273176e-01 +1.14933591562888362536e-01 +3.84210082447127676541e-01 -8.77636826483634058249e-01
1.29800000000000000000e+08 +2.97282439804261167104e-01 -8.92050849400025880342e-01 +3.22933968491662837241e-01 +1.07620095999508322282e-01 +3.22933968491662837241e-01 +1.07620095999508322282e-01 +2.97282439804260945060e-01 -8.92050849400025658298e-01
1.30400000000000000000e+08 +1.92124026112849011216e-01 -8.93003103562596822762e-01 +3.97877265327953033580e-01 +8.56008022912990995668e-02 +3.97877265327953033580e-01 +8.56008022912990995668e-02 +1.92124026112848844683e-01 -8.93003103562597155829e-01
1.31000000000000000000e+08 +6.83696830944386380047e-02 -8.69873938402882518339e-01 +4.87011020451681930776e-01 +3.82777177954215439004e-02 +4.87011020451681930776e-01 +3.82777177954215439004e-02 +6.83696830944385824935e-02 -8.69873938402882740384e-01
1.31600000000000000000e+08 -6.79609918130797963087e-02 -8.07833653901424253441e-01 +5.83418457384371480501e-01 -4.90815117870006464851e-02 +5.83418457384371480501e-01 -4.90815117870006464851e-02 -6.79609918130799073310e-02 -8.07833653901424364463e-01
1.32200000000000000000e+08 -1.98153839635750228521e-01 -6.92090925495786102317e-01 +6.67267837493468296550e-01 -1.91046695157952195476e-01 +6.67267837493468296550e-01 -1.91046695157952195476e-01 -1.98153839635750284032e-01 -6.92090925495785880273e-01
1.32800000000000000000e+08 -2.88122535752197594938e-01 -5.21098980196032735002e-01 +7.03079580788580793538e-01 -3.88742022822993749109e-01 +7.03079580788580793538e-01 -3.88742022822993749109e-01 -2.88122535752197039827e-01 -5.21098980196032179890e-01
1.33400000000000000000e+08 -3.02899090104842838578e-01 -3.23184234498291922399e-01 +6.54154450530631925709e-01 -6.13095462906359078836e-01 +6.54154450530631925709e-01 -6.13095462906359078836e-01 -3.02899090104841950399e-01 -3.23184234498290756665e-01
1.34000000000000000000e+08 -2.37828639780715223040e-01 -1.50750676934625182923e-01 +5.13708511510395426924e-01 -8.10441445574923924333e-01 +5.13708511510395426924e-01 -8.10441445574923924333e-01 -2.37828639780715112018e-01 -1.50750676934625460479e-01
1.34600000000000000000e+08 -1.28778381340762526630e-01 -4.31933080860871232431e-02 +3.15050440267938713923e-01 -9.39304895506694381702e-01 +3.15050440267938713923e-01 -9.39304895506694381702e-01 -1.28778381340763359297e-01 -4.31933080860877338658e-02
1.35200000000000000000e+08 -2.26687593006301701948e-02 -2.32886210872496057789e-03 +1.02169999172554967770e-01 -9.94505904970966247980e-01 +1.02169999172554967770e-01 -9.94505904970966247980e-01 -2.26687593006293930387e-02 -2.32886210872484955559e-03
1.35800000000000000000e+08 +5.12317245896800610439e-02 -5.08765253339041323422e-03 -9.86895486310297442856e-02 -9.93785590144210084773e-01 -9.86895486310297442856e-02 -9.93785590144210084773e-01 +5.12317245896809492223e-02 -5.08765253339038547864e-03
1.36400000000000000000e+08 +8.40418978386497927957e-02 -2.47111790981879020368e-02 -2.81008072924272656046e-01 -9.55699105360378831087e-01 -2.81008072924272656046e-01 -9.55699105360378831087e-01 +8.40418978386494597288e-02 -2.47111790981878742812e-02
1.37000000000000000000e+08 +7.85557334917619254355e-02 -3.95099779062877409785e-02 -4.47583614504772686615e-01 -8.89908347195507376526e-01 -4.47583614504772686615e-01 -8.89908347195507376526e-01 +7.85557334917602601010e-02 -3.95099779062870748447e-02
1.37600000000000000000e+08 +4.33521236669899279192e-02 -3.27109643899355928554e-02 -6.01428618147698434981e-01 -7.97078542839531056785e-01 -6.01428618147698434981e-01 -7.97078542839531056785e-01 +4.33521236669892617854e-02 -3.27109643899353708107e-02
1.38200000000000000000e+08 -8.04940534568654442182e-03 +8.85863432498479319577e-03 -7.40049151858467535448e-01 -6.72446268860972695691e-01 -7.40049151858467535448e-01 -6.72446268860972695691e-01 -8.04940534568665544413e-03 +8.85863432498462666231e-03
1.38800000000000000000e+08 -5.58391713551985857666e-02 +9.30142688617066060175e-02 -8.52308017760986635913e-01 -5.11665296449570261572e-01 -8.52308017760986635913e-01 -5.11665296449570261572e-01 -5.58391713551986690334e-02 +9.30142688617063284617e-02
1.39400000000000000000e+08 -7.51065097618354160502e-02 +2.16574628409290537157e-01 -9.19641887566338023241e-01 -3.18925134089829143136e-01 -9.19641887566338023241e-01 -3.18925134089829143136e-01 -7.51065097618356380949e-02 +2.16574628409290093067e-01
1.40000000000000000000e+08 -4.41585566854835187556e-02 +3.60278820495524731982e-01 -9.24877650887353075504e-01 -1.13360152888461893084e-01 -9.24877650887353075504e-01 -1.13360152888461893084e-01 -4.41585566854836297779e-02 +3.60278820495526064249e-01
1.40600000000000000000e+08 +4.25841585503898278908e-02 +4.93237478947128604734e-01 -8.65631579526607741748e-01 +7.47351813318648527940e-02 -8.65631579526607741748e-01 +7.47351813318648527940e-02 +4.25841585503898834020e-02 +4.93237478947128660245e-01
1.41200000000000000000e+08 +1.69816611909315795526e-01 +5.88499794210738835787e-01 -7.59475009375782605936e-01 +2.19152961803428608656e-01 -7.59475009375782605936e-01 +2.19152961803428608656e-01 +1.69816611909315740014e-01 +5.88499794210738613742e-01
1.41800000000000000000e+08 +3.11691537919532690726e-01 +6.36052617943876796858e-01 -6.33875259743318597572e-01 +3.10624544235383104329e-01 -6.33875259743318597572e-01 +3.10624544235383104329e-01 +3.11691537919532857259e-01 +6.36052617943877018902e-01
1.42400000000000000000e+08 +4.46363884348691120074e-01 +6.41957335175016075013e-01 -5.11847516613783248829e-01 +3.55896308354627821657e-01 -5.11847516613783248829e-01 +3.55896308354627821657e-01 +4.46363884348690953541e-01 +6.41957335175016075013e-01
1.43000000000000000000e+08 +5.62328031516411086521e-01 +6.19153247397310035893e-01 -4.05752187949748654994e-01 +3.68512690666458253563e-01 -4.05752187949748654994e-01 +3.68512690666458253563e-01 +5.62328031516411086521e-01 +6.19153247397310257938e-01
1.43600000000000000000e+08 +6.56703034170113220114e-01 +5.79966141570946946970e-01 -3.19101877505562903092e-01 +3.61323112069375451672e-01 -3.19101877505562903092e-01 +3.61323112069375451672e-01 +6.56703034170113664203e-01 +5.79966141570947391060e-01
1.44200000000000000000e+08 +7.31225299542947571041e-01 +5.33281885204806793688e-01 -2.50632247696477128418e-01 +3.43661852167726378227e-01 -2.50632247696477128418e-01 +3.43661852167726378227e-01 +7.31225299542947126952e-01 +5.33281885204806571643e-01
1.44800000000000000000e+08 +7.89253603441596229828e-01 +4.84595814808915670291e-01 -1.97341163269705077710e-01 +3.21406457625694363944e-01 -1.97341163269705077710e-01 +3.21406457625694363944e-01 +7.89253603441595785739e-01 +4.84595814808915281713e-01
1.45400000000000000000e+08 +8.34238858661892845880e-01 +4.36956610777625931163e-01 -1.56049924295309616618e-01 +2.97930978791497547142e-01 -1.56049924295309616618e-01 +2.97930978791497547142e-01 +8.34238858661892956903e-01 +4.36956610777625931163e-01
1.46000000000000000000e+08 +8.69145732343485355464e-01 +3.91878699879104397397e-01 -1.24003647625265986387e-01 +2.75027045771496170268e-01 -1.24003647625265986387e-01 +2.75027045771496170268e-01 +8.69145732343485466487e-01 +3.91878699879104508419e-01
1.46600000000000000000e+08 +8.96333661820903238038e-01 +3.49988747700131330731e-01 -9.90060323794834662436e-02 +2.53557979015644252563e-01 -9.90060323794834662436e-02 +2.53557979015644252563e-01 +8.96333661820903238038e-01 +3.49988747700131330731e-01
1.47200000000000000000e+08 +9.17614949219226927468e-01 +3.11429199085059171814e-01 -7.93727086503074746870e-02 +2.33868835136589070522e-01 -7.93727086503074746870e-02 +2.33868835136589070522e-01 +9.17614949219226927468e-01 +3.11429199085059060792e-01
1.47800000000000000000e+08 +9.34360276091864228043e-01 +2.76094265020993989701e-01 -6.38341075139270547334e-02 +2.16027863948048792775e-01 -6.38341075139270547334e-02 +2.16027863948048792775e-01 +9.34360276091864339065e-01 +2.76094265020993934190e-01
1.48400000000000000000e+08 +9.47601398965509655881e-01 +2.43762504731008078362e-01 -5.14389708525672395556e-02 +1.99963652305866934622e-01 -5.14389708525672395556e-02 +1.99963652305866934622e-01 +9.47601398965509877925e-01 +2.43762504731008078362e-01
1.49000000000000000000e+08 +9.58115897463989729665e-01 +2.14168948404499598359e-01 -4.14742398544802881588e-02 +1.85541035877714699520e-01 -4.14742398544802881588e-02 +1.85541035877714699520e-01 +9.58115897463989951710e-01 +2.14168948404499737137e-01
1.49600000000000000000e+08 +9.66492476705455239028e-01 +1.87042904238775814507e-01 -3.34032487122101762189e-02 +1.72602049295914855565e-01 -3.34032487122101762189e-02 +1.72602049295914855565e-01 +9.66492476705455016983e-01 +1.87042904238775786752e-01
1.50200000000000000000e+08 +9.73179715504686182470e-01 +1.62126666826780146957e-01 -2.68196353517203348038e-02 +1.60987242952528530893e-01 -2.68196353517203348038e-02 +1.60987242952528530893e-01 +9.73179715504686071448e-01 +1.62126666826780230224e-01
1.50800000000000000000e+08 +9.78521947841751504882e-01 +1.39183784557022988126e-01 -2.14134987589714859135e-02 +1.50546118446372279021e-01 -2.14134987589714859135e-02 +1.50546118446372279021e-01 +9.78521947841751504882e-01 +1.39183784557023071393e-01
1.51400000000000000000e+08 +9.82785550685771336354e-01 +1.18001749656824000967e-01 -1.69466865545634358392e-02 +1.41141624817103600309e-01 -1.69466865545634358392e-02 +1.41141624817103600309e-01 +9.82785550685771447377e-01 +1.18001749656824028722e-01
1.52000000000000000000e+08 +9.86178216288868814132e-01 +9.83918184497583336867e-02 -1.32347489362253222661e-02 +1.32651487741551277200e-01 -1.32347489362253222661e-02 +1.32651487741551277200e-01 +9.86178216288868814132e-01 +9.83918184497583614423e-02
1.52600000000000000000e+08 +9.88863134958873568614e-01 +8.01874542817054003496e-02 -1.01337169681433910545e-02 +1.24967916984866367347e-01 -1.01337169681433910545e-02 +1.24967916984866367347e-01 +9.88863134958873679636e-01 +8.01874542817053725940e-02
1.53200000000000000000e+08 +9.90969491202608132596e-01 +6.32422036209547150376e-02 -7.53036459310523452471e-03 +1.17996545694793272818e-01 -7.53036459310523452471e-03 +1.17996545694793272818e-01 +9.90969491202608132596e-01 +6.32422036209546178931e-02
1.53800000000000000000e+08 +9.92600283416096629274e-01 +4.74274344189095364843e-02 -5.33499072627072364050e-03 +1.11655065718824664245e-01 -5.33499072627072364050e-03 +1.11655065718824664245e-01 +9.92600283416096740297e-01 +4.74274344189094532176e-02
