
No. of Data Rows : 91

Circuit: * Simulation of MESFET output conductance

Doing analysis at TEMP = 300.150000 and TNOM = 300.150000
                   * Simulation of MESFET output conductance
--------------------------------------------------------------------------------
Index   frequency                       v(3)                            
--------------------------------------------------------------------------------
0	1.000000e-03,	0.000000e+00	-8.965836e-04,	6.902362e-19	
1	1.258925e-03,	0.000000e+00	-8.966291e-04,	8.689560e-19	
2	1.584893e-03,	0.000000e+00	-8.966864e-04,	1.093951e-18	
3	1.995262e-03,	0.000000e+00	-8.967585e-04,	1.377203e-18	
4	2.511886e-03,	0.000000e+00	-8.968492e-04,	1.733796e-18	
5	3.162278e-03,	0.000000e+00	-8.969635e-04,	2.182721e-18	
6	3.981072e-03,	0.000000e+00	-8.971074e-04,	2.747884e-18	
7	5.011872e-03,	0.000000e+00	-8.972885e-04,	3.459383e-18	
8	6.309573e-03,	0.000000e+00	-8.975165e-04,	4.355108e-18	
9	7.943282e-03,	0.000000e+00	-8.978035e-04,	5.482761e-18	
10	1.000000e-02,	0.000000e+00	-8.981649e-04,	6.902395e-18	
11	1.258925e-02,	0.000000e+00	-8.986199e-04,	8.689612e-18	
12	1.584893e-02,	0.000000e+00	-8.991926e-04,	1.093959e-17	
13	1.995262e-02,	0.000000e+00	-8.999137e-04,	1.377216e-17	
14	2.511886e-02,	0.000000e+00	-9.008215e-04,	1.733817e-17	
15	3.162278e-02,	0.000000e+00	-9.019645e-04,	2.182754e-17	
16	3.981072e-02,	0.000000e+00	-9.034034e-04,	2.747936e-17	
17	5.011872e-02,	0.000000e+00	-9.052150e-04,	3.459464e-17	
18	6.309573e-02,	0.000000e+00	-9.074958e-04,	4.355236e-17	
19	7.943282e-02,	0.000000e+00	-9.103672e-04,	5.482962e-17	
20	1.000000e-01,	0.000000e+00	-9.139824e-04,	6.902710e-17	
21	1.258925e-01,	0.000000e+00	-9.185336e-04,	8.690104e-17	
22	1.584893e-01,	0.000000e+00	-9.242630e-04,	1.094036e-16	
23	1.995262e-01,	0.000000e+00	-9.314747e-04,	1.377335e-16	
24	2.511886e-01,	0.000000e+00	-9.405505e-04,	1.733999e-16	
25	3.162278e-01,	0.000000e+00	-9.519685e-04,	2.183031e-16	
26	3.981072e-01,	0.000000e+00	-9.663249e-04,	2.748353e-16	
27	5.011872e-01,	0.000000e+00	-9.843591e-04,	3.460081e-16	
28	6.309573e-01,	0.000000e+00	-1.006979e-03,	4.356124e-16	
29	7.943282e-01,	0.000000e+00	-1.035279e-03,	5.484192e-16	
30	1.000000e+00,	0.000000e+00	-1.070545e-03,	6.904308e-16	
31	1.258925e+00,	0.000000e+00	-1.114211e-03,	8.691951e-16	
32	1.584893e+00,	0.000000e+00	-1.167731e-03,	1.094197e-15	
33	1.995262e+00,	0.000000e+00	-1.232294e-03,	1.377343e-15	
34	2.511886e+00,	0.000000e+00	-1.308280e-03,	1.733570e-15	
35	3.162278e+00,	0.000000e+00	-1.394424e-03,	2.181614e-15	
36	3.981072e+00,	0.000000e+00	-1.486819e-03,	2.745011e-15	
37	5.011872e+00,	0.000000e+00	-1.578371e-03,	3.453445e-15	
38	6.309573e+00,	0.000000e+00	-1.659776e-03,	4.344535e-15	
39	7.943282e+00,	0.000000e+00	-1.722639e-03,	5.466032e-15	
40	1.000000e+01,	0.000000e+00	-1.763385e-03,	6.878303e-15	
41	1.258925e+01,	0.000000e+00	-1.784787e-03,	8.657178e-15	
42	1.584893e+01,	0.000000e+00	-1.793547e-03,	1.089764e-14	
43	1.995262e+01,	0.000000e+00	-1.796207e-03,	1.371889e-14	
44	2.511886e+01,	0.000000e+00	-1.796769e-03,	1.727095e-14	
45	3.162278e+01,	0.000000e+00	-1.796845e-03,	2.174281e-14	
46	3.981072e+01,	0.000000e+00	-1.796851e-03,	2.737258e-14	
47	5.011872e+01,	0.000000e+00	-1.796851e-03,	3.446003e-14	
48	6.309573e+01,	0.000000e+00	-1.796851e-03,	4.338261e-14	
49	7.943282e+01,	0.000000e+00	-1.796851e-03,	5.461547e-14	
50	1.000000e+02,	0.000000e+00	-1.796851e-03,	6.875681e-14	
51	1.258925e+02,	0.000000e+00	-1.796851e-03,	8.655969e-14	
52	1.584893e+02,	0.000000e+00	-1.796851e-03,	1.089722e-13	
53	1.995262e+02,	0.000000e+00	-1.796851e-03,	1.371879e-13	
54	2.511886e+02,	0.000000e+00	-1.796851e-03,	1.727093e-13	

Index   frequency                       v(3)                            
--------------------------------------------------------------------------------
55	3.162278e+02,	0.000000e+00	-1.796851e-03,	2.174281e-13	
56	3.981072e+02,	0.000000e+00	-1.796851e-03,	2.737258e-13	
57	5.011872e+02,	0.000000e+00	-1.796851e-03,	3.446003e-13	
58	6.309573e+02,	0.000000e+00	-1.796851e-03,	4.338261e-13	
59	7.943282e+02,	0.000000e+00	-1.796851e-03,	5.461547e-13	
60	1.000000e+03,	0.000000e+00	-1.796851e-03,	6.875681e-13	
61	1.258925e+03,	0.000000e+00	-1.796851e-03,	8.655969e-13	
62	1.584893e+03,	0.000000e+00	-1.796851e-03,	1.089722e-12	
63	1.995262e+03,	0.000000e+00	-1.796851e-03,	1.371879e-12	
64	2.511886e+03,	0.000000e+00	-1.796851e-03,	1.727093e-12	
65	3.162278e+03,	0.000000e+00	-1.796851e-03,	2.174281e-12	
66	3.981072e+03,	0.000000e+00	-1.796851e-03,	2.737258e-12	
67	5.011872e+03,	0.000000e+00	-1.796851e-03,	3.446003e-12	
68	6.309573e+03,	0.000000e+00	-1.796851e-03,	4.338261e-12	
69	7.943282e+03,	0.000000e+00	-1.796851e-03,	5.461547e-12	
70	1.000000e+04,	0.000000e+00	-1.796851e-03,	6.875681e-12	
71	1.258925e+04,	0.000000e+00	-1.796851e-03,	8.655969e-12	
72	1.584893e+04,	0.000000e+00	-1.796851e-03,	1.089722e-11	
73	1.995262e+04,	0.000000e+00	-1.796851e-03,	1.371879e-11	
74	2.511886e+04,	0.000000e+00	-1.796851e-03,	1.727093e-11	
75	3.162278e+04,	0.000000e+00	-1.796851e-03,	2.174281e-11	
76	3.981072e+04,	0.000000e+00	-1.796851e-03,	2.737258e-11	
77	5.011872e+04,	0.000000e+00	-1.796851e-03,	3.446003e-11	
78	6.309573e+04,	0.000000e+00	-1.796851e-03,	4.338261e-11	
79	7.943282e+04,	0.000000e+00	-1.796851e-03,	5.461547e-11	
80	1.000000e+05,	0.000000e+00	-1.796851e-03,	6.875681e-11	
81	1.258925e+05,	0.000000e+00	-1.796851e-03,	8.655969e-11	
82	1.584893e+05,	0.000000e+00	-1.796851e-03,	1.089722e-10	
83	1.995262e+05,	0.000000e+00	-1.796851e-03,	1.371879e-10	
84	2.511886e+05,	0.000000e+00	-1.796851e-03,	1.727093e-10	
85	3.162278e+05,	0.000000e+00	-1.796851e-03,	2.174281e-10	
86	3.981072e+05,	0.000000e+00	-1.796851e-03,	2.737258e-10	
87	5.011872e+05,	0.000000e+00	-1.796851e-03,	3.446003e-10	
88	6.309573e+05,	0.000000e+00	-1.796851e-03,	4.338261e-10	
89	7.943282e+05,	0.000000e+00	-1.796851e-03,	5.461547e-10	
90	1.000000e+06,	0.000000e+00	-1.796851e-03,	6.875681e-10	




